Element, Terminal, P(kW), Q(kvar),  P_Normal, Q_Normal, P_Emergency, Q_Emergency
"Line.L115"             ,   1,       569.4,       216.0,         0.0,         0.0,         0.0,         0.0
"Line.L115"             ,   2,      -567.9,      -213.0
"Line.L1"               ,   1,         4.7,         2.3,         0.0,         0.0,         0.0,         0.0
"Line.L1"               ,   2,        -4.7,        -2.3
"Line.L2"               ,   1,        23.5,        11.8,         0.0,         0.0,         0.0,         0.0
"Line.L2"               ,   2,       -23.5,       -11.8
"Line.L3"               ,   1,       530.3,       194.2,         0.0,         0.0,         0.0,         0.0
"Line.L3"               ,   2,      -529.3,      -192.2
"Line.L4"               ,   1,         9.4,         4.7,         0.0,         0.0,         0.0,         0.0
"Line.L4"               ,   2,        -9.4,        -4.7
"Line.L5"               ,   1,        14.1,         7.1,         0.0,         0.0,         0.0,         0.0
"Line.L5"               ,   2,       -14.1,        -7.0
"Line.L6"               ,   1,         9.4,         4.7,         0.0,         0.0,         0.0,         0.0
"Line.L6"               ,   2,        -9.4,        -4.7
"Line.L7"               ,   1,       524.6,       189.9,         0.0,         0.0,         0.0,         0.0
"Line.L7"               ,   2,      -524.0,      -188.6
"Line.L8"               ,   1,         4.7,         2.3,         0.0,         0.0,         0.0,         0.0
"Line.L8"               ,   2,        -4.7,        -2.3
"Line.L9"               ,   1,        10.2,        11.8,         0.0,         0.0,         0.0,         0.0
"Line.L9"               ,   2,       -10.2,       -11.8
"Line.L10"              ,   1,       509.1,       174.5,         0.0,         0.0,         0.0,         0.0
"Line.L10"              ,   2,      -508.2,      -172.7
"Line.L11"              ,   1,        14.1,         7.1,         0.0,         0.0,         0.0,         0.0
"Line.L11"              ,   2,       -14.1,        -7.0
"Line.L12"              ,   1,        23.5,        11.8,         0.0,         0.0,         0.0,         0.0
"Line.L12"              ,   2,       -23.5,       -11.7
"Line.L13"              ,   1,       179.4,       154.2,         0.0,         0.0,         0.0,         0.0
"Line.L13"              ,   2,      -179.0,      -153.2
"Line.L14"              ,   1,         9.4,         4.7,         0.0,         0.0,         0.0,         0.0
"Line.L14"              ,   2,        -9.4,        -4.7
"Line.L15"              ,   1,         4.7,         2.3,         0.0,         0.0,         0.0,         0.0
"Line.L15"              ,   2,        -4.7,        -2.3
"Line.L16"              ,   1,         9.4,         4.7,         0.0,         0.0,         0.0,         0.0
"Line.L16"              ,   2,        -9.4,        -4.7
"Line.L17"              ,   1,         4.7,         2.3,         0.0,         0.0,         0.0,         0.0
"Line.L17"              ,   2,        -4.7,        -2.3
"Line.L18"              ,   1,        18.8,         9.4,         0.0,         0.0,         0.0,         0.0
"Line.L18"              ,   2,       -18.8,        -9.4
"Line.L19"              ,   1,        52.5,        32.9,         0.0,         0.0,         0.0,         0.0
"Line.L19"              ,   2,       -52.5,       -32.9
"Line.L20"              ,   1,         9.4,         4.7,         0.0,         0.0,         0.0,         0.0
"Line.L20"              ,   2,        -9.4,        -4.7
"Line.L21"              ,   1,         9.4,         4.7,         0.0,         0.0,         0.0,         0.0
"Line.L21"              ,   2,        -9.4,        -4.7
"Line.L22"              ,   1,        43.1,        28.2,         0.0,         0.0,         0.0,         0.0
"Line.L22"              ,   2,       -43.1,       -28.2
"Line.L23"              ,   1,         9.4,         4.7,         0.0,         0.0,         0.0,         0.0
"Line.L23"              ,   2,        -9.4,        -4.7
"Line.L24"              ,   1,        33.7,        23.5,         0.0,         0.0,         0.0,         0.0
"Line.L24"              ,   2,       -33.7,       -23.5
"Line.L25"              ,   1,        18.8,         9.4,         0.0,         0.0,         0.0,         0.0
"Line.L25"              ,   2,       -18.8,        -9.4
"Line.L26"              ,   1,        14.9,        14.1,         0.0,         0.0,         0.0,         0.0
"Line.L26"              ,   2,       -14.9,       -14.1
"Line.L27"              ,   1,         9.4,         4.7,         0.0,         0.0,         0.0,         0.0
"Line.L27"              ,   2,        -9.4,        -4.7
"Line.L28"              ,   1,         9.4,         4.7,         0.0,         0.0,         0.0,         0.0
"Line.L28"              ,   2,        -9.4,        -4.7
"Line.L29"              ,   1,         9.4,         4.7,         0.0,         0.0,         0.0,         0.0
"Line.L29"              ,   2,        -9.4,        -4.7
"Line.L30"              ,   1,        18.8,         9.4,         0.0,         0.0,         0.0,         0.0
"Line.L30"              ,   2,       -18.8,        -9.4
"Line.L31"              ,   1,         9.4,         4.7,         0.0,         0.0,         0.0,         0.0
"Line.L31"              ,   2,        -9.4,        -4.7
"Line.L32"              ,   1,         0.0,        -0.0,         0.0,         0.0,         0.0,         0.0
"Line.L32"              ,   2,        -0.0,        -0.0
"Line.L33"              ,   1,         4.7,         2.3,         0.0,         0.0,         0.0,         0.0
"Line.L33"              ,   2,        -4.7,        -2.3
"Line.L34"              ,   1,        14.1,         7.0,         0.0,         0.0,         0.0,         0.0
"Line.L34"              ,   2,       -14.1,        -7.0
"Line.L35"              ,   1,        18.8,         9.4,         0.0,         0.0,         0.0,         0.0
"Line.L35"              ,   2,       -18.8,        -9.4
"Line.L36"              ,   1,        79.4,        96.6,         0.0,         0.0,         0.0,         0.0
"Line.L36"              ,   2,       -79.3,       -96.5
"Line.L37"              ,   1,         9.4,         4.7,         0.0,         0.0,         0.0,         0.0
"Line.L37"              ,   2,        -9.4,        -4.7
"Line.L38"              ,   1,         9.4,         4.7,         0.0,         0.0,         0.0,         0.0
"Line.L38"              ,   2,        -9.4,        -4.7
"Line.L39"              ,   1,         4.7,         2.3,         0.0,         0.0,         0.0,         0.0
"Line.L39"              ,   2,        -4.7,        -2.3
"Line.L40"              ,   1,         4.7,         2.3,         0.0,         0.0,         0.0,         0.0
"Line.L40"              ,   2,        -4.7,        -2.3
"Line.L41"              ,   1,        74.6,        94.2,         0.0,         0.0,         0.0,         0.0
"Line.L41"              ,   2,       -74.6,       -94.1
"Line.L42"              ,   1,         9.4,         4.7,         0.0,         0.0,         0.0,         0.0
"Line.L42"              ,   2,        -9.4,        -4.7
"Line.L43"              ,   1,        60.5,        87.1,         0.0,         0.0,         0.0,         0.0
"Line.L43"              ,   2,       -60.5,       -87.0
"Line.L44"              ,   1,         9.4,         4.7,         0.0,         0.0,         0.0,         0.0
"Line.L44"              ,   2,        -9.4,        -4.7
"Line.L45"              ,   1,        51.1,        82.3,         0.0,         0.0,         0.0,         0.0
"Line.L45"              ,   2,       -51.0,       -82.3
"Line.L46"              ,   1,         4.7,         2.3,         0.0,         0.0,         0.0,         0.0
"Line.L46"              ,   2,        -4.7,        -2.3
"Line.L47"              ,   1,       -20.6,        35.3,         0.0,         0.0,         0.0,         0.0
"Line.L47"              ,   2,        20.6,       -35.2
"Line.L48"              ,   1,        47.0,        29.4,         0.0,         0.0,         0.0,         0.0
"Line.L48"              ,   2,       -47.0,       -29.4
"Line.L49"              ,   1,        14.1,         7.0,         0.0,         0.0,         0.0,         0.0
"Line.L49"              ,   2,       -14.1,        -7.0
"Line.L50"              ,   1,         4.7,         2.3,         0.0,         0.0,         0.0,         0.0
"Line.L50"              ,   2,        -4.7,        -2.3
"Line.L51"              ,   1,         0.0,        -0.0,         0.0,         0.0,         0.0,         0.0
"Line.L51"              ,   2,        -0.0,         0.0
"Line.L52"              ,   1,       295.5,         1.3,         0.0,         0.0,         0.0,         0.0
"Line.L52"              ,   2,      -295.3,        -0.9
"Line.L53"              ,   1,       285.9,        -3.8,         0.0,         0.0,         0.0,         0.0
"Line.L53"              ,   2,      -285.8,         4.0
"Line.L54"              ,   1,         9.4,         4.7,         0.0,         0.0,         0.0,         0.0
"Line.L54"              ,   2,        -9.4,        -4.7
"Line.L55"              ,   1,       276.4,        -8.7,         0.0,         0.0,         0.0,         0.0
"Line.L55"              ,   2,      -276.1,         9.3
"Line.L56"              ,   1,         4.7,         2.3,         0.0,         0.0,         0.0,         0.0
"Line.L56"              ,   2,        -4.7,        -2.3
"Line.L57"              ,   1,         2.7,         4.7,         0.0,         0.0,         0.0,         0.0
"Line.L57"              ,   2,        -2.7,        -4.7
"Line.L58"              ,   1,       273.4,       -14.0,         0.0,         0.0,         0.0,         0.0
"Line.L58"              ,   2,      -272.8,        15.1
"Line.L59"              ,   1,         4.7,         2.3,         0.0,         0.0,         0.0,         0.0
"Line.L59"              ,   2,        -4.7,        -2.3
"Line.L60"              ,   1,         0.0,        -0.0,         0.0,         0.0,         0.0,         0.0
"Line.L60"              ,   2,        -0.0,         0.0
"Line.L61"              ,   1,        40.4,        49.3,         0.0,         0.0,         0.0,         0.0
"Line.L61"              ,   2,       -40.3,       -49.3
"Line.L62"              ,   1,        30.9,        44.6,         0.0,         0.0,         0.0,         0.0
"Line.L62"              ,   2,       -30.9,       -44.6
"Line.L63"              ,   1,        21.5,        39.9,         0.0,         0.0,         0.0,         0.0
"Line.L63"              ,   2,       -21.5,       -39.9
"Line.L64"              ,   1,         3.9,        31.7,         0.0,         0.0,         0.0,         0.0
"Line.L64"              ,   2,        -3.9,       -31.7
"Line.L65"              ,   1,        17.6,         8.2,         0.0,         0.0,         0.0,         0.0
"Line.L65"              ,   2,       -17.6,        -8.2
"Line.L66"              ,   1,        28.2,        14.1,         0.0,         0.0,         0.0,         0.0
"Line.L66"              ,   2,       -28.2,       -14.1
"Line.L67"              ,   1,       109.1,      -133.2,         0.0,         0.0,         0.0,         0.0
"Line.L67"              ,   2,      -109.0,       133.4
"Line.L68"              ,   1,        90.2,        51.9,         0.0,         0.0,         0.0,         0.0
"Line.L68"              ,   2,       -90.2,       -51.8
"Line.L69"              ,   1,        23.5,        11.8,         0.0,         0.0,         0.0,         0.0
"Line.L69"              ,   2,       -23.5,       -11.8
"Line.L70"              ,   1,        14.1,         7.1,         0.0,         0.0,         0.0,         0.0
"Line.L70"              ,   2,       -14.1,        -7.1
"Line.L71"              ,   1,         9.4,         4.7,         0.0,         0.0,         0.0,         0.0
"Line.L71"              ,   2,        -9.4,        -4.7
"Line.L72"              ,   1,        28.2,        14.1,         0.0,         0.0,         0.0,         0.0
"Line.L72"              ,   2,       -28.2,       -14.1
"Line.L73"              ,   1,        80.8,      -147.5,         0.0,         0.0,         0.0,         0.0
"Line.L73"              ,   2,       -80.8,       147.6
"Line.L74"              ,   1,        18.8,         9.4,         0.0,         0.0,         0.0,         0.0
"Line.L74"              ,   2,       -18.8,        -9.4
"Line.L75"              ,   1,         9.4,         4.7,         0.0,         0.0,         0.0,         0.0
"Line.L75"              ,   2,        -9.4,        -4.7
"Line.L76"              ,   1,        57.0,      -170.5,         0.0,         0.0,         0.0,         0.0
"Line.L76"              ,   2,       -56.9,       170.8
"Line.L77"              ,   1,        47.8,       -19.4,         0.0,         0.0,         0.0,         0.0
"Line.L77"              ,   2,       -47.8,        19.4
"Line.L78"              ,   1,        47.5,      -175.5,         0.0,         0.0,         0.0,         0.0
"Line.L78"              ,   2,       -47.5,       175.6
"Line.L79"              ,   1,         9.4,         4.7,         0.0,         0.0,         0.0,         0.0
"Line.L79"              ,   2,        -9.4,        -4.7
"Line.L80"              ,   1,        38.1,      -180.3,         0.0,         0.0,         0.0,         0.0
"Line.L80"              ,   2,       -37.9,       180.6
"Line.L81"              ,   1,        28.5,      -185.3,         0.0,         0.0,         0.0,         0.0
"Line.L81"              ,   2,       -28.4,       185.5
"Line.L82"              ,   1,        14.3,      -192.5,         0.0,         0.0,         0.0,         0.0
"Line.L82"              ,   2,       -14.2,       192.7
"Line.L83"              ,   1,        14.1,         7.1,         0.0,         0.0,         0.0,         0.0
"Line.L83"              ,   2,       -14.1,        -7.1
"Line.L84"              ,   1,         4.8,      -197.4,         0.0,         0.0,         0.0,         0.0
"Line.L84"              ,   2,        -4.7,       197.7
"Line.L85"              ,   1,         9.4,         4.7,         0.0,         0.0,         0.0,         0.0
"Line.L85"              ,   2,        -9.4,        -4.7
"Line.L86"              ,   1,        43.1,       -21.8,         0.0,         0.0,         0.0,         0.0
"Line.L86"              ,   2,       -43.1,        21.8
"Line.L87"              ,   1,         9.4,       -12.0,         0.0,         0.0,         0.0,         0.0
"Line.L87"              ,   2,        -9.4,        12.0
"Line.L88"              ,   1,        37.6,       -14.5,         0.0,         0.0,         0.0,         0.0
"Line.L88"              ,   2,       -37.6,        14.5
"Line.L89"              ,   1,         9.4,       -12.0,         0.0,         0.0,         0.0,         0.0
"Line.L89"              ,   2,        -9.4,        12.0
"Line.L90"              ,   1,        28.2,        -2.6,         0.0,         0.0,         0.0,         0.0
"Line.L90"              ,   2,       -28.2,         2.6
"Line.L91"              ,   1,         9.4,       -12.0,         0.0,         0.0,         0.0,         0.0
"Line.L91"              ,   2,        -9.4,        12.0
"Line.L92"              ,   1,        18.8,         9.4,         0.0,         0.0,         0.0,         0.0
"Line.L92"              ,   2,       -18.8,        -9.4
"Line.L93"              ,   1,         9.4,         4.7,         0.0,         0.0,         0.0,         0.0
"Line.L93"              ,   2,        -9.4,        -4.7
"Line.L94"              ,   1,         9.4,         4.7,         0.0,         0.0,         0.0,         0.0
"Line.L94"              ,   2,        -9.4,        -4.7
"Line.L95"              ,   1,         4.7,         2.3,         0.0,         0.0,         0.0,         0.0
"Line.L95"              ,   2,        -4.7,        -2.3
"Line.L96"              ,   1,        14.9,        14.1,         0.0,         0.0,         0.0,         0.0
"Line.L96"              ,   2,       -14.9,       -14.1
"Line.L97"              ,   1,         5.5,         9.4,         0.0,         0.0,         0.0,         0.0
"Line.L97"              ,   2,        -5.5,        -9.4
"Line.L98"              ,   1,        -3.9,         4.7,         0.0,         0.0,         0.0,         0.0
"Line.L98"              ,   2,         3.9,        -4.7
"Line.L99"              ,   1,         0.0,        -0.0,         0.0,         0.0,         0.0,         0.0
"Line.L99"              ,   2,         0.0,         0.0
"Line.L118"             ,   1,        75.3,        37.7,         0.0,         0.0,         0.0,         0.0
"Line.L118"             ,   2,       -75.3,       -37.7
"Line.L100"             ,   1,        23.5,        11.8,         0.0,         0.0,         0.0,         0.0
"Line.L100"             ,   2,       -23.5,       -11.8
"Line.L101"             ,   1,        51.8,        25.9,         0.0,         0.0,         0.0,         0.0
"Line.L101"             ,   2,       -51.8,       -25.9
"Line.L102"             ,   1,        18.8,         9.4,         0.0,         0.0,         0.0,         0.0
"Line.L102"             ,   2,       -18.8,        -9.4
"Line.L103"             ,   1,         9.4,         4.7,         0.0,         0.0,         0.0,         0.0
"Line.L103"             ,   2,        -9.4,        -4.7
"Line.L104"             ,   1,        18.8,         9.4,         0.0,         0.0,         0.0,         0.0
"Line.L104"             ,   2,       -18.8,        -9.4
"Line.L105"             ,   1,        33.0,        16.5,         0.0,         0.0,         0.0,         0.0
"Line.L105"             ,   2,       -32.9,       -16.5
"Line.L106"             ,   1,         9.4,         4.7,         0.0,         0.0,         0.0,         0.0
"Line.L106"             ,   2,        -9.4,        -4.7
"Line.L107"             ,   1,        32.9,        16.5,         0.0,         0.0,         0.0,         0.0
"Line.L107"             ,   2,       -32.9,       -16.5
"Line.L108"             ,   1,         0.0,        -0.0,         0.0,         0.0,         0.0,         0.0
"Line.L108"             ,   2,         0.0,         0.0
"Line.L109"             ,   1,        23.5,        11.8,         0.0,         0.0,         0.0,         0.0
"Line.L109"             ,   2,       -23.5,       -11.8
"Line.L110"             ,   1,         4.7,         2.3,         0.0,         0.0,         0.0,         0.0
"Line.L110"             ,   2,        -4.7,        -2.3
"Line.L111"             ,   1,        18.8,         9.4,         0.0,         0.0,         0.0,         0.0
"Line.L111"             ,   2,       -18.8,        -9.4
"Line.L112"             ,   1,        14.1,         7.1,         0.0,         0.0,         0.0,         0.0
"Line.L112"             ,   2,       -14.1,        -7.0
"Line.L113"             ,   1,         4.7,         2.3,         0.0,         0.0,         0.0,         0.0
"Line.L113"             ,   2,        -4.7,        -2.3
"Line.L114"             ,   1,       107.7,       110.9,         0.0,         0.0,         0.0,         0.0
"Line.L114"             ,   2,      -107.6,      -110.7
"Line.L116"             ,   1,       305.3,         6.7,         0.0,         0.0,         0.0,         0.0
"Line.L116"             ,   2,      -304.9,        -6.0
"Line.L117"             ,   1,       227.8,       -66.8,         0.0,         0.0,         0.0,         0.0
"Line.L117"             ,   2,      -227.5,        67.2
"Line.SW1"              ,   1,       569.4,       216.0,         0.0,         0.0,         0.0,         0.0
"Line.SW1"              ,   2,      -569.4,      -216.0
"Line.SW2"              ,   1,       305.3,         6.7,         0.0,         0.0,         0.0,         0.0
"Line.SW2"              ,   2,      -305.3,        -6.7
"Line.SW3"              ,   1,       107.7,       110.9,         0.0,         0.0,         0.0,         0.0
"Line.SW3"              ,   2,      -107.7,      -110.9
