Element, Terminal, P(kW), Q(kvar),  P_Normal, Q_Normal, P_Emergency, Q_Emergency
"Line.L115"             ,   1,       888.2,       406.8,        10.0,         4.6,         0.0,         0.0
"Line.L115"             ,   2,      -884.4,      -399.1
"Line.L1"               ,   1,         6.5,         3.2,         0.0,         0.0,         0.0,         0.0
"Line.L1"               ,   2,        -6.5,        -3.2
"Line.L2"               ,   1,        32.4,        16.2,         0.0,         0.0,         0.0,         0.0
"Line.L2"               ,   2,       -32.3,       -16.2
"Line.L3"               ,   1,       832.7,       373.2,         0.0,         0.0,         0.0,         0.0
"Line.L3"               ,   2,      -830.1,      -368.0
"Line.L4"               ,   1,        12.9,         6.5,         0.0,         0.0,         0.0,         0.0
"Line.L4"               ,   2,       -12.9,        -6.5
"Line.L5"               ,   1,        19.4,         9.7,         0.0,         0.0,         0.0,         0.0
"Line.L5"               ,   2,       -19.4,        -9.7
"Line.L6"               ,   1,        12.9,         6.5,         0.0,         0.0,         0.0,         0.0
"Line.L6"               ,   2,       -12.9,        -6.5
"Line.L7"               ,   1,       823.7,       364.8,         0.0,         0.0,         0.0,         0.0
"Line.L7"               ,   2,      -822.0,      -361.4
"Line.L8"               ,   1,         6.5,         3.2,         0.0,         0.0,         0.0,         0.0
"Line.L8"               ,   2,        -6.5,        -3.2
"Line.L9"               ,   1,        19.0,        16.2,         0.0,         0.0,         0.0,         0.0
"Line.L9"               ,   2,       -19.0,       -16.2
"Line.L10"              ,   1,       796.5,       342.0,         0.0,         0.0,         0.0,         0.0
"Line.L10"              ,   2,      -794.2,      -337.3
"Line.L11"              ,   1,        19.4,         9.7,         0.0,         0.0,         0.0,         0.0
"Line.L11"              ,   2,       -19.4,        -9.7
"Line.L12"              ,   1,        32.3,        16.2,         0.0,         0.0,         0.0,         0.0
"Line.L12"              ,   2,       -32.3,       -16.2
"Line.L13"              ,   1,       278.9,       213.5,         0.0,         0.0,         0.0,         0.0
"Line.L13"              ,   2,      -277.8,      -211.4
"Line.L14"              ,   1,        12.9,         6.5,         0.0,         0.0,         0.0,         0.0
"Line.L14"              ,   2,       -12.9,        -6.5
"Line.L15"              ,   1,         6.5,         3.2,         0.0,         0.0,         0.0,         0.0
"Line.L15"              ,   2,        -6.5,        -3.2
"Line.L16"              ,   1,        12.9,         6.5,         0.0,         0.0,         0.0,         0.0
"Line.L16"              ,   2,       -12.9,        -6.5
"Line.L17"              ,   1,         6.5,         3.2,         0.0,         0.0,         0.0,         0.0
"Line.L17"              ,   2,        -6.5,        -3.2
"Line.L18"              ,   1,        25.9,        12.9,         0.0,         0.0,         0.0,         0.0
"Line.L18"              ,   2,       -25.9,       -12.9
"Line.L19"              ,   1,        77.3,        45.4,         0.0,         0.0,         0.0,         0.0
"Line.L19"              ,   2,       -77.3,       -45.3
"Line.L20"              ,   1,        12.9,         6.5,         0.0,         0.0,         0.0,         0.0
"Line.L20"              ,   2,       -12.9,        -6.5
"Line.L21"              ,   1,        12.9,         6.5,         0.0,         0.0,         0.0,         0.0
"Line.L21"              ,   2,       -12.9,        -6.5
"Line.L22"              ,   1,        64.3,        38.9,         0.0,         0.0,         0.0,         0.0
"Line.L22"              ,   2,       -64.3,       -38.8
"Line.L23"              ,   1,        12.9,         6.5,         0.0,         0.0,         0.0,         0.0
"Line.L23"              ,   2,       -12.9,        -6.5
"Line.L24"              ,   1,        51.4,        32.4,         0.0,         0.0,         0.0,         0.0
"Line.L24"              ,   2,       -51.4,       -32.3
"Line.L25"              ,   1,        25.9,        12.9,         0.0,         0.0,         0.0,         0.0
"Line.L25"              ,   2,       -25.9,       -12.9
"Line.L26"              ,   1,        25.5,        19.4,         0.0,         0.0,         0.0,         0.0
"Line.L26"              ,   2,       -25.5,       -19.4
"Line.L27"              ,   1,        12.9,         6.5,         0.0,         0.0,         0.0,         0.0
"Line.L27"              ,   2,       -12.9,        -6.5
"Line.L28"              ,   1,        12.9,         6.5,         0.0,         0.0,         0.0,         0.0
"Line.L28"              ,   2,       -12.9,        -6.5
"Line.L29"              ,   1,        12.9,         6.5,         0.0,         0.0,         0.0,         0.0
"Line.L29"              ,   2,       -12.9,        -6.5
"Line.L30"              ,   1,        25.9,        12.9,         0.0,         0.0,         0.0,         0.0
"Line.L30"              ,   2,       -25.9,       -12.9
"Line.L31"              ,   1,        12.9,         6.5,         0.0,         0.0,         0.0,         0.0
"Line.L31"              ,   2,       -12.9,        -6.5
"Line.L32"              ,   1,         0.0,        -0.0,         0.0,         0.0,         0.0,         0.0
"Line.L32"              ,   2,        -0.0,         0.0
"Line.L33"              ,   1,         6.5,         3.2,         0.0,         0.0,         0.0,         0.0
"Line.L33"              ,   2,        -6.5,        -3.2
"Line.L34"              ,   1,        19.4,         9.7,         0.0,         0.0,         0.0,         0.0
"Line.L34"              ,   2,       -19.4,        -9.7
"Line.L35"              ,   1,        25.9,        12.9,         0.0,         0.0,         0.0,         0.0
"Line.L35"              ,   2,       -25.9,       -12.9
"Line.L36"              ,   1,       135.6,       133.2,         0.0,         0.0,         0.0,         0.0
"Line.L36"              ,   2,      -135.5,      -133.0
"Line.L37"              ,   1,        12.9,         6.5,         0.0,         0.0,         0.0,         0.0
"Line.L37"              ,   2,       -12.9,        -6.5
"Line.L38"              ,   1,        12.9,         6.5,         0.0,         0.0,         0.0,         0.0
"Line.L38"              ,   2,       -12.9,        -6.5
"Line.L39"              ,   1,         6.5,         3.2,         0.0,         0.0,         0.0,         0.0
"Line.L39"              ,   2,        -6.5,        -3.2
"Line.L40"              ,   1,         6.5,         3.2,         0.0,         0.0,         0.0,         0.0
"Line.L40"              ,   2,        -6.5,        -3.2
"Line.L41"              ,   1,       129.1,       129.8,         0.0,         0.0,         0.0,         0.0
"Line.L41"              ,   2,      -129.0,      -129.6
"Line.L42"              ,   1,        12.9,         6.5,         0.0,         0.0,         0.0,         0.0
"Line.L42"              ,   2,       -12.9,        -6.5
"Line.L43"              ,   1,       109.6,       119.9,         0.0,         0.0,         0.0,         0.0
"Line.L43"              ,   2,      -109.5,      -119.8
"Line.L44"              ,   1,        12.9,         6.5,         0.0,         0.0,         0.0,         0.0
"Line.L44"              ,   2,       -12.9,        -6.5
"Line.L45"              ,   1,        96.6,       113.3,         0.0,         0.0,         0.0,         0.0
"Line.L45"              ,   2,       -96.5,      -113.2
"Line.L46"              ,   1,         6.5,         3.2,         0.0,         0.0,         0.0,         0.0
"Line.L46"              ,   2,        -6.5,        -3.2
"Line.L47"              ,   1,        -2.1,        48.5,         0.0,         0.0,         0.0,         0.0
"Line.L47"              ,   2,         2.1,       -48.5
"Line.L48"              ,   1,        64.7,        40.4,         0.0,         0.0,         0.0,         0.0
"Line.L48"              ,   2,       -64.7,       -40.4
"Line.L49"              ,   1,        19.4,         9.7,         0.0,         0.0,         0.0,         0.0
"Line.L49"              ,   2,       -19.4,        -9.7
"Line.L50"              ,   1,         6.5,         3.2,         0.0,         0.0,         0.0,         0.0
"Line.L50"              ,   2,        -6.5,        -3.2
"Line.L51"              ,   1,         0.0,        -0.0,         0.0,         0.0,         0.0,         0.0
"Line.L51"              ,   2,         0.0,        -0.0
"Line.L52"              ,   1,       469.1,        99.0,         0.0,         0.0,         0.0,         0.0
"Line.L52"              ,   2,      -468.6,       -98.1
"Line.L53"              ,   1,       455.6,        91.6,         0.0,         0.0,         0.0,         0.0
"Line.L53"              ,   2,      -455.4,       -91.0
"Line.L54"              ,   1,        12.9,         6.5,         0.0,         0.0,         0.0,         0.0
"Line.L54"              ,   2,       -12.9,        -6.5
"Line.L55"              ,   1,       442.4,        84.5,         0.0,         0.0,         0.0,         0.0
"Line.L55"              ,   2,      -441.7,       -83.0
"Line.L56"              ,   1,         6.5,         3.2,         0.0,         0.0,         0.0,         0.0
"Line.L56"              ,   2,        -6.5,        -3.2
"Line.L57"              ,   1,         6.3,         6.5,         0.0,         0.0,         0.0,         0.0
"Line.L57"              ,   2,        -6.3,        -6.5
"Line.L58"              ,   1,       435.4,        76.6,         0.0,         0.0,         0.0,         0.0
"Line.L58"              ,   2,      -433.9,       -73.4
"Line.L59"              ,   1,         6.5,         3.2,         0.0,         0.0,         0.0,         0.0
"Line.L59"              ,   2,        -6.5,        -3.2
"Line.L60"              ,   1,         0.0,        -0.0,         0.0,         0.0,         0.0,         0.0
"Line.L60"              ,   2,        -0.0,         0.0
"Line.L61"              ,   1,        73.2,        67.9,         0.0,         0.0,         0.0,         0.0
"Line.L61"              ,   2,       -73.1,       -67.9
"Line.L62"              ,   1,        60.2,        61.4,         0.0,         0.0,         0.0,         0.0
"Line.L62"              ,   2,       -60.1,       -61.4
"Line.L63"              ,   1,        47.2,        54.9,         0.0,         0.0,         0.0,         0.0
"Line.L63"              ,   2,       -47.1,       -54.9
"Line.L64"              ,   1,        22.9,        43.6,         0.0,         0.0,         0.0,         0.0
"Line.L64"              ,   2,       -22.9,       -43.6
"Line.L65"              ,   1,        24.3,        11.3,         0.0,         0.0,         0.0,         0.0
"Line.L65"              ,   2,       -24.2,       -11.3
"Line.L66"              ,   1,        38.8,        19.4,         0.0,         0.0,         0.0,         0.0
"Line.L66"              ,   2,       -38.8,       -19.4
"Line.L67"              ,   1,       185.7,       -89.7,         0.0,         0.0,         0.0,         0.0
"Line.L67"              ,   2,      -185.5,        89.9
"Line.L68"              ,   1,       129.2,        71.5,         0.0,         0.0,         0.0,         0.0
"Line.L68"              ,   2,      -129.1,       -71.4
"Line.L69"              ,   1,        32.4,        16.2,         0.0,         0.0,         0.0,         0.0
"Line.L69"              ,   2,       -32.3,       -16.2
"Line.L70"              ,   1,        19.4,         9.7,         0.0,         0.0,         0.0,         0.0
"Line.L70"              ,   2,       -19.4,        -9.7
"Line.L71"              ,   1,        12.9,         6.5,         0.0,         0.0,         0.0,         0.0
"Line.L71"              ,   2,       -12.9,        -6.5
"Line.L72"              ,   1,        38.8,        19.4,         0.0,         0.0,         0.0,         0.0
"Line.L72"              ,   2,       -38.8,       -19.4
"Line.L73"              ,   1,       146.7,      -109.4,         0.0,         0.0,         0.0,         0.0
"Line.L73"              ,   2,      -146.6,       109.5
"Line.L74"              ,   1,        25.9,        12.9,         0.0,         0.0,         0.0,         0.0
"Line.L74"              ,   2,       -25.9,       -12.9
"Line.L75"              ,   1,        12.9,         6.5,         0.0,         0.0,         0.0,         0.0
"Line.L75"              ,   2,       -12.9,        -6.5
"Line.L76"              ,   1,        78.2,      -159.9,         0.0,         0.0,         0.0,         0.0
"Line.L76"              ,   2,       -78.1,       160.2
"Line.L77"              ,   1,        70.8,        -7.8,         0.0,         0.0,         0.0,         0.0
"Line.L77"              ,   2,       -70.8,         7.9
"Line.L78"              ,   1,        65.2,      -166.7,         0.0,         0.0,         0.0,         0.0
"Line.L78"              ,   2,       -65.1,       166.7
"Line.L79"              ,   1,        12.9,         6.5,         0.0,         0.0,         0.0,         0.0
"Line.L79"              ,   2,       -12.9,        -6.5
"Line.L80"              ,   1,        52.2,      -173.2,         0.0,         0.0,         0.0,         0.0
"Line.L80"              ,   2,       -52.0,       173.6
"Line.L81"              ,   1,        39.1,      -180.0,         0.0,         0.0,         0.0,         0.0
"Line.L81"              ,   2,       -39.0,       180.2
"Line.L82"              ,   1,        19.6,      -189.9,         0.0,         0.0,         0.0,         0.0
"Line.L82"              ,   2,       -19.5,       190.1
"Line.L83"              ,   1,        19.4,         9.7,         0.0,         0.0,         0.0,         0.0
"Line.L83"              ,   2,       -19.4,        -9.7
"Line.L84"              ,   1,         6.6,      -196.5,         0.0,         0.0,         0.0,         0.0
"Line.L84"              ,   2,        -6.5,       196.8
"Line.L85"              ,   1,        12.9,         6.5,         0.0,         0.0,         0.0,         0.0
"Line.L85"              ,   2,       -12.9,        -6.5
"Line.L86"              ,   1,        64.3,       -11.1,         0.0,         0.0,         0.0,         0.0
"Line.L86"              ,   2,       -64.3,        11.2
"Line.L87"              ,   1,        12.9,       -10.2,         0.0,         0.0,         0.0,         0.0
"Line.L87"              ,   2,       -12.9,        10.2
"Line.L88"              ,   1,        51.8,        -7.4,         0.0,         0.0,         0.0,         0.0
"Line.L88"              ,   2,       -51.7,         7.5
"Line.L89"              ,   1,        12.9,       -10.2,         0.0,         0.0,         0.0,         0.0
"Line.L89"              ,   2,       -12.9,        10.2
"Line.L90"              ,   1,        38.8,         2.7,         0.0,         0.0,         0.0,         0.0
"Line.L90"              ,   2,       -38.8,        -2.7
"Line.L91"              ,   1,        12.9,       -10.2,         0.0,         0.0,         0.0,         0.0
"Line.L91"              ,   2,       -12.9,        10.2
"Line.L92"              ,   1,        25.9,        12.9,         0.0,         0.0,         0.0,         0.0
"Line.L92"              ,   2,       -25.9,       -12.9
"Line.L93"              ,   1,        12.9,         6.5,         0.0,         0.0,         0.0,         0.0
"Line.L93"              ,   2,       -12.9,        -6.5
"Line.L94"              ,   1,        12.9,         6.5,         0.0,         0.0,         0.0,         0.0
"Line.L94"              ,   2,       -12.9,        -6.5
"Line.L95"              ,   1,         6.5,         3.2,         0.0,         0.0,         0.0,         0.0
"Line.L95"              ,   2,        -6.5,        -3.2
"Line.L96"              ,   1,        25.5,        19.4,         0.0,         0.0,         0.0,         0.0
"Line.L96"              ,   2,       -25.5,       -19.4
"Line.L97"              ,   1,        12.5,        12.9,         0.0,         0.0,         0.0,         0.0
"Line.L97"              ,   2,       -12.5,       -12.9
"Line.L98"              ,   1,        -0.4,         6.5,         0.0,         0.0,         0.0,         0.0
"Line.L98"              ,   2,         0.4,        -6.5
"Line.L99"              ,   1,         0.0,        -0.0,         0.0,         0.0,         0.0,         0.0
"Line.L99"              ,   2,         0.0,        -0.0
"Line.L118"             ,   1,       103.7,        52.0,         0.0,         0.0,         0.0,         0.0
"Line.L118"             ,   2,      -103.6,       -51.9
"Line.L100"             ,   1,        32.4,        16.2,         0.0,         0.0,         0.0,         0.0
"Line.L100"             ,   2,       -32.4,       -16.2
"Line.L101"             ,   1,        71.3,        35.7,         0.0,         0.0,         0.0,         0.0
"Line.L101"             ,   2,       -71.3,       -35.7
"Line.L102"             ,   1,        25.9,        12.9,         0.0,         0.0,         0.0,         0.0
"Line.L102"             ,   2,       -25.9,       -12.9
"Line.L103"             ,   1,        12.9,         6.5,         0.0,         0.0,         0.0,         0.0
"Line.L103"             ,   2,       -12.9,        -6.5
"Line.L104"             ,   1,        25.9,        12.9,         0.0,         0.0,         0.0,         0.0
"Line.L104"             ,   2,       -25.9,       -12.9
"Line.L105"             ,   1,        45.4,        22.7,         0.0,         0.0,         0.0,         0.0
"Line.L105"             ,   2,       -45.4,       -22.7
"Line.L106"             ,   1,        12.9,         6.5,         0.0,         0.0,         0.0,         0.0
"Line.L106"             ,   2,       -12.9,        -6.5
"Line.L107"             ,   1,        45.4,        22.7,         0.0,         0.0,         0.0,         0.0
"Line.L107"             ,   2,       -45.3,       -22.7
"Line.L108"             ,   1,         0.0,        -0.0,         0.0,         0.0,         0.0,         0.0
"Line.L108"             ,   2,         0.0,         0.0
"Line.L109"             ,   1,        32.4,        16.2,         0.0,         0.0,         0.0,         0.0
"Line.L109"             ,   2,       -32.4,       -16.2
"Line.L110"             ,   1,         6.5,         3.2,         0.0,         0.0,         0.0,         0.0
"Line.L110"             ,   2,        -6.5,        -3.2
"Line.L111"             ,   1,        25.9,        12.9,         0.0,         0.0,         0.0,         0.0
"Line.L111"             ,   2,       -25.9,       -12.9
"Line.L112"             ,   1,        19.4,         9.7,         0.0,         0.0,         0.0,         0.0
"Line.L112"             ,   2,       -19.4,        -9.7
"Line.L113"             ,   1,         6.5,         3.2,         0.0,         0.0,         0.0,         0.0
"Line.L113"             ,   2,        -6.5,        -3.2
"Line.L114"             ,   1,       174.7,       153.0,         0.0,         0.0,         0.0,         0.0
"Line.L114"             ,   2,      -174.5,      -152.6
"Line.L116"             ,   1,       483.0,       107.6,         0.0,         0.0,         0.0,         0.0
"Line.L116"             ,   2,      -482.0,      -105.5
"Line.L117"             ,   1,       354.2,         2.3,         0.0,         0.0,         0.0,         0.0
"Line.L117"             ,   2,      -353.7,        -1.3
"Line.SW1"              ,   1,       888.2,       406.8,        10.0,         4.6,         0.0,         0.0
"Line.SW1"              ,   2,      -888.2,      -406.8
"Line.SW2"              ,   1,       483.0,       107.6,         0.0,         0.0,         0.0,         0.0
"Line.SW2"              ,   2,      -483.0,      -107.6
"Line.SW3"              ,   1,       174.7,       153.0,         0.0,         0.0,         0.0,         0.0
"Line.SW3"              ,   2,      -174.7,      -153.0
