Element, Terminal, P(kW), Q(kvar),  P_Normal, Q_Normal, P_Emergency, Q_Emergency
"Line.L115"             ,   1,       672.5,       293.8,         0.0,         0.0,         0.0,         0.0
"Line.L115"             ,   2,      -670.3,      -289.4
"Line.L1"               ,   1,         5.3,         2.6,         0.0,         0.0,         0.0,         0.0
"Line.L1"               ,   2,        -5.3,        -2.6
"Line.L2"               ,   1,        26.3,        13.2,         0.0,         0.0,         0.0,         0.0
"Line.L2"               ,   2,       -26.3,       -13.2
"Line.L3"               ,   1,       628.2,       268.4,         0.0,         0.0,         0.0,         0.0
"Line.L3"               ,   2,      -626.8,      -265.5
"Line.L4"               ,   1,        10.5,         5.3,         0.0,         0.0,         0.0,         0.0
"Line.L4"               ,   2,       -10.5,        -5.3
"Line.L5"               ,   1,        15.8,         7.9,         0.0,         0.0,         0.0,         0.0
"Line.L5"               ,   2,       -15.8,        -7.9
"Line.L6"               ,   1,        10.5,         5.3,         0.0,         0.0,         0.0,         0.0
"Line.L6"               ,   2,       -10.5,        -5.3
"Line.L7"               ,   1,       621.6,       262.9,         0.0,         0.0,         0.0,         0.0
"Line.L7"               ,   2,      -620.7,      -261.0
"Line.L8"               ,   1,         5.3,         2.6,         0.0,         0.0,         0.0,         0.0
"Line.L8"               ,   2,        -5.3,        -2.6
"Line.L9"               ,   1,        13.1,        13.2,         0.0,         0.0,         0.0,         0.0
"Line.L9"               ,   2,       -13.1,       -13.2
"Line.L10"              ,   1,       602.3,       245.2,         0.0,         0.0,         0.0,         0.0
"Line.L10"              ,   2,      -601.0,      -242.6
"Line.L11"              ,   1,        15.8,         7.9,         0.0,         0.0,         0.0,         0.0
"Line.L11"              ,   2,       -15.8,        -7.9
"Line.L12"              ,   1,        26.3,        13.2,         0.0,         0.0,         0.0,         0.0
"Line.L12"              ,   2,       -26.3,       -13.1
"Line.L13"              ,   1,       211.7,       172.9,         0.0,         0.0,         0.0,         0.0
"Line.L13"              ,   2,      -211.1,      -171.6
"Line.L14"              ,   1,        10.5,         5.3,         0.0,         0.0,         0.0,         0.0
"Line.L14"              ,   2,       -10.5,        -5.3
"Line.L15"              ,   1,         5.3,         2.6,         0.0,         0.0,         0.0,         0.0
"Line.L15"              ,   2,        -5.3,        -2.6
"Line.L16"              ,   1,        10.5,         5.3,         0.0,         0.0,         0.0,         0.0
"Line.L16"              ,   2,       -10.5,        -5.3
"Line.L17"              ,   1,         5.3,         2.6,         0.0,         0.0,         0.0,         0.0
"Line.L17"              ,   2,        -5.3,        -2.6
"Line.L18"              ,   1,        21.0,        10.5,         0.0,         0.0,         0.0,         0.0
"Line.L18"              ,   2,       -21.0,       -10.5
"Line.L19"              ,   1,        60.5,        36.9,         0.0,         0.0,         0.0,         0.0
"Line.L19"              ,   2,       -60.5,       -36.8
"Line.L20"              ,   1,        10.5,         5.3,         0.0,         0.0,         0.0,         0.0
"Line.L20"              ,   2,       -10.5,        -5.3
"Line.L21"              ,   1,        10.5,         5.3,         0.0,         0.0,         0.0,         0.0
"Line.L21"              ,   2,       -10.5,        -5.3
"Line.L22"              ,   1,        49.9,        31.6,         0.0,         0.0,         0.0,         0.0
"Line.L22"              ,   2,       -49.9,       -31.6
"Line.L23"              ,   1,        10.5,         5.3,         0.0,         0.0,         0.0,         0.0
"Line.L23"              ,   2,       -10.5,        -5.3
"Line.L24"              ,   1,        39.4,        26.3,         0.0,         0.0,         0.0,         0.0
"Line.L24"              ,   2,       -39.4,       -26.3
"Line.L25"              ,   1,        21.0,        10.5,         0.0,         0.0,         0.0,         0.0
"Line.L25"              ,   2,       -21.0,       -10.5
"Line.L26"              ,   1,        18.4,        15.8,         0.0,         0.0,         0.0,         0.0
"Line.L26"              ,   2,       -18.4,       -15.8
"Line.L27"              ,   1,        10.5,         5.3,         0.0,         0.0,         0.0,         0.0
"Line.L27"              ,   2,       -10.5,        -5.3
"Line.L28"              ,   1,        10.5,         5.3,         0.0,         0.0,         0.0,         0.0
"Line.L28"              ,   2,       -10.5,        -5.3
"Line.L29"              ,   1,        10.5,         5.3,         0.0,         0.0,         0.0,         0.0
"Line.L29"              ,   2,       -10.5,        -5.3
"Line.L30"              ,   1,        21.0,        10.5,         0.0,         0.0,         0.0,         0.0
"Line.L30"              ,   2,       -21.0,       -10.5
"Line.L31"              ,   1,        10.5,         5.3,         0.0,         0.0,         0.0,         0.0
"Line.L31"              ,   2,       -10.5,        -5.3
"Line.L32"              ,   1,        -0.0,        -0.0,         0.0,         0.0,         0.0,         0.0
"Line.L32"              ,   2,        -0.0,        -0.0
"Line.L33"              ,   1,         5.3,         2.6,         0.0,         0.0,         0.0,         0.0
"Line.L33"              ,   2,        -5.3,        -2.6
"Line.L34"              ,   1,        15.8,         7.9,         0.0,         0.0,         0.0,         0.0
"Line.L34"              ,   2,       -15.8,        -7.9
"Line.L35"              ,   1,        21.0,        10.5,         0.0,         0.0,         0.0,         0.0
"Line.L35"              ,   2,       -21.0,       -10.5
"Line.L36"              ,   1,        97.9,       108.2,         0.0,         0.0,         0.0,         0.0
"Line.L36"              ,   2,       -97.8,      -108.1
"Line.L37"              ,   1,        10.5,         5.3,         0.0,         0.0,         0.0,         0.0
"Line.L37"              ,   2,       -10.5,        -5.3
"Line.L38"              ,   1,        10.5,         5.3,         0.0,         0.0,         0.0,         0.0
"Line.L38"              ,   2,       -10.5,        -5.3
"Line.L39"              ,   1,         5.3,         2.6,         0.0,         0.0,         0.0,         0.0
"Line.L39"              ,   2,        -5.3,        -2.6
"Line.L40"              ,   1,         5.3,         2.6,         0.0,         0.0,         0.0,         0.0
"Line.L40"              ,   2,        -5.3,        -2.6
"Line.L41"              ,   1,        92.6,       105.5,         0.0,         0.0,         0.0,         0.0
"Line.L41"              ,   2,       -92.5,      -105.3
"Line.L42"              ,   1,        10.5,         5.3,         0.0,         0.0,         0.0,         0.0
"Line.L42"              ,   2,       -10.5,        -5.3
"Line.L43"              ,   1,        76.7,        97.5,         0.0,         0.0,         0.0,         0.0
"Line.L43"              ,   2,       -76.7,       -97.4
"Line.L44"              ,   1,        10.5,         5.3,         0.0,         0.0,         0.0,         0.0
"Line.L44"              ,   2,       -10.5,        -5.3
"Line.L45"              ,   1,        66.2,        92.1,         0.0,         0.0,         0.0,         0.0
"Line.L45"              ,   2,       -66.2,       -92.1
"Line.L46"              ,   1,         5.3,         2.6,         0.0,         0.0,         0.0,         0.0
"Line.L46"              ,   2,        -5.3,        -2.6
"Line.L47"              ,   1,       -14.1,        39.5,         0.0,         0.0,         0.0,         0.0
"Line.L47"              ,   2,        14.1,       -39.4
"Line.L48"              ,   1,        52.6,        32.9,         0.0,         0.0,         0.0,         0.0
"Line.L48"              ,   2,       -52.6,       -32.9
"Line.L49"              ,   1,        15.8,         7.9,         0.0,         0.0,         0.0,         0.0
"Line.L49"              ,   2,       -15.8,        -7.9
"Line.L50"              ,   1,         5.3,         2.6,         0.0,         0.0,         0.0,         0.0
"Line.L50"              ,   2,        -5.3,        -2.6
"Line.L51"              ,   1,         0.0,        -0.0,         0.0,         0.0,         0.0,         0.0
"Line.L51"              ,   2,         0.0,        -0.0
"Line.L52"              ,   1,       351.9,        50.1,         0.0,         0.0,         0.0,         0.0
"Line.L52"              ,   2,      -351.6,       -49.6
"Line.L53"              ,   1,       341.1,        44.3,         0.0,         0.0,         0.0,         0.0
"Line.L53"              ,   2,      -340.9,       -44.0
"Line.L54"              ,   1,        10.5,         5.3,         0.0,         0.0,         0.0,         0.0
"Line.L54"              ,   2,       -10.5,        -5.3
"Line.L55"              ,   1,       330.4,        38.7,         0.0,         0.0,         0.0,         0.0
"Line.L55"              ,   2,      -330.0,       -37.9
"Line.L56"              ,   1,         5.3,         2.6,         0.0,         0.0,         0.0,         0.0
"Line.L56"              ,   2,        -5.3,        -2.6
"Line.L57"              ,   1,         3.9,         5.3,         0.0,         0.0,         0.0,         0.0
"Line.L57"              ,   2,        -3.9,        -5.3
"Line.L58"              ,   1,       326.1,        32.7,         0.0,         0.0,         0.0,         0.0
"Line.L58"              ,   2,      -325.3,       -31.0
"Line.L59"              ,   1,         5.3,         2.6,         0.0,         0.0,         0.0,         0.0
"Line.L59"              ,   2,        -5.3,        -2.6
"Line.L60"              ,   1,         0.0,        -0.0,         0.0,         0.0,         0.0,         0.0
"Line.L60"              ,   2,        -0.0,         0.0
"Line.L61"              ,   1,        51.2,        55.2,         0.0,         0.0,         0.0,         0.0
"Line.L61"              ,   2,       -51.2,       -55.2
"Line.L62"              ,   1,        40.7,        49.9,         0.0,         0.0,         0.0,         0.0
"Line.L62"              ,   2,       -40.6,       -49.9
"Line.L63"              ,   1,        30.1,        44.7,         0.0,         0.0,         0.0,         0.0
"Line.L63"              ,   2,       -30.1,       -44.7
"Line.L64"              ,   1,        10.4,        35.5,         0.0,         0.0,         0.0,         0.0
"Line.L64"              ,   2,       -10.3,       -35.5
"Line.L65"              ,   1,        19.7,         9.2,         0.0,         0.0,         0.0,         0.0
"Line.L65"              ,   2,       -19.7,        -9.2
"Line.L66"              ,   1,        31.6,        15.8,         0.0,         0.0,         0.0,         0.0
"Line.L66"              ,   2,       -31.6,       -15.8
"Line.L67"              ,   1,       134.2,      -101.3,         0.0,         0.0,         0.0,         0.0
"Line.L67"              ,   2,      -134.1,       101.5
"Line.L68"              ,   1,       102.7,        58.1,         0.0,         0.0,         0.0,         0.0
"Line.L68"              ,   2,      -102.7,       -58.0
"Line.L69"              ,   1,        26.3,        13.2,         0.0,         0.0,         0.0,         0.0
"Line.L69"              ,   2,       -26.3,       -13.2
"Line.L70"              ,   1,        15.8,         7.9,         0.0,         0.0,         0.0,         0.0
"Line.L70"              ,   2,       -15.8,        -7.9
"Line.L71"              ,   1,        10.5,         5.3,         0.0,         0.0,         0.0,         0.0
"Line.L71"              ,   2,       -10.5,        -5.3
"Line.L72"              ,   1,        31.6,        15.8,         0.0,         0.0,         0.0,         0.0
"Line.L72"              ,   2,       -31.6,       -15.8
"Line.L73"              ,   1,       102.5,      -117.3,         0.0,         0.0,         0.0,         0.0
"Line.L73"              ,   2,      -102.5,       117.4
"Line.L74"              ,   1,        21.1,        10.5,         0.0,         0.0,         0.0,         0.0
"Line.L74"              ,   2,       -21.0,       -10.5
"Line.L75"              ,   1,        10.5,         5.3,         0.0,         0.0,         0.0,         0.0
"Line.L75"              ,   2,       -10.5,        -5.3
"Line.L76"              ,   1,        63.7,      -153.1,         0.0,         0.0,         0.0,         0.0
"Line.L76"              ,   2,       -63.5,       153.3
"Line.L77"              ,   1,        55.2,       -11.6,         0.0,         0.0,         0.0,         0.0
"Line.L77"              ,   2,       -55.2,        11.7
"Line.L78"              ,   1,        53.0,      -158.6,         0.0,         0.0,         0.0,         0.0
"Line.L78"              ,   2,       -53.0,       158.7
"Line.L79"              ,   1,        10.5,         5.3,         0.0,         0.0,         0.0,         0.0
"Line.L79"              ,   2,       -10.5,        -5.3
"Line.L80"              ,   1,        42.5,      -163.9,         0.0,         0.0,         0.0,         0.0
"Line.L80"              ,   2,       -42.3,       164.2
"Line.L81"              ,   1,        31.8,      -169.5,         0.0,         0.0,         0.0,         0.0
"Line.L81"              ,   2,       -31.7,       169.6
"Line.L82"              ,   1,        16.0,      -177.5,         0.0,         0.0,         0.0,         0.0
"Line.L82"              ,   2,       -15.9,       177.7
"Line.L83"              ,   1,        15.8,         7.9,         0.0,         0.0,         0.0,         0.0
"Line.L83"              ,   2,       -15.8,        -7.9
"Line.L84"              ,   1,         5.4,      -182.9,         0.0,         0.0,         0.0,         0.0
"Line.L84"              ,   2,        -5.3,       183.1
"Line.L85"              ,   1,        10.5,         5.3,         0.0,         0.0,         0.0,         0.0
"Line.L85"              ,   2,       -10.5,        -5.3
"Line.L86"              ,   1,        49.9,       -14.3,         0.0,         0.0,         0.0,         0.0
"Line.L86"              ,   2,       -49.9,        14.3
"Line.L87"              ,   1,        10.5,       -10.0,         0.0,         0.0,         0.0,         0.0
"Line.L87"              ,   2,       -10.5,        10.0
"Line.L88"              ,   1,        42.1,        -9.5,         0.0,         0.0,         0.0,         0.0
"Line.L88"              ,   2,       -42.1,         9.5
"Line.L89"              ,   1,        10.5,       -10.0,         0.0,         0.0,         0.0,         0.0
"Line.L89"              ,   2,       -10.5,        10.0
"Line.L90"              ,   1,        31.6,         0.5,         0.0,         0.0,         0.0,         0.0
"Line.L90"              ,   2,       -31.6,        -0.5
"Line.L91"              ,   1,        10.5,       -10.0,         0.0,         0.0,         0.0,         0.0
"Line.L91"              ,   2,       -10.5,        10.0
"Line.L92"              ,   1,        21.0,        10.5,         0.0,         0.0,         0.0,         0.0
"Line.L92"              ,   2,       -21.0,       -10.5
"Line.L93"              ,   1,        10.5,         5.3,         0.0,         0.0,         0.0,         0.0
"Line.L93"              ,   2,       -10.5,        -5.3
"Line.L94"              ,   1,        10.5,         5.3,         0.0,         0.0,         0.0,         0.0
"Line.L94"              ,   2,       -10.5,        -5.3
"Line.L95"              ,   1,         5.3,         2.6,         0.0,         0.0,         0.0,         0.0
"Line.L95"              ,   2,        -5.3,        -2.6
"Line.L96"              ,   1,        18.4,        15.8,         0.0,         0.0,         0.0,         0.0
"Line.L96"              ,   2,       -18.4,       -15.8
"Line.L97"              ,   1,         7.8,        10.5,         0.0,         0.0,         0.0,         0.0
"Line.L97"              ,   2,        -7.8,       -10.5
"Line.L98"              ,   1,        -2.7,         5.3,         0.0,         0.0,         0.0,         0.0
"Line.L98"              ,   2,         2.7,        -5.3
"Line.L99"              ,   1,         0.0,        -0.0,         0.0,         0.0,         0.0,         0.0
"Line.L99"              ,   2,        -0.0,         0.0
"Line.L118"             ,   1,        84.3,        42.2,         0.0,         0.0,         0.0,         0.0
"Line.L118"             ,   2,       -84.3,       -42.2
"Line.L100"             ,   1,        26.3,        13.2,         0.0,         0.0,         0.0,         0.0
"Line.L100"             ,   2,       -26.3,       -13.2
"Line.L101"             ,   1,        57.9,        29.0,         0.0,         0.0,         0.0,         0.0
"Line.L101"             ,   2,       -57.9,       -29.0
"Line.L102"             ,   1,        21.1,        10.5,         0.0,         0.0,         0.0,         0.0
"Line.L102"             ,   2,       -21.0,       -10.5
"Line.L103"             ,   1,        10.5,         5.3,         0.0,         0.0,         0.0,         0.0
"Line.L103"             ,   2,       -10.5,        -5.3
"Line.L104"             ,   1,        21.0,        10.5,         0.0,         0.0,         0.0,         0.0
"Line.L104"             ,   2,       -21.0,       -10.5
"Line.L105"             ,   1,        36.9,        18.5,         0.0,         0.0,         0.0,         0.0
"Line.L105"             ,   2,       -36.9,       -18.5
"Line.L106"             ,   1,        10.5,         5.3,         0.0,         0.0,         0.0,         0.0
"Line.L106"             ,   2,       -10.5,        -5.3
"Line.L107"             ,   1,        36.9,        18.5,         0.0,         0.0,         0.0,         0.0
"Line.L107"             ,   2,       -36.8,       -18.4
"Line.L108"             ,   1,         0.0,        -0.0,         0.0,         0.0,         0.0,         0.0
"Line.L108"             ,   2,         0.0,         0.0
"Line.L109"             ,   1,        26.3,        13.2,         0.0,         0.0,         0.0,         0.0
"Line.L109"             ,   2,       -26.3,       -13.2
"Line.L110"             ,   1,         5.3,         2.6,         0.0,         0.0,         0.0,         0.0
"Line.L110"             ,   2,        -5.3,        -2.6
"Line.L111"             ,   1,        21.1,        10.5,         0.0,         0.0,         0.0,         0.0
"Line.L111"             ,   2,       -21.0,       -10.5
"Line.L112"             ,   1,        15.8,         7.9,         0.0,         0.0,         0.0,         0.0
"Line.L112"             ,   2,       -15.8,        -7.9
"Line.L113"             ,   1,         5.3,         2.6,         0.0,         0.0,         0.0,         0.0
"Line.L113"             ,   2,        -5.3,        -2.6
"Line.L114"             ,   1,       129.6,       124.2,         0.0,         0.0,         0.0,         0.0
"Line.L114"             ,   2,      -129.5,      -124.0
"Line.L116"             ,   1,       362.9,        56.5,         0.0,         0.0,         0.0,         0.0
"Line.L116"             ,   2,      -362.4,       -55.4
"Line.L117"             ,   1,       268.8,       -26.8,         0.0,         0.0,         0.0,         0.0
"Line.L117"             ,   2,      -268.5,        27.4
"Line.SW1"              ,   1,       672.5,       293.8,         0.0,         0.0,         0.0,         0.0
"Line.SW1"              ,   2,      -672.5,      -293.8
"Line.SW2"              ,   1,       362.9,        56.5,         0.0,         0.0,         0.0,         0.0
"Line.SW2"              ,   2,      -362.9,       -56.5
"Line.SW3"              ,   1,       129.6,       124.2,         0.0,         0.0,         0.0,         0.0
"Line.SW3"              ,   2,      -129.6,      -124.2
