Element, Terminal, P(kW), Q(kvar),  P_Normal, Q_Normal, P_Emergency, Q_Emergency
"Line.L115"             ,   1,       788.5,       294.5,         0.0,         0.0,         0.0,         0.0
"Line.L115"             ,   2,      -785.7,      -288.7
"Line.L1"               ,   1,         5.2,         2.6,         0.0,         0.0,         0.0,         0.0
"Line.L1"               ,   2,        -5.2,        -2.6
"Line.L2"               ,   1,        25.9,        13.0,         0.0,         0.0,         0.0,         0.0
"Line.L2"               ,   2,       -25.9,       -13.0
"Line.L3"               ,   1,       744.3,       268.0,         0.0,         0.0,         0.0,         0.0
"Line.L3"               ,   2,      -742.4,      -264.1
"Line.L4"               ,   1,        10.4,         5.2,         0.0,         0.0,         0.0,         0.0
"Line.L4"               ,   2,       -10.4,        -5.2
"Line.L5"               ,   1,        15.5,         7.8,         0.0,         0.0,         0.0,         0.0
"Line.L5"               ,   2,       -15.5,        -7.8
"Line.L6"               ,   1,        10.4,         5.2,         0.0,         0.0,         0.0,         0.0
"Line.L6"               ,   2,       -10.4,        -5.2
"Line.L7"               ,   1,       737.2,       261.5,         0.0,         0.0,         0.0,         0.0
"Line.L7"               ,   2,      -735.9,      -259.0
"Line.L8"               ,   1,         5.2,         2.6,         0.0,         0.0,         0.0,         0.0
"Line.L8"               ,   2,        -5.2,        -2.6
"Line.L9"               ,   1,        19.2,        13.0,         0.0,         0.0,         0.0,         0.0
"Line.L9"               ,   2,       -19.2,       -13.0
"Line.L10"              ,   1,       711.5,       243.4,         0.0,         0.0,         0.0,         0.0
"Line.L10"              ,   2,      -709.8,      -239.9
"Line.L11"              ,   1,        15.5,         7.8,         0.0,         0.0,         0.0,         0.0
"Line.L11"              ,   2,       -15.5,        -7.8
"Line.L12"              ,   1,        25.9,        13.0,         0.0,         0.0,         0.0,         0.0
"Line.L12"              ,   2,       -25.9,       -12.9
"Line.L13"              ,   1,       248.4,       170.8,         0.0,         0.0,         0.0,         0.0
"Line.L13"              ,   2,      -247.6,      -169.2
"Line.L14"              ,   1,        10.4,         5.2,         0.0,         0.0,         0.0,         0.0
"Line.L14"              ,   2,       -10.4,        -5.2
"Line.L15"              ,   1,         5.2,         2.6,         0.0,         0.0,         0.0,         0.0
"Line.L15"              ,   2,        -5.2,        -2.6
"Line.L16"              ,   1,        10.4,         5.2,         0.0,         0.0,         0.0,         0.0
"Line.L16"              ,   2,       -10.4,        -5.2
"Line.L17"              ,   1,         5.2,         2.6,         0.0,         0.0,         0.0,         0.0
"Line.L17"              ,   2,        -5.2,        -2.6
"Line.L18"              ,   1,        20.7,        10.4,         0.0,         0.0,         0.0,         0.0
"Line.L18"              ,   2,       -20.7,       -10.4
"Line.L19"              ,   1,        65.9,        36.3,         0.0,         0.0,         0.0,         0.0
"Line.L19"              ,   2,       -65.9,       -36.3
"Line.L20"              ,   1,        10.4,         5.2,         0.0,         0.0,         0.0,         0.0
"Line.L20"              ,   2,       -10.4,        -5.2
"Line.L21"              ,   1,        10.4,         5.2,         0.0,         0.0,         0.0,         0.0
"Line.L21"              ,   2,       -10.4,        -5.2
"Line.L22"              ,   1,        55.5,        31.1,         0.0,         0.0,         0.0,         0.0
"Line.L22"              ,   2,       -55.5,       -31.1
"Line.L23"              ,   1,        10.4,         5.2,         0.0,         0.0,         0.0,         0.0
"Line.L23"              ,   2,       -10.4,        -5.2
"Line.L24"              ,   1,        45.2,        25.9,         0.0,         0.0,         0.0,         0.0
"Line.L24"              ,   2,       -45.1,       -25.9
"Line.L25"              ,   1,        20.7,        10.4,         0.0,         0.0,         0.0,         0.0
"Line.L25"              ,   2,       -20.7,       -10.4
"Line.L26"              ,   1,        24.4,        15.5,         0.0,         0.0,         0.0,         0.0
"Line.L26"              ,   2,       -24.4,       -15.5
"Line.L27"              ,   1,        10.4,         5.2,         0.0,         0.0,         0.0,         0.0
"Line.L27"              ,   2,       -10.4,        -5.2
"Line.L28"              ,   1,        10.4,         5.2,         0.0,         0.0,         0.0,         0.0
"Line.L28"              ,   2,       -10.4,        -5.2
"Line.L29"              ,   1,        10.4,         5.2,         0.0,         0.0,         0.0,         0.0
"Line.L29"              ,   2,       -10.4,        -5.2
"Line.L30"              ,   1,        20.7,        10.4,         0.0,         0.0,         0.0,         0.0
"Line.L30"              ,   2,       -20.7,       -10.4
"Line.L31"              ,   1,        10.4,         5.2,         0.0,         0.0,         0.0,         0.0
"Line.L31"              ,   2,       -10.4,        -5.2
"Line.L32"              ,   1,        -0.0,        -0.0,         0.0,         0.0,         0.0,         0.0
"Line.L32"              ,   2,         0.0,         0.0
"Line.L33"              ,   1,         5.2,         2.6,         0.0,         0.0,         0.0,         0.0
"Line.L33"              ,   2,        -5.2,        -2.6
"Line.L34"              ,   1,        15.5,         7.8,         0.0,         0.0,         0.0,         0.0
"Line.L34"              ,   2,       -15.5,        -7.8
"Line.L35"              ,   1,        20.7,        10.4,         0.0,         0.0,         0.0,         0.0
"Line.L35"              ,   2,       -20.7,       -10.4
"Line.L36"              ,   1,       129.7,       106.7,         0.0,         0.0,         0.0,         0.0
"Line.L36"              ,   2,      -129.6,      -106.5
"Line.L37"              ,   1,        10.4,         5.2,         0.0,         0.0,         0.0,         0.0
"Line.L37"              ,   2,       -10.4,        -5.2
"Line.L38"              ,   1,        10.4,         5.2,         0.0,         0.0,         0.0,         0.0
"Line.L38"              ,   2,       -10.4,        -5.2
"Line.L39"              ,   1,         5.2,         2.6,         0.0,         0.0,         0.0,         0.0
"Line.L39"              ,   2,        -5.2,        -2.6
"Line.L40"              ,   1,         5.2,         2.6,         0.0,         0.0,         0.0,         0.0
"Line.L40"              ,   2,        -5.2,        -2.6
"Line.L41"              ,   1,       124.5,       103.9,         0.0,         0.0,         0.0,         0.0
"Line.L41"              ,   2,      -124.4,      -103.8
"Line.L42"              ,   1,        10.4,         5.2,         0.0,         0.0,         0.0,         0.0
"Line.L42"              ,   2,       -10.4,        -5.2
"Line.L43"              ,   1,       108.8,        96.0,         0.0,         0.0,         0.0,         0.0
"Line.L43"              ,   2,      -108.8,       -95.9
"Line.L44"              ,   1,        10.4,         5.2,         0.0,         0.0,         0.0,         0.0
"Line.L44"              ,   2,       -10.4,        -5.2
"Line.L45"              ,   1,        98.4,        90.8,         0.0,         0.0,         0.0,         0.0
"Line.L45"              ,   2,       -98.4,       -90.7
"Line.L46"              ,   1,         5.2,         2.6,         0.0,         0.0,         0.0,         0.0
"Line.L46"              ,   2,        -5.2,        -2.6
"Line.L47"              ,   1,        19.4,        38.9,         0.0,         0.0,         0.0,         0.0
"Line.L47"              ,   2,       -19.4,       -38.8
"Line.L48"              ,   1,        51.8,        32.4,         0.0,         0.0,         0.0,         0.0
"Line.L48"              ,   2,       -51.8,       -32.4
"Line.L49"              ,   1,        15.5,         7.8,         0.0,         0.0,         0.0,         0.0
"Line.L49"              ,   2,       -15.5,        -7.8
"Line.L50"              ,   1,         5.2,         2.6,         0.0,         0.0,         0.0,         0.0
"Line.L50"              ,   2,        -5.2,        -2.6
"Line.L51"              ,   1,         0.0,        -0.0,         0.0,         0.0,         0.0,         0.0
"Line.L51"              ,   2,         0.0,         0.0
"Line.L52"              ,   1,       424.4,        49.3,         0.0,         0.0,         0.0,         0.0
"Line.L52"              ,   2,      -424.0,       -48.6
"Line.L53"              ,   1,       413.6,        43.4,         0.0,         0.0,         0.0,         0.0
"Line.L53"              ,   2,      -413.4,       -42.9
"Line.L54"              ,   1,        10.4,         5.2,         0.0,         0.0,         0.0,         0.0
"Line.L54"              ,   2,       -10.4,        -5.2
"Line.L55"              ,   1,       403.1,        37.8,         0.0,         0.0,         0.0,         0.0
"Line.L55"              ,   2,      -402.5,       -36.5
"Line.L56"              ,   1,         5.2,         2.6,         0.0,         0.0,         0.0,         0.0
"Line.L56"              ,   2,        -5.2,        -2.6
"Line.L57"              ,   1,         7.0,         5.2,         0.0,         0.0,         0.0,         0.0
"Line.L57"              ,   2,        -7.0,        -5.2
"Line.L58"              ,   1,       395.4,        31.4,         0.0,         0.0,         0.0,         0.0
"Line.L58"              ,   2,      -394.2,       -28.9
"Line.L59"              ,   1,         5.2,         2.6,         0.0,         0.0,         0.0,         0.0
"Line.L59"              ,   2,        -5.2,        -2.6
"Line.L60"              ,   1,         0.0,        -0.0,         0.0,         0.0,         0.0,         0.0
"Line.L60"              ,   2,        -0.0,         0.0
"Line.L61"              ,   1,        72.7,        54.4,         0.0,         0.0,         0.0,         0.0
"Line.L61"              ,   2,       -72.6,       -54.4
"Line.L62"              ,   1,        62.3,        49.2,         0.0,         0.0,         0.0,         0.0
"Line.L62"              ,   2,       -62.2,       -49.2
"Line.L63"              ,   1,        51.9,        44.0,         0.0,         0.0,         0.0,         0.0
"Line.L63"              ,   2,       -51.8,       -44.0
"Line.L64"              ,   1,        32.4,        34.9,         0.0,         0.0,         0.0,         0.0
"Line.L64"              ,   2,       -32.4,       -34.9
"Line.L65"              ,   1,        19.4,         9.0,         0.0,         0.0,         0.0,         0.0
"Line.L65"              ,   2,       -19.4,        -9.1
"Line.L66"              ,   1,        31.1,        15.6,         0.0,         0.0,         0.0,         0.0
"Line.L66"              ,   2,       -31.1,       -15.6
"Line.L67"              ,   1,       177.4,      -101.7,         0.0,         0.0,         0.0,         0.0
"Line.L67"              ,   2,      -177.2,       101.9
"Line.L68"              ,   1,       107.5,        57.2,         0.0,         0.0,         0.0,         0.0
"Line.L68"              ,   2,      -107.4,       -57.1
"Line.L69"              ,   1,        25.9,        13.0,         0.0,         0.0,         0.0,         0.0
"Line.L69"              ,   2,       -25.9,       -13.0
"Line.L70"              ,   1,        15.5,         7.8,         0.0,         0.0,         0.0,         0.0
"Line.L70"              ,   2,       -15.5,        -7.8
"Line.L71"              ,   1,        10.4,         5.2,         0.0,         0.0,         0.0,         0.0
"Line.L71"              ,   2,       -10.4,        -5.2
"Line.L72"              ,   1,        31.1,        15.6,         0.0,         0.0,         0.0,         0.0
"Line.L72"              ,   2,       -31.1,       -15.5
"Line.L73"              ,   1,       146.1,      -117.5,         0.0,         0.0,         0.0,         0.0
"Line.L73"              ,   2,      -146.1,       117.7
"Line.L74"              ,   1,        20.7,        10.4,         0.0,         0.0,         0.0,         0.0
"Line.L74"              ,   2,       -20.7,       -10.4
"Line.L75"              ,   1,        10.4,         5.2,         0.0,         0.0,         0.0,         0.0
"Line.L75"              ,   2,       -10.4,        -5.2
"Line.L76"              ,   1,        62.7,      -152.4,         0.0,         0.0,         0.0,         0.0
"Line.L76"              ,   2,       -62.6,       152.7
"Line.L77"              ,   1,        60.7,       -11.8,         0.0,         0.0,         0.0,         0.0
"Line.L77"              ,   2,       -60.7,        11.9
"Line.L78"              ,   1,        52.2,      -157.9,         0.0,         0.0,         0.0,         0.0
"Line.L78"              ,   2,       -52.2,       157.9
"Line.L79"              ,   1,        10.4,         5.2,         0.0,         0.0,         0.0,         0.0
"Line.L79"              ,   2,       -10.4,        -5.2
"Line.L80"              ,   1,        41.8,      -163.1,         0.0,         0.0,         0.0,         0.0
"Line.L80"              ,   2,       -41.7,       163.4
"Line.L81"              ,   1,        31.3,      -168.6,         0.0,         0.0,         0.0,         0.0
"Line.L81"              ,   2,       -31.3,       168.7
"Line.L82"              ,   1,        15.7,      -176.5,         0.0,         0.0,         0.0,         0.0
"Line.L82"              ,   2,       -15.6,       176.7
"Line.L83"              ,   1,        15.6,         7.8,         0.0,         0.0,         0.0,         0.0
"Line.L83"              ,   2,       -15.5,        -7.8
"Line.L84"              ,   1,         5.3,      -181.8,         0.0,         0.0,         0.0,         0.0
"Line.L84"              ,   2,        -5.2,       182.0
"Line.L85"              ,   1,        10.4,         5.2,         0.0,         0.0,         0.0,         0.0
"Line.L85"              ,   2,       -10.4,        -5.2
"Line.L86"              ,   1,        55.5,       -14.5,         0.0,         0.0,         0.0,         0.0
"Line.L86"              ,   2,       -55.5,        14.5
"Line.L87"              ,   1,        10.4,       -10.0,         0.0,         0.0,         0.0,         0.0
"Line.L87"              ,   2,       -10.4,        10.0
"Line.L88"              ,   1,        41.5,        -9.7,         0.0,         0.0,         0.0,         0.0
"Line.L88"              ,   2,       -41.4,         9.7
"Line.L89"              ,   1,        10.4,       -10.0,         0.0,         0.0,         0.0,         0.0
"Line.L89"              ,   2,       -10.4,        10.0
"Line.L90"              ,   1,        31.1,         0.3,         0.0,         0.0,         0.0,         0.0
"Line.L90"              ,   2,       -31.1,        -0.3
"Line.L91"              ,   1,        10.4,       -10.0,         0.0,         0.0,         0.0,         0.0
"Line.L91"              ,   2,       -10.4,        10.0
"Line.L92"              ,   1,        20.7,        10.4,         0.0,         0.0,         0.0,         0.0
"Line.L92"              ,   2,       -20.7,       -10.4
"Line.L93"              ,   1,        10.4,         5.2,         0.0,         0.0,         0.0,         0.0
"Line.L93"              ,   2,       -10.4,        -5.2
"Line.L94"              ,   1,        10.4,         5.2,         0.0,         0.0,         0.0,         0.0
"Line.L94"              ,   2,       -10.4,        -5.2
"Line.L95"              ,   1,         5.2,         2.6,         0.0,         0.0,         0.0,         0.0
"Line.L95"              ,   2,        -5.2,        -2.6
"Line.L96"              ,   1,        24.4,        15.5,         0.0,         0.0,         0.0,         0.0
"Line.L96"              ,   2,       -24.4,       -15.5
"Line.L97"              ,   1,        14.1,        10.4,         0.0,         0.0,         0.0,         0.0
"Line.L97"              ,   2,       -14.1,       -10.4
"Line.L98"              ,   1,         3.7,         5.2,         0.0,         0.0,         0.0,         0.0
"Line.L98"              ,   2,        -3.7,        -5.2
"Line.L99"              ,   1,         0.0,        -0.0,         0.0,         0.0,         0.0,         0.0
"Line.L99"              ,   2,         0.0,         0.0
"Line.L118"             ,   1,        83.0,        41.6,         0.0,         0.0,         0.0,         0.0
"Line.L118"             ,   2,       -83.0,       -41.5
"Line.L100"             ,   1,        25.9,        13.0,         0.0,         0.0,         0.0,         0.0
"Line.L100"             ,   2,       -25.9,       -13.0
"Line.L101"             ,   1,        57.1,        28.6,         0.0,         0.0,         0.0,         0.0
"Line.L101"             ,   2,       -57.1,       -28.5
"Line.L102"             ,   1,        20.7,        10.4,         0.0,         0.0,         0.0,         0.0
"Line.L102"             ,   2,       -20.7,       -10.4
"Line.L103"             ,   1,        10.4,         5.2,         0.0,         0.0,         0.0,         0.0
"Line.L103"             ,   2,       -10.4,        -5.2
"Line.L104"             ,   1,        20.7,        10.4,         0.0,         0.0,         0.0,         0.0
"Line.L104"             ,   2,       -20.7,       -10.4
"Line.L105"             ,   1,        36.3,        18.2,         0.0,         0.0,         0.0,         0.0
"Line.L105"             ,   2,       -36.3,       -18.2
"Line.L106"             ,   1,        10.4,         5.2,         0.0,         0.0,         0.0,         0.0
"Line.L106"             ,   2,       -10.4,        -5.2
"Line.L107"             ,   1,        36.3,        18.2,         0.0,         0.0,         0.0,         0.0
"Line.L107"             ,   2,       -36.3,       -18.1
"Line.L108"             ,   1,         0.0,        -0.0,         0.0,         0.0,         0.0,         0.0
"Line.L108"             ,   2,         0.0,         0.0
"Line.L109"             ,   1,        25.9,        13.0,         0.0,         0.0,         0.0,         0.0
"Line.L109"             ,   2,       -25.9,       -13.0
"Line.L110"             ,   1,         5.2,         2.6,         0.0,         0.0,         0.0,         0.0
"Line.L110"             ,   2,        -5.2,        -2.6
"Line.L111"             ,   1,        20.7,        10.4,         0.0,         0.0,         0.0,         0.0
"Line.L111"             ,   2,       -20.7,       -10.4
"Line.L112"             ,   1,        15.5,         7.8,         0.0,         0.0,         0.0,         0.0
"Line.L112"             ,   2,       -15.5,        -7.8
"Line.L113"             ,   1,         5.2,         2.6,         0.0,         0.0,         0.0,         0.0
"Line.L113"             ,   2,        -5.2,        -2.6
"Line.L114"             ,   1,       161.0,       122.5,         0.0,         0.0,         0.0,         0.0
"Line.L114"             ,   2,      -160.8,      -122.2
"Line.L116"             ,   1,       435.5,        56.1,         0.0,         0.0,         0.0,         0.0
"Line.L116"             ,   2,      -434.7,       -54.5
"Line.L117"             ,   1,       316.3,       -28.1,         0.0,         0.0,         0.0,         0.0
"Line.L117"             ,   2,      -315.9,        28.9
"Line.SW1"              ,   1,       788.5,       294.5,         0.0,         0.0,         0.0,         0.0
"Line.SW1"              ,   2,      -788.5,      -294.5
"Line.SW2"              ,   1,       435.5,        56.1,         0.0,         0.0,         0.0,         0.0
"Line.SW2"              ,   2,      -435.5,       -56.1
"Line.SW3"              ,   1,       161.0,       122.5,         0.0,         0.0,         0.0,         0.0
"Line.SW3"              ,   2,      -161.0,      -122.5
