Element, Terminal, P(kW), Q(kvar),  P_Normal, Q_Normal, P_Emergency, Q_Emergency
"Line.L115"             ,   1,       885.0,       194.6,         0.0,         0.0,         0.0,         0.0
"Line.L115"             ,   2,      -881.7,      -187.9
"Line.L1"               ,   1,         4.1,         2.0,         0.0,         0.0,         0.0,         0.0
"Line.L1"               ,   2,        -4.1,        -2.0
"Line.L2"               ,   1,        20.4,        10.2,         0.0,         0.0,         0.0,         0.0
"Line.L2"               ,   2,       -20.4,       -10.2
"Line.L3"               ,   1,       849.0,       171.5,         0.0,         0.0,         0.0,         0.0
"Line.L3"               ,   2,      -846.8,      -166.9
"Line.L4"               ,   1,         8.2,         4.1,         0.0,         0.0,         0.0,         0.0
"Line.L4"               ,   2,        -8.2,        -4.1
"Line.L5"               ,   1,        12.3,         6.1,         0.0,         0.0,         0.0,         0.0
"Line.L5"               ,   2,       -12.3,        -6.1
"Line.L6"               ,   1,         8.2,         4.1,         0.0,         0.0,         0.0,         0.0
"Line.L6"               ,   2,        -8.2,        -4.1
"Line.L7"               ,   1,       842.7,       164.9,         0.0,         0.0,         0.0,         0.0
"Line.L7"               ,   2,      -841.2,      -161.8
"Line.L8"               ,   1,         4.1,         2.0,         0.0,         0.0,         0.0,         0.0
"Line.L8"               ,   2,        -4.1,        -2.0
"Line.L9"               ,   1,        28.4,        10.2,         0.0,         0.0,         0.0,         0.0
"Line.L9"               ,   2,       -28.4,       -10.2
"Line.L10"              ,   1,       808.7,       149.5,         0.0,         0.0,         0.0,         0.0
"Line.L10"              ,   2,      -806.6,      -145.3
"Line.L11"              ,   1,        12.3,         6.1,         0.0,         0.0,         0.0,         0.0
"Line.L11"              ,   2,       -12.3,        -6.1
"Line.L12"              ,   1,        20.4,        10.2,         0.0,         0.0,         0.0,         0.0
"Line.L12"              ,   2,       -20.4,       -10.2
"Line.L13"              ,   1,       279.2,       135.6,         0.0,         0.0,         0.0,         0.0
"Line.L13"              ,   2,      -278.4,      -133.9
"Line.L14"              ,   1,         8.2,         4.1,         0.0,         0.0,         0.0,         0.0
"Line.L14"              ,   2,        -8.2,        -4.1
"Line.L15"              ,   1,         4.1,         2.0,         0.0,         0.0,         0.0,         0.0
"Line.L15"              ,   2,        -4.1,        -2.0
"Line.L16"              ,   1,         8.2,         4.1,         0.0,         0.0,         0.0,         0.0
"Line.L16"              ,   2,        -8.2,        -4.1
"Line.L17"              ,   1,         4.1,         2.0,         0.0,         0.0,         0.0,         0.0
"Line.L17"              ,   2,        -4.1,        -2.0
"Line.L18"              ,   1,        16.4,         8.2,         0.0,         0.0,         0.0,         0.0
"Line.L18"              ,   2,       -16.3,        -8.2
"Line.L19"              ,   1,        65.3,        28.7,         0.0,         0.0,         0.0,         0.0
"Line.L19"              ,   2,       -65.2,       -28.6
"Line.L20"              ,   1,         8.2,         4.1,         0.0,         0.0,         0.0,         0.0
"Line.L20"              ,   2,        -8.2,        -4.1
"Line.L21"              ,   1,         8.2,         4.1,         0.0,         0.0,         0.0,         0.0
"Line.L21"              ,   2,        -8.2,        -4.1
"Line.L22"              ,   1,        57.1,        24.5,         0.0,         0.0,         0.0,         0.0
"Line.L22"              ,   2,       -57.1,       -24.5
"Line.L23"              ,   1,         8.2,         4.1,         0.0,         0.0,         0.0,         0.0
"Line.L23"              ,   2,        -8.2,        -4.1
"Line.L24"              ,   1,        48.9,        20.4,         0.0,         0.0,         0.0,         0.0
"Line.L24"              ,   2,       -48.9,       -20.4
"Line.L25"              ,   1,        16.4,         8.2,         0.0,         0.0,         0.0,         0.0
"Line.L25"              ,   2,       -16.3,        -8.2
"Line.L26"              ,   1,        32.5,        12.3,         0.0,         0.0,         0.0,         0.0
"Line.L26"              ,   2,       -32.5,       -12.3
"Line.L27"              ,   1,         8.2,         4.1,         0.0,         0.0,         0.0,         0.0
"Line.L27"              ,   2,        -8.2,        -4.1
"Line.L28"              ,   1,         8.2,         4.1,         0.0,         0.0,         0.0,         0.0
"Line.L28"              ,   2,        -8.2,        -4.1
"Line.L29"              ,   1,         8.2,         4.1,         0.0,         0.0,         0.0,         0.0
"Line.L29"              ,   2,        -8.2,        -4.1
"Line.L30"              ,   1,        16.3,         8.2,         0.0,         0.0,         0.0,         0.0
"Line.L30"              ,   2,       -16.3,        -8.2
"Line.L31"              ,   1,         8.2,         4.1,         0.0,         0.0,         0.0,         0.0
"Line.L31"              ,   2,        -8.2,        -4.1
"Line.L32"              ,   1,        -0.0,        -0.0,         0.0,         0.0,         0.0,         0.0
"Line.L32"              ,   2,         0.0,         0.0
"Line.L33"              ,   1,         4.1,         2.0,         0.0,         0.0,         0.0,         0.0
"Line.L33"              ,   2,        -4.1,        -2.0
"Line.L34"              ,   1,        12.3,         6.1,         0.0,         0.0,         0.0,         0.0
"Line.L34"              ,   2,       -12.3,        -6.1
"Line.L35"              ,   1,        16.4,         8.2,         0.0,         0.0,         0.0,         0.0
"Line.L35"              ,   2,       -16.3,        -8.2
"Line.L36"              ,   1,       172.1,        84.4,         0.0,         0.0,         0.0,         0.0
"Line.L36"              ,   2,      -172.0,       -84.3
"Line.L37"              ,   1,         8.2,         4.1,         0.0,         0.0,         0.0,         0.0
"Line.L37"              ,   2,        -8.2,        -4.1
"Line.L38"              ,   1,         8.2,         4.1,         0.0,         0.0,         0.0,         0.0
"Line.L38"              ,   2,        -8.2,        -4.1
"Line.L39"              ,   1,         4.1,         2.0,         0.0,         0.0,         0.0,         0.0
"Line.L39"              ,   2,        -4.1,        -2.0
"Line.L40"              ,   1,         4.1,         2.0,         0.0,         0.0,         0.0,         0.0
"Line.L40"              ,   2,        -4.1,        -2.0
"Line.L41"              ,   1,       167.9,        82.2,         0.0,         0.0,         0.0,         0.0
"Line.L41"              ,   2,      -167.8,       -82.0
"Line.L42"              ,   1,         8.2,         4.1,         0.0,         0.0,         0.0,         0.0
"Line.L42"              ,   2,        -8.2,        -4.1
"Line.L43"              ,   1,       155.6,        75.9,         0.0,         0.0,         0.0,         0.0
"Line.L43"              ,   2,      -155.5,       -75.8
"Line.L44"              ,   1,         8.2,         4.1,         0.0,         0.0,         0.0,         0.0
"Line.L44"              ,   2,        -8.2,        -4.1
"Line.L45"              ,   1,       147.3,        71.7,         0.0,         0.0,         0.0,         0.0
"Line.L45"              ,   2,      -147.2,       -71.5
"Line.L46"              ,   1,         4.1,         2.0,         0.0,         0.0,         0.0,         0.0
"Line.L46"              ,   2,        -4.1,        -2.0
"Line.L47"              ,   1,        84.9,        30.7,         0.0,         0.0,         0.0,         0.0
"Line.L47"              ,   2,       -84.9,       -30.6
"Line.L48"              ,   1,        40.9,        25.5,         0.0,         0.0,         0.0,         0.0
"Line.L48"              ,   2,       -40.9,       -25.5
"Line.L49"              ,   1,        12.3,         6.1,         0.0,         0.0,         0.0,         0.0
"Line.L49"              ,   2,       -12.3,        -6.1
"Line.L50"              ,   1,         4.1,         2.0,         0.0,         0.0,         0.0,         0.0
"Line.L50"              ,   2,        -4.1,        -2.0
"Line.L51"              ,   1,         0.0,        -0.0,         0.0,         0.0,         0.0,         0.0
"Line.L51"              ,   2,         0.0,         0.0
"Line.L52"              ,   1,       497.7,        -6.7,         0.0,         0.0,         0.0,         0.0
"Line.L52"              ,   2,      -497.2,         7.8
"Line.L53"              ,   1,       489.0,       -11.8,         0.0,         0.0,         0.0,         0.0
"Line.L53"              ,   2,      -488.7,        12.5
"Line.L54"              ,   1,         8.2,         4.1,         0.0,         0.0,         0.0,         0.0
"Line.L54"              ,   2,        -8.2,        -4.1
"Line.L55"              ,   1,       480.6,       -16.6,         0.0,         0.0,         0.0,         0.0
"Line.L55"              ,   2,      -479.7,        18.3
"Line.L56"              ,   1,         4.1,         2.0,         0.0,         0.0,         0.0,         0.0
"Line.L56"              ,   2,        -4.1,        -2.0
"Line.L57"              ,   1,        12.2,         4.1,         0.0,         0.0,         0.0,         0.0
"Line.L57"              ,   2,       -12.2,        -4.1
"Line.L58"              ,   1,       467.5,       -22.3,         0.0,         0.0,         0.0,         0.0
"Line.L58"              ,   2,      -465.8,        25.8
"Line.L59"              ,   1,         4.1,         2.0,         0.0,         0.0,         0.0,         0.0
"Line.L59"              ,   2,        -4.1,        -2.0
"Line.L60"              ,   1,         0.0,        -0.0,         0.0,         0.0,         0.0,         0.0
"Line.L60"              ,   2,        -0.0,         0.0
"Line.L61"              ,   1,       104.0,        43.0,         0.0,         0.0,         0.0,         0.0
"Line.L61"              ,   2,      -103.9,       -42.9
"Line.L62"              ,   1,        95.7,        38.9,         0.0,         0.0,         0.0,         0.0
"Line.L62"              ,   2,       -95.6,       -38.8
"Line.L63"              ,   1,        87.4,        34.8,         0.0,         0.0,         0.0,         0.0
"Line.L63"              ,   2,       -87.3,       -34.7
"Line.L64"              ,   1,        72.0,        27.6,         0.0,         0.0,         0.0,         0.0
"Line.L64"              ,   2,       -71.9,       -27.6
"Line.L65"              ,   1,        15.3,         7.1,         0.0,         0.0,         0.0,         0.0
"Line.L65"              ,   2,       -15.3,        -7.2
"Line.L66"              ,   1,        24.5,        12.3,         0.0,         0.0,         0.0,         0.0
"Line.L66"              ,   2,       -24.5,       -12.3
"Line.L67"              ,   1,       234.7,      -129.3,         0.0,         0.0,         0.0,         0.0
"Line.L67"              ,   2,      -234.5,       129.7
"Line.L68"              ,   1,        98.0,        45.1,         0.0,         0.0,         0.0,         0.0
"Line.L68"              ,   2,       -98.0,       -45.0
"Line.L69"              ,   1,        20.4,        10.2,         0.0,         0.0,         0.0,         0.0
"Line.L69"              ,   2,       -20.4,       -10.2
"Line.L70"              ,   1,        12.3,         6.1,         0.0,         0.0,         0.0,         0.0
"Line.L70"              ,   2,       -12.3,        -6.1
"Line.L71"              ,   1,         8.2,         4.1,         0.0,         0.0,         0.0,         0.0
"Line.L71"              ,   2,        -8.2,        -4.1
"Line.L72"              ,   1,        24.5,        12.3,         0.0,         0.0,         0.0,         0.0
"Line.L72"              ,   2,       -24.5,       -12.3
"Line.L73"              ,   1,       210.0,      -142.0,         0.0,         0.0,         0.0,         0.0
"Line.L73"              ,   2,      -209.8,       142.3
"Line.L74"              ,   1,        16.4,         8.2,         0.0,         0.0,         0.0,         0.0
"Line.L74"              ,   2,       -16.3,        -8.2
"Line.L75"              ,   1,         8.2,         4.1,         0.0,         0.0,         0.0,         0.0
"Line.L75"              ,   2,        -8.2,        -4.1
"Line.L76"              ,   1,        49.6,      -159.9,         0.0,         0.0,         0.0,         0.0
"Line.L76"              ,   2,       -49.5,       160.1
"Line.L77"              ,   1,        61.2,       -19.2,         0.0,         0.0,         0.0,         0.0
"Line.L77"              ,   2,       -61.2,        19.2
"Line.L78"              ,   1,        41.3,      -164.2,         0.0,         0.0,         0.0,         0.0
"Line.L78"              ,   2,       -41.3,       164.3
"Line.L79"              ,   1,         8.2,         4.1,         0.0,         0.0,         0.0,         0.0
"Line.L79"              ,   2,        -8.2,        -4.1
"Line.L80"              ,   1,        33.1,      -168.4,         0.0,         0.0,         0.0,         0.0
"Line.L80"              ,   2,       -32.9,       168.7
"Line.L81"              ,   1,        24.8,      -172.8,         0.0,         0.0,         0.0,         0.0
"Line.L81"              ,   2,       -24.7,       172.9
"Line.L82"              ,   1,        12.4,      -179.0,         0.0,         0.0,         0.0,         0.0
"Line.L82"              ,   2,       -12.4,       179.2
"Line.L83"              ,   1,        12.3,         6.1,         0.0,         0.0,         0.0,         0.0
"Line.L83"              ,   2,       -12.3,        -6.1
"Line.L84"              ,   1,         4.2,      -183.3,         0.0,         0.0,         0.0,         0.0
"Line.L84"              ,   2,        -4.1,       183.5
"Line.L85"              ,   1,         8.2,         4.1,         0.0,         0.0,         0.0,         0.0
"Line.L85"              ,   2,        -8.2,        -4.1
"Line.L86"              ,   1,        57.1,       -21.3,         0.0,         0.0,         0.0,         0.0
"Line.L86"              ,   2,       -57.0,        21.3
"Line.L87"              ,   1,         8.2,       -11.2,         0.0,         0.0,         0.0,         0.0
"Line.L87"              ,   2,        -8.2,        11.2
"Line.L88"              ,   1,        32.7,       -14.2,         0.0,         0.0,         0.0,         0.0
"Line.L88"              ,   2,       -32.7,        14.2
"Line.L89"              ,   1,         8.2,       -11.2,         0.0,         0.0,         0.0,         0.0
"Line.L89"              ,   2,        -8.2,        11.2
"Line.L90"              ,   1,        24.5,        -3.0,         0.0,         0.0,         0.0,         0.0
"Line.L90"              ,   2,       -24.5,         3.0
"Line.L91"              ,   1,         8.2,       -11.2,         0.0,         0.0,         0.0,         0.0
"Line.L91"              ,   2,        -8.2,        11.2
"Line.L92"              ,   1,        16.3,         8.2,         0.0,         0.0,         0.0,         0.0
"Line.L92"              ,   2,       -16.3,        -8.2
"Line.L93"              ,   1,         8.2,         4.1,         0.0,         0.0,         0.0,         0.0
"Line.L93"              ,   2,        -8.2,        -4.1
"Line.L94"              ,   1,         8.2,         4.1,         0.0,         0.0,         0.0,         0.0
"Line.L94"              ,   2,        -8.2,        -4.1
"Line.L95"              ,   1,         4.1,         2.0,         0.0,         0.0,         0.0,         0.0
"Line.L95"              ,   2,        -4.1,        -2.0
"Line.L96"              ,   1,        32.5,        12.3,         0.0,         0.0,         0.0,         0.0
"Line.L96"              ,   2,       -32.5,       -12.3
"Line.L97"              ,   1,        24.3,         8.2,         0.0,         0.0,         0.0,         0.0
"Line.L97"              ,   2,       -24.3,        -8.2
"Line.L98"              ,   1,        16.2,         4.1,         0.0,         0.0,         0.0,         0.0
"Line.L98"              ,   2,       -16.2,        -4.1
"Line.L99"              ,   1,         0.0,        -0.0,         0.0,         0.0,         0.0,         0.0
"Line.L99"              ,   2,         0.0,         0.0
"Line.L118"             ,   1,        65.5,        32.8,         0.0,         0.0,         0.0,         0.0
"Line.L118"             ,   2,       -65.4,       -32.7
"Line.L100"             ,   1,        20.4,        10.2,         0.0,         0.0,         0.0,         0.0
"Line.L100"             ,   2,       -20.4,       -10.2
"Line.L101"             ,   1,        45.0,        22.5,         0.0,         0.0,         0.0,         0.0
"Line.L101"             ,   2,       -45.0,       -22.5
"Line.L102"             ,   1,        16.4,         8.2,         0.0,         0.0,         0.0,         0.0
"Line.L102"             ,   2,       -16.3,        -8.2
"Line.L103"             ,   1,         8.2,         4.1,         0.0,         0.0,         0.0,         0.0
"Line.L103"             ,   2,        -8.2,        -4.1
"Line.L104"             ,   1,        16.4,         8.2,         0.0,         0.0,         0.0,         0.0
"Line.L104"             ,   2,       -16.3,        -8.2
"Line.L105"             ,   1,        28.6,        14.3,         0.0,         0.0,         0.0,         0.0
"Line.L105"             ,   2,       -28.6,       -14.3
"Line.L106"             ,   1,         8.2,         4.1,         0.0,         0.0,         0.0,         0.0
"Line.L106"             ,   2,        -8.2,        -4.1
"Line.L107"             ,   1,        28.6,        14.3,         0.0,         0.0,         0.0,         0.0
"Line.L107"             ,   2,       -28.6,       -14.3
"Line.L108"             ,   1,         0.0,        -0.0,         0.0,         0.0,         0.0,         0.0
"Line.L108"             ,   2,         0.0,         0.0
"Line.L109"             ,   1,        20.4,        10.2,         0.0,         0.0,         0.0,         0.0
"Line.L109"             ,   2,       -20.4,       -10.2
"Line.L110"             ,   1,         4.1,         2.0,         0.0,         0.0,         0.0,         0.0
"Line.L110"             ,   2,        -4.1,        -2.0
"Line.L111"             ,   1,        16.4,         8.2,         0.0,         0.0,         0.0,         0.0
"Line.L111"             ,   2,       -16.4,        -8.2
"Line.L112"             ,   1,        12.3,         6.1,         0.0,         0.0,         0.0,         0.0
"Line.L112"             ,   2,       -12.3,        -6.1
"Line.L113"             ,   1,         4.1,         2.0,         0.0,         0.0,         0.0,         0.0
"Line.L113"             ,   2,        -4.1,        -2.0
"Line.L114"             ,   1,       196.8,        97.1,         0.0,         0.0,         0.0,         0.0
"Line.L114"             ,   2,      -196.6,       -96.7
"Line.L116"             ,   1,       506.9,        -0.5,         0.0,         0.0,         0.0,         0.0
"Line.L116"             ,   2,      -505.9,         2.6
"Line.L117"             ,   1,       357.8,       -70.8,         0.0,         0.0,         0.0,         0.0
"Line.L117"             ,   2,      -357.3,        71.9
"Line.SW1"              ,   1,       885.0,       194.6,         0.0,         0.0,         0.0,         0.0
"Line.SW1"              ,   2,      -885.0,      -194.6
"Line.SW2"              ,   1,       506.9,        -0.5,         0.0,         0.0,         0.0,         0.0
"Line.SW2"              ,   2,      -506.9,         0.5
"Line.SW3"              ,   1,       196.8,        97.1,         0.0,         0.0,         0.0,         0.0
"Line.SW3"              ,   2,      -196.8,       -97.1
