Element, Terminal, P(kW), Q(kvar),  P_Normal, Q_Normal, P_Emergency, Q_Emergency
"Line.L115"             ,   1,       795.4,       173.2,         0.0,         0.0,         0.0,         0.0
"Line.L115"             ,   2,      -792.8,      -167.8
"Line.L1"               ,   1,         3.9,         2.0,         0.0,         0.0,         0.0,         0.0
"Line.L1"               ,   2,        -3.9,        -2.0
"Line.L2"               ,   1,        19.7,         9.9,         0.0,         0.0,         0.0,         0.0
"Line.L2"               ,   2,       -19.7,        -9.9
"Line.L3"               ,   1,       761.2,       152.0,         0.0,         0.0,         0.0,         0.0
"Line.L3"               ,   2,      -759.4,      -148.3
"Line.L4"               ,   1,         7.9,         3.9,         0.0,         0.0,         0.0,         0.0
"Line.L4"               ,   2,        -7.9,        -3.9
"Line.L5"               ,   1,        11.8,         5.9,         0.0,         0.0,         0.0,         0.0
"Line.L5"               ,   2,       -11.8,        -5.9
"Line.L6"               ,   1,         7.9,         3.9,         0.0,         0.0,         0.0,         0.0
"Line.L6"               ,   2,        -7.9,        -3.9
"Line.L7"               ,   1,       755.4,       146.3,         0.0,         0.0,         0.0,         0.0
"Line.L7"               ,   2,      -754.3,      -143.9
"Line.L8"               ,   1,         3.9,         2.0,         0.0,         0.0,         0.0,         0.0
"Line.L8"               ,   2,        -3.9,        -2.0
"Line.L9"               ,   1,        24.5,         9.9,         0.0,         0.0,         0.0,         0.0
"Line.L9"               ,   2,       -24.5,        -9.9
"Line.L10"              ,   1,       725.8,       132.0,         0.0,         0.0,         0.0,         0.0
"Line.L10"              ,   2,      -724.1,      -128.6
"Line.L11"              ,   1,        11.8,         5.9,         0.0,         0.0,         0.0,         0.0
"Line.L11"              ,   2,       -11.8,        -5.9
"Line.L12"              ,   1,        19.7,         9.9,         0.0,         0.0,         0.0,         0.0
"Line.L12"              ,   2,       -19.7,        -9.9
"Line.L13"              ,   1,       251.2,       130.5,         0.0,         0.0,         0.0,         0.0
"Line.L13"              ,   2,      -250.5,      -129.1
"Line.L14"              ,   1,         7.9,         3.9,         0.0,         0.0,         0.0,         0.0
"Line.L14"              ,   2,        -7.9,        -3.9
"Line.L15"              ,   1,         3.9,         2.0,         0.0,         0.0,         0.0,         0.0
"Line.L15"              ,   2,        -3.9,        -2.0
"Line.L16"              ,   1,         7.9,         3.9,         0.0,         0.0,         0.0,         0.0
"Line.L16"              ,   2,        -7.9,        -3.9
"Line.L17"              ,   1,         3.9,         2.0,         0.0,         0.0,         0.0,         0.0
"Line.L17"              ,   2,        -3.9,        -2.0
"Line.L18"              ,   1,        15.8,         7.9,         0.0,         0.0,         0.0,         0.0
"Line.L18"              ,   2,       -15.8,        -7.9
"Line.L19"              ,   1,        60.1,        27.7,         0.0,         0.0,         0.0,         0.0
"Line.L19"              ,   2,       -60.1,       -27.6
"Line.L20"              ,   1,         7.9,         3.9,         0.0,         0.0,         0.0,         0.0
"Line.L20"              ,   2,        -7.9,        -3.9
"Line.L21"              ,   1,         7.9,         3.9,         0.0,         0.0,         0.0,         0.0
"Line.L21"              ,   2,        -7.9,        -3.9
"Line.L22"              ,   1,        52.2,        23.7,         0.0,         0.0,         0.0,         0.0
"Line.L22"              ,   2,       -52.2,       -23.7
"Line.L23"              ,   1,         7.9,         3.9,         0.0,         0.0,         0.0,         0.0
"Line.L23"              ,   2,        -7.9,        -3.9
"Line.L24"              ,   1,        44.3,        19.7,         0.0,         0.0,         0.0,         0.0
"Line.L24"              ,   2,       -44.3,       -19.7
"Line.L25"              ,   1,        15.8,         7.9,         0.0,         0.0,         0.0,         0.0
"Line.L25"              ,   2,       -15.8,        -7.9
"Line.L26"              ,   1,        28.5,        11.8,         0.0,         0.0,         0.0,         0.0
"Line.L26"              ,   2,       -28.5,       -11.8
"Line.L27"              ,   1,         7.9,         3.9,         0.0,         0.0,         0.0,         0.0
"Line.L27"              ,   2,        -7.9,        -3.9
"Line.L28"              ,   1,         7.9,         3.9,         0.0,         0.0,         0.0,         0.0
"Line.L28"              ,   2,        -7.9,        -3.9
"Line.L29"              ,   1,         7.9,         3.9,         0.0,         0.0,         0.0,         0.0
"Line.L29"              ,   2,        -7.9,        -3.9
"Line.L30"              ,   1,        15.8,         7.9,         0.0,         0.0,         0.0,         0.0
"Line.L30"              ,   2,       -15.8,        -7.9
"Line.L31"              ,   1,         7.9,         3.9,         0.0,         0.0,         0.0,         0.0
"Line.L31"              ,   2,        -7.9,        -3.9
"Line.L32"              ,   1,         0.0,        -0.0,         0.0,         0.0,         0.0,         0.0
"Line.L32"              ,   2,         0.0,         0.0
"Line.L33"              ,   1,         3.9,         2.0,         0.0,         0.0,         0.0,         0.0
"Line.L33"              ,   2,        -3.9,        -2.0
"Line.L34"              ,   1,        11.8,         5.9,         0.0,         0.0,         0.0,         0.0
"Line.L34"              ,   2,       -11.8,        -5.9
"Line.L35"              ,   1,        15.8,         7.9,         0.0,         0.0,         0.0,         0.0
"Line.L35"              ,   2,       -15.8,        -7.9
"Line.L36"              ,   1,       150.8,        81.4,         0.0,         0.0,         0.0,         0.0
"Line.L36"              ,   2,      -150.7,       -81.3
"Line.L37"              ,   1,         7.9,         3.9,         0.0,         0.0,         0.0,         0.0
"Line.L37"              ,   2,        -7.9,        -3.9
"Line.L38"              ,   1,         7.9,         3.9,         0.0,         0.0,         0.0,         0.0
"Line.L38"              ,   2,        -7.9,        -3.9
"Line.L39"              ,   1,         3.9,         2.0,         0.0,         0.0,         0.0,         0.0
"Line.L39"              ,   2,        -3.9,        -2.0
"Line.L40"              ,   1,         3.9,         2.0,         0.0,         0.0,         0.0,         0.0
"Line.L40"              ,   2,        -3.9,        -2.0
"Line.L41"              ,   1,       146.8,        79.3,         0.0,         0.0,         0.0,         0.0
"Line.L41"              ,   2,      -146.7,       -79.2
"Line.L42"              ,   1,         7.9,         3.9,         0.0,         0.0,         0.0,         0.0
"Line.L42"              ,   2,        -7.9,        -3.9
"Line.L43"              ,   1,       134.8,        73.2,         0.0,         0.0,         0.0,         0.0
"Line.L43"              ,   2,      -134.8,       -73.1
"Line.L44"              ,   1,         7.9,         3.9,         0.0,         0.0,         0.0,         0.0
"Line.L44"              ,   2,        -7.9,        -3.9
"Line.L45"              ,   1,       126.9,        69.2,         0.0,         0.0,         0.0,         0.0
"Line.L45"              ,   2,      -126.8,       -69.1
"Line.L46"              ,   1,         3.9,         2.0,         0.0,         0.0,         0.0,         0.0
"Line.L46"              ,   2,        -3.9,        -2.0
"Line.L47"              ,   1,        66.6,        29.6,         0.0,         0.0,         0.0,         0.0
"Line.L47"              ,   2,       -66.6,       -29.6
"Line.L48"              ,   1,        39.5,        24.7,         0.0,         0.0,         0.0,         0.0
"Line.L48"              ,   2,       -39.5,       -24.7
"Line.L49"              ,   1,        11.8,         5.9,         0.0,         0.0,         0.0,         0.0
"Line.L49"              ,   2,       -11.8,        -5.9
"Line.L50"              ,   1,         3.9,         2.0,         0.0,         0.0,         0.0,         0.0
"Line.L50"              ,   2,        -3.9,        -2.0
"Line.L51"              ,   1,         0.0,        -0.0,         0.0,         0.0,         0.0,         0.0
"Line.L51"              ,   2,         0.0,         0.0
"Line.L52"              ,   1,       444.5,       -17.4,         0.0,         0.0,         0.0,         0.0
"Line.L52"              ,   2,      -444.1,        18.2
"Line.L53"              ,   1,       436.2,       -22.2,         0.0,         0.0,         0.0,         0.0
"Line.L53"              ,   2,      -435.9,        22.7
"Line.L54"              ,   1,         7.9,         3.9,         0.0,         0.0,         0.0,         0.0
"Line.L54"              ,   2,        -7.9,        -3.9
"Line.L55"              ,   1,       428.0,       -26.6,         0.0,         0.0,         0.0,         0.0
"Line.L55"              ,   2,      -427.4,        28.0
"Line.L56"              ,   1,         3.9,         2.0,         0.0,         0.0,         0.0,         0.0
"Line.L56"              ,   2,        -3.9,        -2.0
"Line.L57"              ,   1,        10.3,         3.9,         0.0,         0.0,         0.0,         0.0
"Line.L57"              ,   2,       -10.3,        -3.9
"Line.L58"              ,   1,       417.1,       -31.9,         0.0,         0.0,         0.0,         0.0
"Line.L58"              ,   2,      -415.7,        34.7
"Line.L59"              ,   1,         3.9,         2.0,         0.0,         0.0,         0.0,         0.0
"Line.L59"              ,   2,        -3.9,        -2.0
"Line.L60"              ,   1,         0.0,        -0.0,         0.0,         0.0,         0.0,         0.0
"Line.L60"              ,   2,        -0.0,         0.0
"Line.L61"              ,   1,        90.1,        41.5,         0.0,         0.0,         0.0,         0.0
"Line.L61"              ,   2,       -90.0,       -41.4
"Line.L62"              ,   1,        82.1,        37.5,         0.0,         0.0,         0.0,         0.0
"Line.L62"              ,   2,       -82.1,       -37.5
"Line.L63"              ,   1,        74.2,        33.5,         0.0,         0.0,         0.0,         0.0
"Line.L63"              ,   2,       -74.1,       -33.5
"Line.L64"              ,   1,        59.3,        26.6,         0.0,         0.0,         0.0,         0.0
"Line.L64"              ,   2,       -59.2,       -26.6
"Line.L65"              ,   1,        14.8,         6.9,         0.0,         0.0,         0.0,         0.0
"Line.L65"              ,   2,       -14.8,        -6.9
"Line.L66"              ,   1,        23.7,        11.9,         0.0,         0.0,         0.0,         0.0
"Line.L66"              ,   2,       -23.7,       -11.8
"Line.L67"              ,   1,       205.8,      -134.4,         0.0,         0.0,         0.0,         0.0
"Line.L67"              ,   2,      -205.6,       134.8
"Line.L68"              ,   1,        91.7,        43.5,         0.0,         0.0,         0.0,         0.0
"Line.L68"              ,   2,       -91.7,       -43.5
"Line.L69"              ,   1,        19.7,         9.9,         0.0,         0.0,         0.0,         0.0
"Line.L69"              ,   2,       -19.7,        -9.9
"Line.L70"              ,   1,        11.8,         5.9,         0.0,         0.0,         0.0,         0.0
"Line.L70"              ,   2,       -11.8,        -5.9
"Line.L71"              ,   1,         7.9,         3.9,         0.0,         0.0,         0.0,         0.0
"Line.L71"              ,   2,        -7.9,        -3.9
"Line.L72"              ,   1,        23.7,        11.9,         0.0,         0.0,         0.0,         0.0
"Line.L72"              ,   2,       -23.7,       -11.8
"Line.L73"              ,   1,       181.9,      -146.6,         0.0,         0.0,         0.0,         0.0
"Line.L73"              ,   2,      -181.8,       146.8
"Line.L74"              ,   1,        15.8,         7.9,         0.0,         0.0,         0.0,         0.0
"Line.L74"              ,   2,       -15.8,        -7.9
"Line.L75"              ,   1,         7.9,         3.9,         0.0,         0.0,         0.0,         0.0
"Line.L75"              ,   2,        -7.9,        -3.9
"Line.L76"              ,   1,        47.9,      -162.0,         0.0,         0.0,         0.0,         0.0
"Line.L76"              ,   2,       -47.8,       162.2
"Line.L77"              ,   1,        56.2,       -20.4,         0.0,         0.0,         0.0,         0.0
"Line.L77"              ,   2,       -56.1,        20.5
"Line.L78"              ,   1,        39.9,      -166.2,         0.0,         0.0,         0.0,         0.0
"Line.L78"              ,   2,       -39.9,       166.2
"Line.L79"              ,   1,         7.9,         3.9,         0.0,         0.0,         0.0,         0.0
"Line.L79"              ,   2,        -7.9,        -3.9
"Line.L80"              ,   1,        32.0,      -170.2,         0.0,         0.0,         0.0,         0.0
"Line.L80"              ,   2,       -31.8,       170.5
"Line.L81"              ,   1,        23.9,      -174.4,         0.0,         0.0,         0.0,         0.0
"Line.L81"              ,   2,       -23.9,       174.6
"Line.L82"              ,   1,        12.0,      -180.5,         0.0,         0.0,         0.0,         0.0
"Line.L82"              ,   2,       -11.9,       180.7
"Line.L83"              ,   1,        11.8,         5.9,         0.0,         0.0,         0.0,         0.0
"Line.L83"              ,   2,       -11.8,        -5.9
"Line.L84"              ,   1,         4.0,      -184.6,         0.0,         0.0,         0.0,         0.0
"Line.L84"              ,   2,        -3.9,       184.8
"Line.L85"              ,   1,         7.9,         3.9,         0.0,         0.0,         0.0,         0.0
"Line.L85"              ,   2,        -7.9,        -3.9
"Line.L86"              ,   1,        52.2,       -22.4,         0.0,         0.0,         0.0,         0.0
"Line.L86"              ,   2,       -52.2,        22.5
"Line.L87"              ,   1,         7.9,       -11.4,         0.0,         0.0,         0.0,         0.0
"Line.L87"              ,   2,        -7.9,        11.4
"Line.L88"              ,   1,        31.6,       -15.0,         0.0,         0.0,         0.0,         0.0
"Line.L88"              ,   2,       -31.6,        15.0
"Line.L89"              ,   1,         7.9,       -11.4,         0.0,         0.0,         0.0,         0.0
"Line.L89"              ,   2,        -7.9,        11.4
"Line.L90"              ,   1,        23.7,        -3.5,         0.0,         0.0,         0.0,         0.0
"Line.L90"              ,   2,       -23.7,         3.5
"Line.L91"              ,   1,         7.9,       -11.4,         0.0,         0.0,         0.0,         0.0
"Line.L91"              ,   2,        -7.9,        11.4
"Line.L92"              ,   1,        15.8,         7.9,         0.0,         0.0,         0.0,         0.0
"Line.L92"              ,   2,       -15.8,        -7.9
"Line.L93"              ,   1,         7.9,         3.9,         0.0,         0.0,         0.0,         0.0
"Line.L93"              ,   2,        -7.9,        -3.9
"Line.L94"              ,   1,         7.9,         3.9,         0.0,         0.0,         0.0,         0.0
"Line.L94"              ,   2,        -7.9,        -3.9
"Line.L95"              ,   1,         3.9,         2.0,         0.0,         0.0,         0.0,         0.0
"Line.L95"              ,   2,        -3.9,        -2.0
"Line.L96"              ,   1,        28.5,        11.8,         0.0,         0.0,         0.0,         0.0
"Line.L96"              ,   2,       -28.5,       -11.8
"Line.L97"              ,   1,        20.6,         7.9,         0.0,         0.0,         0.0,         0.0
"Line.L97"              ,   2,       -20.6,        -7.9
"Line.L98"              ,   1,        12.7,         3.9,         0.0,         0.0,         0.0,         0.0
"Line.L98"              ,   2,       -12.7,        -3.9
"Line.L99"              ,   1,         0.0,        -0.0,         0.0,         0.0,         0.0,         0.0
"Line.L99"              ,   2,         0.0,         0.0
"Line.L118"             ,   1,        63.2,        31.6,         0.0,         0.0,         0.0,         0.0
"Line.L118"             ,   2,       -63.2,       -31.6
"Line.L100"             ,   1,        19.7,         9.9,         0.0,         0.0,         0.0,         0.0
"Line.L100"             ,   2,       -19.7,        -9.9
"Line.L101"             ,   1,        43.5,        21.7,         0.0,         0.0,         0.0,         0.0
"Line.L101"             ,   2,       -43.5,       -21.7
"Line.L102"             ,   1,        15.8,         7.9,         0.0,         0.0,         0.0,         0.0
"Line.L102"             ,   2,       -15.8,        -7.9
"Line.L103"             ,   1,         7.9,         3.9,         0.0,         0.0,         0.0,         0.0
"Line.L103"             ,   2,        -7.9,        -3.9
"Line.L104"             ,   1,        15.8,         7.9,         0.0,         0.0,         0.0,         0.0
"Line.L104"             ,   2,       -15.8,        -7.9
"Line.L105"             ,   1,        27.7,        13.8,         0.0,         0.0,         0.0,         0.0
"Line.L105"             ,   2,       -27.7,       -13.8
"Line.L106"             ,   1,         7.9,         3.9,         0.0,         0.0,         0.0,         0.0
"Line.L106"             ,   2,        -7.9,        -3.9
"Line.L107"             ,   1,        27.7,        13.8,         0.0,         0.0,         0.0,         0.0
"Line.L107"             ,   2,       -27.6,       -13.8
"Line.L108"             ,   1,         0.0,        -0.0,         0.0,         0.0,         0.0,         0.0
"Line.L108"             ,   2,         0.0,         0.0
"Line.L109"             ,   1,        19.7,         9.9,         0.0,         0.0,         0.0,         0.0
"Line.L109"             ,   2,       -19.7,        -9.9
"Line.L110"             ,   1,         3.9,         2.0,         0.0,         0.0,         0.0,         0.0
"Line.L110"             ,   2,        -3.9,        -2.0
"Line.L111"             ,   1,        15.8,         7.9,         0.0,         0.0,         0.0,         0.0
"Line.L111"             ,   2,       -15.8,        -7.9
"Line.L112"             ,   1,        11.8,         5.9,         0.0,         0.0,         0.0,         0.0
"Line.L112"             ,   2,       -11.8,        -5.9
"Line.L113"             ,   1,         3.9,         2.0,         0.0,         0.0,         0.0,         0.0
"Line.L113"             ,   2,        -3.9,        -2.0
"Line.L114"             ,   1,       174.6,        93.6,         0.0,         0.0,         0.0,         0.0
"Line.L114"             ,   2,      -174.5,       -93.3
"Line.L116"             ,   1,       453.2,       -11.8,         0.0,         0.0,         0.0,         0.0
"Line.L116"             ,   2,      -452.4,        13.5
"Line.L117"             ,   1,       321.7,       -78.1,         0.0,         0.0,         0.0,         0.0
"Line.L117"             ,   2,      -321.3,        79.0
"Line.SW1"              ,   1,       795.4,       173.2,         0.0,         0.0,         0.0,         0.0
"Line.SW1"              ,   2,      -795.4,      -173.2
"Line.SW2"              ,   1,       453.2,       -11.8,         0.0,         0.0,         0.0,         0.0
"Line.SW2"              ,   2,      -453.2,        11.8
"Line.SW3"              ,   1,       174.6,        93.6,         0.0,         0.0,         0.0,         0.0
"Line.SW3"              ,   2,      -174.6,       -93.6
