Element, Terminal, P(kW), Q(kvar),  P_Normal, Q_Normal, P_Emergency, Q_Emergency
"Line.L115"             ,   1,       662.7,       289.2,         0.0,         0.0,         0.0,         0.0
"Line.L115"             ,   2,      -660.6,      -284.9
"Line.L1"               ,   1,         5.2,         2.6,         0.0,         0.0,         0.0,         0.0
"Line.L1"               ,   2,        -5.2,        -2.6
"Line.L2"               ,   1,        26.1,        13.1,         0.0,         0.0,         0.0,         0.0
"Line.L2"               ,   2,       -26.1,       -13.1
"Line.L3"               ,   1,       618.8,       264.0,         0.0,         0.0,         0.0,         0.0
"Line.L3"               ,   2,      -617.4,      -261.2
"Line.L4"               ,   1,        10.4,         5.2,         0.0,         0.0,         0.0,         0.0
"Line.L4"               ,   2,       -10.4,        -5.2
"Line.L5"               ,   1,        15.7,         7.8,         0.0,         0.0,         0.0,         0.0
"Line.L5"               ,   2,       -15.7,        -7.8
"Line.L6"               ,   1,        10.4,         5.2,         0.0,         0.0,         0.0,         0.0
"Line.L6"               ,   2,       -10.4,        -5.2
"Line.L7"               ,   1,       612.2,       258.6,         0.0,         0.0,         0.0,         0.0
"Line.L7"               ,   2,      -611.3,      -256.8
"Line.L8"               ,   1,         5.2,         2.6,         0.0,         0.0,         0.0,         0.0
"Line.L8"               ,   2,        -5.2,        -2.6
"Line.L9"               ,   1,        12.8,        13.1,         0.0,         0.0,         0.0,         0.0
"Line.L9"               ,   2,       -12.8,       -13.1
"Line.L10"              ,   1,       593.3,       241.1,         0.0,         0.0,         0.0,         0.0
"Line.L10"              ,   2,      -592.1,      -238.6
"Line.L11"              ,   1,        15.7,         7.8,         0.0,         0.0,         0.0,         0.0
"Line.L11"              ,   2,       -15.7,        -7.8
"Line.L12"              ,   1,        26.1,        13.1,         0.0,         0.0,         0.0,         0.0
"Line.L12"              ,   2,       -26.1,       -13.1
"Line.L13"              ,   1,       208.7,       171.6,         0.0,         0.0,         0.0,         0.0
"Line.L13"              ,   2,      -208.1,      -170.3
"Line.L14"              ,   1,        10.4,         5.2,         0.0,         0.0,         0.0,         0.0
"Line.L14"              ,   2,       -10.4,        -5.2
"Line.L15"              ,   1,         5.2,         2.6,         0.0,         0.0,         0.0,         0.0
"Line.L15"              ,   2,        -5.2,        -2.6
"Line.L16"              ,   1,        10.4,         5.2,         0.0,         0.0,         0.0,         0.0
"Line.L16"              ,   2,       -10.4,        -5.2
"Line.L17"              ,   1,         5.2,         2.6,         0.0,         0.0,         0.0,         0.0
"Line.L17"              ,   2,        -5.2,        -2.6
"Line.L18"              ,   1,        20.9,        10.4,         0.0,         0.0,         0.0,         0.0
"Line.L18"              ,   2,       -20.9,       -10.4
"Line.L19"              ,   1,        59.8,        36.6,         0.0,         0.0,         0.0,         0.0
"Line.L19"              ,   2,       -59.8,       -36.6
"Line.L20"              ,   1,        10.4,         5.2,         0.0,         0.0,         0.0,         0.0
"Line.L20"              ,   2,       -10.4,        -5.2
"Line.L21"              ,   1,        10.4,         5.2,         0.0,         0.0,         0.0,         0.0
"Line.L21"              ,   2,       -10.4,        -5.2
"Line.L22"              ,   1,        49.3,        31.3,         0.0,         0.0,         0.0,         0.0
"Line.L22"              ,   2,       -49.3,       -31.3
"Line.L23"              ,   1,        10.4,         5.2,         0.0,         0.0,         0.0,         0.0
"Line.L23"              ,   2,       -10.4,        -5.2
"Line.L24"              ,   1,        38.9,        26.1,         0.0,         0.0,         0.0,         0.0
"Line.L24"              ,   2,       -38.9,       -26.1
"Line.L25"              ,   1,        20.9,        10.4,         0.0,         0.0,         0.0,         0.0
"Line.L25"              ,   2,       -20.9,       -10.4
"Line.L26"              ,   1,        18.0,        15.7,         0.0,         0.0,         0.0,         0.0
"Line.L26"              ,   2,       -18.0,       -15.7
"Line.L27"              ,   1,        10.4,         5.2,         0.0,         0.0,         0.0,         0.0
"Line.L27"              ,   2,       -10.4,        -5.2
"Line.L28"              ,   1,        10.4,         5.2,         0.0,         0.0,         0.0,         0.0
"Line.L28"              ,   2,       -10.4,        -5.2
"Line.L29"              ,   1,        10.4,         5.2,         0.0,         0.0,         0.0,         0.0
"Line.L29"              ,   2,       -10.4,        -5.2
"Line.L30"              ,   1,        20.9,        10.4,         0.0,         0.0,         0.0,         0.0
"Line.L30"              ,   2,       -20.9,       -10.4
"Line.L31"              ,   1,        10.4,         5.2,         0.0,         0.0,         0.0,         0.0
"Line.L31"              ,   2,       -10.4,        -5.2
"Line.L32"              ,   1,         0.0,        -0.0,         0.0,         0.0,         0.0,         0.0
"Line.L32"              ,   2,        -0.0,         0.0
"Line.L33"              ,   1,         5.2,         2.6,         0.0,         0.0,         0.0,         0.0
"Line.L33"              ,   2,        -5.2,        -2.6
"Line.L34"              ,   1,        15.7,         7.8,         0.0,         0.0,         0.0,         0.0
"Line.L34"              ,   2,       -15.7,        -7.8
"Line.L35"              ,   1,        20.9,        10.4,         0.0,         0.0,         0.0,         0.0
"Line.L35"              ,   2,       -20.9,       -10.4
"Line.L36"              ,   1,        95.9,       107.4,         0.0,         0.0,         0.0,         0.0
"Line.L36"              ,   2,       -95.9,      -107.3
"Line.L37"              ,   1,        10.4,         5.2,         0.0,         0.0,         0.0,         0.0
"Line.L37"              ,   2,       -10.4,        -5.2
"Line.L38"              ,   1,        10.4,         5.2,         0.0,         0.0,         0.0,         0.0
"Line.L38"              ,   2,       -10.4,        -5.2
"Line.L39"              ,   1,         5.2,         2.6,         0.0,         0.0,         0.0,         0.0
"Line.L39"              ,   2,        -5.2,        -2.6
"Line.L40"              ,   1,         5.2,         2.6,         0.0,         0.0,         0.0,         0.0
"Line.L40"              ,   2,        -5.2,        -2.6
"Line.L41"              ,   1,        90.6,       104.6,         0.0,         0.0,         0.0,         0.0
"Line.L41"              ,   2,       -90.6,      -104.5
"Line.L42"              ,   1,        10.4,         5.2,         0.0,         0.0,         0.0,         0.0
"Line.L42"              ,   2,       -10.4,        -5.2
"Line.L43"              ,   1,        74.9,        96.7,         0.0,         0.0,         0.0,         0.0
"Line.L43"              ,   2,       -74.9,       -96.7
"Line.L44"              ,   1,        10.4,         5.2,         0.0,         0.0,         0.0,         0.0
"Line.L44"              ,   2,       -10.4,        -5.2
"Line.L45"              ,   1,        64.5,        91.4,         0.0,         0.0,         0.0,         0.0
"Line.L45"              ,   2,       -64.4,       -91.4
"Line.L46"              ,   1,         5.2,         2.6,         0.0,         0.0,         0.0,         0.0
"Line.L46"              ,   2,        -5.2,        -2.6
"Line.L47"              ,   1,       -15.2,        39.2,         0.0,         0.0,         0.0,         0.0
"Line.L47"              ,   2,        15.2,       -39.1
"Line.L48"              ,   1,        52.2,        32.6,         0.0,         0.0,         0.0,         0.0
"Line.L48"              ,   2,       -52.2,       -32.6
"Line.L49"              ,   1,        15.7,         7.8,         0.0,         0.0,         0.0,         0.0
"Line.L49"              ,   2,       -15.7,        -7.8
"Line.L50"              ,   1,         5.2,         2.6,         0.0,         0.0,         0.0,         0.0
"Line.L50"              ,   2,        -5.2,        -2.6
"Line.L51"              ,   1,         0.0,        -0.0,         0.0,         0.0,         0.0,         0.0
"Line.L51"              ,   2,         0.0,         0.0
"Line.L52"              ,   1,       346.3,        47.6,         0.0,         0.0,         0.0,         0.0
"Line.L52"              ,   2,      -346.1,       -47.1
"Line.L53"              ,   1,       335.6,        41.9,         0.0,         0.0,         0.0,         0.0
"Line.L53"              ,   2,      -335.5,       -41.6
"Line.L54"              ,   1,        10.4,         5.2,         0.0,         0.0,         0.0,         0.0
"Line.L54"              ,   2,       -10.4,        -5.2
"Line.L55"              ,   1,       325.0,        36.4,         0.0,         0.0,         0.0,         0.0
"Line.L55"              ,   2,      -324.7,       -35.6
"Line.L56"              ,   1,         5.2,         2.6,         0.0,         0.0,         0.0,         0.0
"Line.L56"              ,   2,        -5.2,        -2.6
"Line.L57"              ,   1,         3.8,         5.2,         0.0,         0.0,         0.0,         0.0
"Line.L57"              ,   2,        -3.8,        -5.2
"Line.L58"              ,   1,       320.9,        30.4,         0.0,         0.0,         0.0,         0.0
"Line.L58"              ,   2,      -320.1,       -28.7
"Line.L59"              ,   1,         5.2,         2.6,         0.0,         0.0,         0.0,         0.0
"Line.L59"              ,   2,        -5.2,        -2.6
"Line.L60"              ,   1,         0.0,        -0.0,         0.0,         0.0,         0.0,         0.0
"Line.L60"              ,   2,        -0.0,         0.0
"Line.L61"              ,   1,        50.0,        54.8,         0.0,         0.0,         0.0,         0.0
"Line.L61"              ,   2,       -50.0,       -54.8
"Line.L62"              ,   1,        39.5,        49.5,         0.0,         0.0,         0.0,         0.0
"Line.L62"              ,   2,       -39.5,       -49.5
"Line.L63"              ,   1,        29.1,        44.3,         0.0,         0.0,         0.0,         0.0
"Line.L63"              ,   2,       -29.0,       -44.3
"Line.L64"              ,   1,         9.5,        35.2,         0.0,         0.0,         0.0,         0.0
"Line.L64"              ,   2,        -9.5,       -35.2
"Line.L65"              ,   1,        19.6,         9.1,         0.0,         0.0,         0.0,         0.0
"Line.L65"              ,   2,       -19.6,        -9.1
"Line.L66"              ,   1,        31.3,        15.7,         0.0,         0.0,         0.0,         0.0
"Line.L66"              ,   2,       -31.3,       -15.7
"Line.L67"              ,   1,       131.5,      -102.5,         0.0,         0.0,         0.0,         0.0
"Line.L67"              ,   2,      -131.4,       102.7
"Line.L68"              ,   1,       101.7,        57.6,         0.0,         0.0,         0.0,         0.0
"Line.L68"              ,   2,      -101.6,       -57.6
"Line.L69"              ,   1,        26.1,        13.1,         0.0,         0.0,         0.0,         0.0
"Line.L69"              ,   2,       -26.1,       -13.1
"Line.L70"              ,   1,        15.7,         7.8,         0.0,         0.0,         0.0,         0.0
"Line.L70"              ,   2,       -15.7,        -7.8
"Line.L71"              ,   1,        10.4,         5.2,         0.0,         0.0,         0.0,         0.0
"Line.L71"              ,   2,       -10.4,        -5.2
"Line.L72"              ,   1,        31.3,        15.7,         0.0,         0.0,         0.0,         0.0
"Line.L72"              ,   2,       -31.3,       -15.7
"Line.L73"              ,   1,       100.1,      -118.4,         0.0,         0.0,         0.0,         0.0
"Line.L73"              ,   2,      -100.0,       118.5
"Line.L74"              ,   1,        20.9,        10.4,         0.0,         0.0,         0.0,         0.0
"Line.L74"              ,   2,       -20.9,       -10.4
"Line.L75"              ,   1,        10.4,         5.2,         0.0,         0.0,         0.0,         0.0
"Line.L75"              ,   2,       -10.4,        -5.2
"Line.L76"              ,   1,        63.2,      -153.5,         0.0,         0.0,         0.0,         0.0
"Line.L76"              ,   2,       -63.1,       153.8
"Line.L77"              ,   1,        54.6,       -11.9,         0.0,         0.0,         0.0,         0.0
"Line.L77"              ,   2,       -54.6,        12.0
"Line.L78"              ,   1,        52.6,      -159.0,         0.0,         0.0,         0.0,         0.0
"Line.L78"              ,   2,       -52.6,       159.0
"Line.L79"              ,   1,        10.4,         5.2,         0.0,         0.0,         0.0,         0.0
"Line.L79"              ,   2,       -10.4,        -5.2
"Line.L80"              ,   1,        42.2,      -164.3,         0.0,         0.0,         0.0,         0.0
"Line.L80"              ,   2,       -42.0,       164.6
"Line.L81"              ,   1,        31.6,      -169.8,         0.0,         0.0,         0.0,         0.0
"Line.L81"              ,   2,       -31.5,       169.9
"Line.L82"              ,   1,        15.8,      -177.7,         0.0,         0.0,         0.0,         0.0
"Line.L82"              ,   2,       -15.8,       177.9
"Line.L83"              ,   1,        15.7,         7.8,         0.0,         0.0,         0.0,         0.0
"Line.L83"              ,   2,       -15.7,        -7.8
"Line.L84"              ,   1,         5.3,      -183.1,         0.0,         0.0,         0.0,         0.0
"Line.L84"              ,   2,        -5.2,       183.3
"Line.L85"              ,   1,        10.4,         5.2,         0.0,         0.0,         0.0,         0.0
"Line.L85"              ,   2,       -10.4,        -5.2
"Line.L86"              ,   1,        49.3,       -14.6,         0.0,         0.0,         0.0,         0.0
"Line.L86"              ,   2,       -49.3,        14.6
"Line.L87"              ,   1,        10.4,       -10.1,         0.0,         0.0,         0.0,         0.0
"Line.L87"              ,   2,       -10.4,        10.1
"Line.L88"              ,   1,        41.8,        -9.7,         0.0,         0.0,         0.0,         0.0
"Line.L88"              ,   2,       -41.8,         9.7
"Line.L89"              ,   1,        10.4,       -10.1,         0.0,         0.0,         0.0,         0.0
"Line.L89"              ,   2,       -10.4,        10.1
"Line.L90"              ,   1,        31.3,         0.4,         0.0,         0.0,         0.0,         0.0
"Line.L90"              ,   2,       -31.3,        -0.4
"Line.L91"              ,   1,        10.4,       -10.1,         0.0,         0.0,         0.0,         0.0
"Line.L91"              ,   2,       -10.4,        10.1
"Line.L92"              ,   1,        20.9,        10.4,         0.0,         0.0,         0.0,         0.0
"Line.L92"              ,   2,       -20.9,       -10.4
"Line.L93"              ,   1,        10.4,         5.2,         0.0,         0.0,         0.0,         0.0
"Line.L93"              ,   2,       -10.4,        -5.2
"Line.L94"              ,   1,        10.4,         5.2,         0.0,         0.0,         0.0,         0.0
"Line.L94"              ,   2,       -10.4,        -5.2
"Line.L95"              ,   1,         5.2,         2.6,         0.0,         0.0,         0.0,         0.0
"Line.L95"              ,   2,        -5.2,        -2.6
"Line.L96"              ,   1,        18.0,        15.7,         0.0,         0.0,         0.0,         0.0
"Line.L96"              ,   2,       -18.0,       -15.7
"Line.L97"              ,   1,         7.5,        10.4,         0.0,         0.0,         0.0,         0.0
"Line.L97"              ,   2,        -7.5,       -10.4
"Line.L98"              ,   1,        -2.9,         5.2,         0.0,         0.0,         0.0,         0.0
"Line.L98"              ,   2,         2.9,        -5.2
"Line.L99"              ,   1,         0.0,        -0.0,         0.0,         0.0,         0.0,         0.0
"Line.L99"              ,   2,         0.0,         0.0
"Line.L118"             ,   1,        83.7,        41.9,         0.0,         0.0,         0.0,         0.0
"Line.L118"             ,   2,       -83.6,       -41.9
"Line.L100"             ,   1,        26.1,        13.1,         0.0,         0.0,         0.0,         0.0
"Line.L100"             ,   2,       -26.1,       -13.1
"Line.L101"             ,   1,        57.5,        28.8,         0.0,         0.0,         0.0,         0.0
"Line.L101"             ,   2,       -57.5,       -28.8
"Line.L102"             ,   1,        20.9,        10.4,         0.0,         0.0,         0.0,         0.0
"Line.L102"             ,   2,       -20.9,       -10.4
"Line.L103"             ,   1,        10.4,         5.2,         0.0,         0.0,         0.0,         0.0
"Line.L103"             ,   2,       -10.4,        -5.2
"Line.L104"             ,   1,        20.9,        10.4,         0.0,         0.0,         0.0,         0.0
"Line.L104"             ,   2,       -20.9,       -10.4
"Line.L105"             ,   1,        36.6,        18.3,         0.0,         0.0,         0.0,         0.0
"Line.L105"             ,   2,       -36.6,       -18.3
"Line.L106"             ,   1,        10.4,         5.2,         0.0,         0.0,         0.0,         0.0
"Line.L106"             ,   2,       -10.4,        -5.2
"Line.L107"             ,   1,        36.6,        18.3,         0.0,         0.0,         0.0,         0.0
"Line.L107"             ,   2,       -36.6,       -18.3
"Line.L108"             ,   1,         0.0,        -0.0,         0.0,         0.0,         0.0,         0.0
"Line.L108"             ,   2,         0.0,         0.0
"Line.L109"             ,   1,        26.1,        13.1,         0.0,         0.0,         0.0,         0.0
"Line.L109"             ,   2,       -26.1,       -13.1
"Line.L110"             ,   1,         5.2,         2.6,         0.0,         0.0,         0.0,         0.0
"Line.L110"             ,   2,        -5.2,        -2.6
"Line.L111"             ,   1,        20.9,        10.4,         0.0,         0.0,         0.0,         0.0
"Line.L111"             ,   2,       -20.9,       -10.4
"Line.L112"             ,   1,        15.7,         7.8,         0.0,         0.0,         0.0,         0.0
"Line.L112"             ,   2,       -15.7,        -7.8
"Line.L113"             ,   1,         5.2,         2.6,         0.0,         0.0,         0.0,         0.0
"Line.L113"             ,   2,        -5.2,        -2.6
"Line.L114"             ,   1,       127.4,       123.3,         0.0,         0.0,         0.0,         0.0
"Line.L114"             ,   2,      -127.2,      -123.0
"Line.L116"             ,   1,       357.3,        54.0,         0.0,         0.0,         0.0,         0.0
"Line.L116"             ,   2,      -356.8,       -52.9
"Line.L117"             ,   1,       264.8,       -28.6,         0.0,         0.0,         0.0,         0.0
"Line.L117"             ,   2,      -264.6,        29.2
"Line.SW1"              ,   1,       662.7,       289.2,         0.0,         0.0,         0.0,         0.0
"Line.SW1"              ,   2,      -662.7,      -289.2
"Line.SW2"              ,   1,       357.3,        54.0,         0.0,         0.0,         0.0,         0.0
"Line.SW2"              ,   2,      -357.3,       -54.0
"Line.SW3"              ,   1,       127.4,       123.3,         0.0,         0.0,         0.0,         0.0
"Line.SW3"              ,   2,      -127.4,      -123.3
