Element, Terminal, P(kW), Q(kvar),  P_Normal, Q_Normal, P_Emergency, Q_Emergency
"Line.L115"             ,   1,       584.6,       148.0,         0.0,         0.0,         0.0,         0.0
"Line.L115"             ,   2,      -583.2,      -145.0
"Line.L1"               ,   1,         4.0,         2.0,         0.0,         0.0,         0.0,         0.0
"Line.L1"               ,   2,        -4.0,        -2.0
"Line.L2"               ,   1,        19.9,        10.0,         0.0,         0.0,         0.0,         0.0
"Line.L2"               ,   2,       -19.9,       -10.0
"Line.L3"               ,   1,       551.3,       129.0,         0.0,         0.0,         0.0,         0.0
"Line.L3"               ,   2,      -550.3,      -127.1
"Line.L4"               ,   1,         8.0,         4.0,         0.0,         0.0,         0.0,         0.0
"Line.L4"               ,   2,        -8.0,        -4.0
"Line.L5"               ,   1,        12.0,         6.0,         0.0,         0.0,         0.0,         0.0
"Line.L5"               ,   2,       -12.0,        -6.0
"Line.L6"               ,   1,         8.0,         4.0,         0.0,         0.0,         0.0,         0.0
"Line.L6"               ,   2,        -8.0,        -4.0
"Line.L7"               ,   1,       546.3,       125.1,         0.0,         0.0,         0.0,         0.0
"Line.L7"               ,   2,      -545.7,      -123.8
"Line.L8"               ,   1,         4.0,         2.0,         0.0,         0.0,         0.0,         0.0
"Line.L8"               ,   2,        -4.0,        -2.0
"Line.L9"               ,   1,        13.8,        10.0,         0.0,         0.0,         0.0,         0.0
"Line.L9"               ,   2,       -13.8,       -10.0
"Line.L10"              ,   1,       527.9,       111.8,         0.0,         0.0,         0.0,         0.0
"Line.L10"              ,   2,      -527.0,      -110.0
"Line.L11"              ,   1,        12.0,         6.0,         0.0,         0.0,         0.0,         0.0
"Line.L11"              ,   2,       -12.0,        -6.0
"Line.L12"              ,   1,        19.9,        10.0,         0.0,         0.0,         0.0,         0.0
"Line.L12"              ,   2,       -19.9,       -10.0
"Line.L13"              ,   1,       184.6,       130.9,         0.0,         0.0,         0.0,         0.0
"Line.L13"              ,   2,      -184.2,      -130.0
"Line.L14"              ,   1,         8.0,         4.0,         0.0,         0.0,         0.0,         0.0
"Line.L14"              ,   2,        -8.0,        -4.0
"Line.L15"              ,   1,         4.0,         2.0,         0.0,         0.0,         0.0,         0.0
"Line.L15"              ,   2,        -4.0,        -2.0
"Line.L16"              ,   1,         8.0,         4.0,         0.0,         0.0,         0.0,         0.0
"Line.L16"              ,   2,        -8.0,        -4.0
"Line.L17"              ,   1,         4.0,         2.0,         0.0,         0.0,         0.0,         0.0
"Line.L17"              ,   2,        -4.0,        -2.0
"Line.L18"              ,   1,        16.0,         8.0,         0.0,         0.0,         0.0,         0.0
"Line.L18"              ,   2,       -15.9,        -8.0
"Line.L19"              ,   1,        49.7,        27.9,         0.0,         0.0,         0.0,         0.0
"Line.L19"              ,   2,       -49.7,       -27.9
"Line.L20"              ,   1,         8.0,         4.0,         0.0,         0.0,         0.0,         0.0
"Line.L20"              ,   2,        -8.0,        -4.0
"Line.L21"              ,   1,         8.0,         4.0,         0.0,         0.0,         0.0,         0.0
"Line.L21"              ,   2,        -8.0,        -4.0
"Line.L22"              ,   1,        41.7,        23.9,         0.0,         0.0,         0.0,         0.0
"Line.L22"              ,   2,       -41.7,       -23.9
"Line.L23"              ,   1,         8.0,         4.0,         0.0,         0.0,         0.0,         0.0
"Line.L23"              ,   2,        -8.0,        -4.0
"Line.L24"              ,   1,        33.8,        19.9,         0.0,         0.0,         0.0,         0.0
"Line.L24"              ,   2,       -33.7,       -19.9
"Line.L25"              ,   1,        16.0,         8.0,         0.0,         0.0,         0.0,         0.0
"Line.L25"              ,   2,       -16.0,        -8.0
"Line.L26"              ,   1,        17.8,        12.0,         0.0,         0.0,         0.0,         0.0
"Line.L26"              ,   2,       -17.8,       -12.0
"Line.L27"              ,   1,         8.0,         4.0,         0.0,         0.0,         0.0,         0.0
"Line.L27"              ,   2,        -8.0,        -4.0
"Line.L28"              ,   1,         8.0,         4.0,         0.0,         0.0,         0.0,         0.0
"Line.L28"              ,   2,        -8.0,        -4.0
"Line.L29"              ,   1,         8.0,         4.0,         0.0,         0.0,         0.0,         0.0
"Line.L29"              ,   2,        -8.0,        -4.0
"Line.L30"              ,   1,        15.9,         8.0,         0.0,         0.0,         0.0,         0.0
"Line.L30"              ,   2,       -15.9,        -8.0
"Line.L31"              ,   1,         8.0,         4.0,         0.0,         0.0,         0.0,         0.0
"Line.L31"              ,   2,        -8.0,        -4.0
"Line.L32"              ,   1,         0.0,        -0.0,         0.0,         0.0,         0.0,         0.0
"Line.L32"              ,   2,        -0.0,        -0.0
"Line.L33"              ,   1,         4.0,         2.0,         0.0,         0.0,         0.0,         0.0
"Line.L33"              ,   2,        -4.0,        -2.0
"Line.L34"              ,   1,        12.0,         6.0,         0.0,         0.0,         0.0,         0.0
"Line.L34"              ,   2,       -12.0,        -6.0
"Line.L35"              ,   1,        16.0,         8.0,         0.0,         0.0,         0.0,         0.0
"Line.L35"              ,   2,       -16.0,        -8.0
"Line.L36"              ,   1,        94.5,        82.0,         0.0,         0.0,         0.0,         0.0
"Line.L36"              ,   2,       -94.5,       -81.9
"Line.L37"              ,   1,         8.0,         4.0,         0.0,         0.0,         0.0,         0.0
"Line.L37"              ,   2,        -8.0,        -4.0
"Line.L38"              ,   1,         8.0,         4.0,         0.0,         0.0,         0.0,         0.0
"Line.L38"              ,   2,        -8.0,        -4.0
"Line.L39"              ,   1,         4.0,         2.0,         0.0,         0.0,         0.0,         0.0
"Line.L39"              ,   2,        -4.0,        -2.0
"Line.L40"              ,   1,         4.0,         2.0,         0.0,         0.0,         0.0,         0.0
"Line.L40"              ,   2,        -4.0,        -2.0
"Line.L41"              ,   1,        90.5,        79.9,         0.0,         0.0,         0.0,         0.0
"Line.L41"              ,   2,       -90.5,       -79.8
"Line.L42"              ,   1,         8.0,         4.0,         0.0,         0.0,         0.0,         0.0
"Line.L42"              ,   2,        -8.0,        -4.0
"Line.L43"              ,   1,        78.5,        73.9,         0.0,         0.0,         0.0,         0.0
"Line.L43"              ,   2,       -78.5,       -73.8
"Line.L44"              ,   1,         8.0,         4.0,         0.0,         0.0,         0.0,         0.0
"Line.L44"              ,   2,        -8.0,        -4.0
"Line.L45"              ,   1,        70.5,        69.8,         0.0,         0.0,         0.0,         0.0
"Line.L45"              ,   2,       -70.5,       -69.8
"Line.L46"              ,   1,         4.0,         2.0,         0.0,         0.0,         0.0,         0.0
"Line.L46"              ,   2,        -4.0,        -2.0
"Line.L47"              ,   1,         9.7,        29.9,         0.0,         0.0,         0.0,         0.0
"Line.L47"              ,   2,        -9.7,       -29.9
"Line.L48"              ,   1,        39.9,        24.9,         0.0,         0.0,         0.0,         0.0
"Line.L48"              ,   2,       -39.9,       -24.9
"Line.L49"              ,   1,        12.0,         6.0,         0.0,         0.0,         0.0,         0.0
"Line.L49"              ,   2,       -12.0,        -6.0
"Line.L50"              ,   1,         4.0,         2.0,         0.0,         0.0,         0.0,         0.0
"Line.L50"              ,   2,        -4.0,        -2.0
"Line.L51"              ,   1,         0.0,        -0.0,         0.0,         0.0,         0.0,         0.0
"Line.L51"              ,   2,        -0.0,         0.0
"Line.L52"              ,   1,       314.0,       -35.7,         0.0,         0.0,         0.0,         0.0
"Line.L52"              ,   2,      -313.8,        36.1
"Line.L53"              ,   1,       305.9,       -40.1,         0.0,         0.0,         0.0,         0.0
"Line.L53"              ,   2,      -305.7,        40.4
"Line.L54"              ,   1,         8.0,         4.0,         0.0,         0.0,         0.0,         0.0
"Line.L54"              ,   2,        -8.0,        -4.0
"Line.L55"              ,   1,       297.8,       -44.3,         0.0,         0.0,         0.0,         0.0
"Line.L55"              ,   2,      -297.5,        45.0
"Line.L56"              ,   1,         4.0,         2.0,         0.0,         0.0,         0.0,         0.0
"Line.L56"              ,   2,        -4.0,        -2.0
"Line.L57"              ,   1,         4.9,         4.0,         0.0,         0.0,         0.0,         0.0
"Line.L57"              ,   2,        -4.9,        -4.0
"Line.L58"              ,   1,       292.5,       -49.0,         0.0,         0.0,         0.0,         0.0
"Line.L58"              ,   2,      -291.9,        50.4
"Line.L59"              ,   1,         4.0,         2.0,         0.0,         0.0,         0.0,         0.0
"Line.L59"              ,   2,        -4.0,        -2.0
"Line.L60"              ,   1,         0.0,        -0.0,         0.0,         0.0,         0.0,         0.0
"Line.L60"              ,   2,        -0.0,         0.0
"Line.L61"              ,   1,        52.4,        41.8,         0.0,         0.0,         0.0,         0.0
"Line.L61"              ,   2,       -52.4,       -41.8
"Line.L62"              ,   1,        44.4,        37.8,         0.0,         0.0,         0.0,         0.0
"Line.L62"              ,   2,       -44.4,       -37.8
"Line.L63"              ,   1,        36.4,        33.8,         0.0,         0.0,         0.0,         0.0
"Line.L63"              ,   2,       -36.4,       -33.8
"Line.L64"              ,   1,        21.4,        26.9,         0.0,         0.0,         0.0,         0.0
"Line.L64"              ,   2,       -21.4,       -26.9
"Line.L65"              ,   1,        15.0,         7.0,         0.0,         0.0,         0.0,         0.0
"Line.L65"              ,   2,       -15.0,        -7.0
"Line.L66"              ,   1,        23.9,        12.0,         0.0,         0.0,         0.0,         0.0
"Line.L66"              ,   2,       -23.9,       -12.0
"Line.L67"              ,   1,       129.6,      -150.6,         0.0,         0.0,         0.0,         0.0
"Line.L67"              ,   2,      -129.5,       150.8
"Line.L68"              ,   1,        81.7,        44.0,         0.0,         0.0,         0.0,         0.0
"Line.L68"              ,   2,       -81.7,       -43.9
"Line.L69"              ,   1,        19.9,        10.0,         0.0,         0.0,         0.0,         0.0
"Line.L69"              ,   2,       -19.9,       -10.0
"Line.L70"              ,   1,        12.0,         6.0,         0.0,         0.0,         0.0,         0.0
"Line.L70"              ,   2,       -12.0,        -6.0
"Line.L71"              ,   1,         8.0,         4.0,         0.0,         0.0,         0.0,         0.0
"Line.L71"              ,   2,        -8.0,        -4.0
"Line.L72"              ,   1,        23.9,        12.0,         0.0,         0.0,         0.0,         0.0
"Line.L72"              ,   2,       -23.9,       -12.0
"Line.L73"              ,   1,       105.6,      -162.8,         0.0,         0.0,         0.0,         0.0
"Line.L73"              ,   2,      -105.5,       163.0
"Line.L74"              ,   1,        16.0,         8.0,         0.0,         0.0,         0.0,         0.0
"Line.L74"              ,   2,       -15.9,        -8.0
"Line.L75"              ,   1,         8.0,         4.0,         0.0,         0.0,         0.0,         0.0
"Line.L75"              ,   2,        -8.0,        -4.0
"Line.L76"              ,   1,        48.5,      -174.8,         0.0,         0.0,         0.0,         0.0
"Line.L76"              ,   2,       -48.3,       175.1
"Line.L77"              ,   1,        45.7,       -24.0,         0.0,         0.0,         0.0,         0.0
"Line.L77"              ,   2,       -45.7,        24.1
"Line.L78"              ,   1,        40.4,      -179.1,         0.0,         0.0,         0.0,         0.0
"Line.L78"              ,   2,       -40.3,       179.1
"Line.L79"              ,   1,         8.0,         4.0,         0.0,         0.0,         0.0,         0.0
"Line.L79"              ,   2,        -8.0,        -4.0
"Line.L80"              ,   1,        32.3,      -183.1,         0.0,         0.0,         0.0,         0.0
"Line.L80"              ,   2,       -32.2,       183.5
"Line.L81"              ,   1,        24.2,      -187.5,         0.0,         0.0,         0.0,         0.0
"Line.L81"              ,   2,       -24.1,       187.6
"Line.L82"              ,   1,        12.2,      -193.6,         0.0,         0.0,         0.0,         0.0
"Line.L82"              ,   2,       -12.1,       193.8
"Line.L83"              ,   1,        12.0,         6.0,         0.0,         0.0,         0.0,         0.0
"Line.L83"              ,   2,       -12.0,        -6.0
"Line.L84"              ,   1,         4.1,      -197.8,         0.0,         0.0,         0.0,         0.0
"Line.L84"              ,   2,        -4.0,       198.0
"Line.L85"              ,   1,         8.0,         4.0,         0.0,         0.0,         0.0,         0.0
"Line.L85"              ,   2,        -8.0,        -4.0
"Line.L86"              ,   1,        41.7,       -26.1,         0.0,         0.0,         0.0,         0.0
"Line.L86"              ,   2,       -41.7,        26.1
"Line.L87"              ,   1,         8.0,       -12.7,         0.0,         0.0,         0.0,         0.0
"Line.L87"              ,   2,        -8.0,        12.7
"Line.L88"              ,   1,        31.9,       -17.4,         0.0,         0.0,         0.0,         0.0
"Line.L88"              ,   2,       -31.9,        17.4
"Line.L89"              ,   1,         8.0,       -12.7,         0.0,         0.0,         0.0,         0.0
"Line.L89"              ,   2,        -8.0,        12.7
"Line.L90"              ,   1,        23.9,        -4.7,         0.0,         0.0,         0.0,         0.0
"Line.L90"              ,   2,       -23.9,         4.7
"Line.L91"              ,   1,         8.0,       -12.7,         0.0,         0.0,         0.0,         0.0
"Line.L91"              ,   2,        -8.0,        12.7
"Line.L92"              ,   1,        15.9,         8.0,         0.0,         0.0,         0.0,         0.0
"Line.L92"              ,   2,       -15.9,        -8.0
"Line.L93"              ,   1,         8.0,         4.0,         0.0,         0.0,         0.0,         0.0
"Line.L93"              ,   2,        -8.0,        -4.0
"Line.L94"              ,   1,         8.0,         4.0,         0.0,         0.0,         0.0,         0.0
"Line.L94"              ,   2,        -8.0,        -4.0
"Line.L95"              ,   1,         4.0,         2.0,         0.0,         0.0,         0.0,         0.0
"Line.L95"              ,   2,        -4.0,        -2.0
"Line.L96"              ,   1,        17.8,        12.0,         0.0,         0.0,         0.0,         0.0
"Line.L96"              ,   2,       -17.8,       -12.0
"Line.L97"              ,   1,         9.8,         8.0,         0.0,         0.0,         0.0,         0.0
"Line.L97"              ,   2,        -9.8,        -8.0
"Line.L98"              ,   1,         1.8,         4.0,         0.0,         0.0,         0.0,         0.0
"Line.L98"              ,   2,        -1.8,        -4.0
"Line.L99"              ,   1,         0.0,        -0.0,         0.0,         0.0,         0.0,         0.0
"Line.L99"              ,   2,         0.0,         0.0
"Line.L118"             ,   1,        63.9,        32.0,         0.0,         0.0,         0.0,         0.0
"Line.L118"             ,   2,       -63.9,       -31.9
"Line.L100"             ,   1,        19.9,        10.0,         0.0,         0.0,         0.0,         0.0
"Line.L100"             ,   2,       -19.9,       -10.0
"Line.L101"             ,   1,        43.9,        22.0,         0.0,         0.0,         0.0,         0.0
"Line.L101"             ,   2,       -43.9,       -22.0
"Line.L102"             ,   1,        16.0,         8.0,         0.0,         0.0,         0.0,         0.0
"Line.L102"             ,   2,       -16.0,        -8.0
"Line.L103"             ,   1,         8.0,         4.0,         0.0,         0.0,         0.0,         0.0
"Line.L103"             ,   2,        -8.0,        -4.0
"Line.L104"             ,   1,        16.0,         8.0,         0.0,         0.0,         0.0,         0.0
"Line.L104"             ,   2,       -15.9,        -8.0
"Line.L105"             ,   1,        27.9,        14.0,         0.0,         0.0,         0.0,         0.0
"Line.L105"             ,   2,       -27.9,       -14.0
"Line.L106"             ,   1,         8.0,         4.0,         0.0,         0.0,         0.0,         0.0
"Line.L106"             ,   2,        -8.0,        -4.0
"Line.L107"             ,   1,        27.9,        14.0,         0.0,         0.0,         0.0,         0.0
"Line.L107"             ,   2,       -27.9,       -14.0
"Line.L108"             ,   1,         0.0,        -0.0,         0.0,         0.0,         0.0,         0.0
"Line.L108"             ,   2,         0.0,         0.0
"Line.L109"             ,   1,        19.9,        10.0,         0.0,         0.0,         0.0,         0.0
"Line.L109"             ,   2,       -19.9,       -10.0
"Line.L110"             ,   1,         4.0,         2.0,         0.0,         0.0,         0.0,         0.0
"Line.L110"             ,   2,        -4.0,        -2.0
"Line.L111"             ,   1,        16.0,         8.0,         0.0,         0.0,         0.0,         0.0
"Line.L111"             ,   2,       -16.0,        -8.0
"Line.L112"             ,   1,        12.0,         6.0,         0.0,         0.0,         0.0,         0.0
"Line.L112"             ,   2,       -12.0,        -6.0
"Line.L113"             ,   1,         4.0,         2.0,         0.0,         0.0,         0.0,         0.0
"Line.L113"             ,   2,        -4.0,        -2.0
"Line.L114"             ,   1,       118.5,        94.1,         0.0,         0.0,         0.0,         0.0
"Line.L114"             ,   2,      -118.5,       -93.9
"Line.L116"             ,   1,       322.4,       -30.9,         0.0,         0.0,         0.0,         0.0
"Line.L116"             ,   2,      -322.0,        31.7
"Line.L117"             ,   1,       235.5,       -94.1,         0.0,         0.0,         0.0,         0.0
"Line.L117"             ,   2,      -235.2,        94.6
"Line.SW1"              ,   1,       584.6,       148.0,         0.0,         0.0,         0.0,         0.0
"Line.SW1"              ,   2,      -584.6,      -148.0
"Line.SW2"              ,   1,       322.4,       -30.9,         0.0,         0.0,         0.0,         0.0
"Line.SW2"              ,   2,      -322.4,        30.9
"Line.SW3"              ,   1,       118.5,        94.1,         0.0,         0.0,         0.0,         0.0
"Line.SW3"              ,   2,      -118.5,       -94.1
