Element, Terminal, P(kW), Q(kvar),  P_Normal, Q_Normal, P_Emergency, Q_Emergency
"Line.L115"             ,   1,       877.6,       450.6,        18.3,         9.4,         0.0,         0.0
"Line.L115"             ,   2,      -873.8,      -442.6
"Line.L1"               ,   1,         6.7,         3.3,         0.0,         0.0,         0.0,         0.0
"Line.L1"               ,   2,        -6.7,        -3.3
"Line.L2"               ,   1,        33.4,        16.7,         0.0,         0.0,         0.0,         0.0
"Line.L2"               ,   2,       -33.3,       -16.7
"Line.L3"               ,   1,       820.4,       416.0,         0.0,         0.0,         0.0,         0.0
"Line.L3"               ,   2,      -817.9,      -410.7
"Line.L4"               ,   1,        13.3,         6.7,         0.0,         0.0,         0.0,         0.0
"Line.L4"               ,   2,       -13.3,        -6.7
"Line.L5"               ,   1,        20.0,        10.0,         0.0,         0.0,         0.0,         0.0
"Line.L5"               ,   2,       -20.0,       -10.0
"Line.L6"               ,   1,        13.3,         6.7,         0.0,         0.0,         0.0,         0.0
"Line.L6"               ,   2,       -13.3,        -6.7
"Line.L7"               ,   1,       811.2,       407.4,         0.0,         0.0,         0.0,         0.0
"Line.L7"               ,   2,      -809.5,      -403.9
"Line.L8"               ,   1,         6.7,         3.3,         0.0,         0.0,         0.0,         0.0
"Line.L8"               ,   2,        -6.7,        -3.3
"Line.L9"               ,   1,        17.6,        16.7,         0.0,         0.0,         0.0,         0.0
"Line.L9"               ,   2,       -17.6,       -16.7
"Line.L10"              ,   1,       785.2,       383.9,         0.0,         0.0,         0.0,         0.0
"Line.L10"              ,   2,      -782.9,      -379.1
"Line.L11"              ,   1,        20.0,        10.0,         0.0,         0.0,         0.0,         0.0
"Line.L11"              ,   2,       -20.0,       -10.0
"Line.L12"              ,   1,        33.3,        16.7,         0.0,         0.0,         0.0,         0.0
"Line.L12"              ,   2,       -33.3,       -16.7
"Line.L13"              ,   1,       275.0,       220.0,         0.0,         0.0,         0.0,         0.0
"Line.L13"              ,   2,      -274.0,      -217.9
"Line.L14"              ,   1,        13.3,         6.7,         0.0,         0.0,         0.0,         0.0
"Line.L14"              ,   2,       -13.3,        -6.7
"Line.L15"              ,   1,         6.7,         3.3,         0.0,         0.0,         0.0,         0.0
"Line.L15"              ,   2,        -6.7,        -3.3
"Line.L16"              ,   1,        13.3,         6.7,         0.0,         0.0,         0.0,         0.0
"Line.L16"              ,   2,       -13.3,        -6.7
"Line.L17"              ,   1,         6.7,         3.3,         0.0,         0.0,         0.0,         0.0
"Line.L17"              ,   2,        -6.7,        -3.3
"Line.L18"              ,   1,        26.7,        13.3,         0.0,         0.0,         0.0,         0.0
"Line.L18"              ,   2,       -26.7,       -13.3
"Line.L19"              ,   1,        77.7,        46.8,         0.0,         0.0,         0.0,         0.0
"Line.L19"              ,   2,       -77.7,       -46.7
"Line.L20"              ,   1,        13.3,         6.7,         0.0,         0.0,         0.0,         0.0
"Line.L20"              ,   2,       -13.3,        -6.7
"Line.L21"              ,   1,        13.3,         6.7,         0.0,         0.0,         0.0,         0.0
"Line.L21"              ,   2,       -13.3,        -6.7
"Line.L22"              ,   1,        64.3,        40.1,         0.0,         0.0,         0.0,         0.0
"Line.L22"              ,   2,       -64.3,       -40.0
"Line.L23"              ,   1,        13.3,         6.7,         0.0,         0.0,         0.0,         0.0
"Line.L23"              ,   2,       -13.3,        -6.7
"Line.L24"              ,   1,        51.0,        33.4,         0.0,         0.0,         0.0,         0.0
"Line.L24"              ,   2,       -50.9,       -33.3
"Line.L25"              ,   1,        26.7,        13.3,         0.0,         0.0,         0.0,         0.0
"Line.L25"              ,   2,       -26.7,       -13.3
"Line.L26"              ,   1,        24.3,        20.0,         0.0,         0.0,         0.0,         0.0
"Line.L26"              ,   2,       -24.3,       -20.0
"Line.L27"              ,   1,        13.3,         6.7,         0.0,         0.0,         0.0,         0.0
"Line.L27"              ,   2,       -13.3,        -6.7
"Line.L28"              ,   1,        13.3,         6.7,         0.0,         0.0,         0.0,         0.0
"Line.L28"              ,   2,       -13.3,        -6.7
"Line.L29"              ,   1,        13.3,         6.7,         0.0,         0.0,         0.0,         0.0
"Line.L29"              ,   2,       -13.3,        -6.7
"Line.L30"              ,   1,        26.7,        13.3,         0.0,         0.0,         0.0,         0.0
"Line.L30"              ,   2,       -26.7,       -13.3
"Line.L31"              ,   1,        13.3,         6.7,         0.0,         0.0,         0.0,         0.0
"Line.L31"              ,   2,       -13.3,        -6.7
"Line.L32"              ,   1,         0.0,        -0.0,         0.0,         0.0,         0.0,         0.0
"Line.L32"              ,   2,         0.0,         0.0
"Line.L33"              ,   1,         6.7,         3.3,         0.0,         0.0,         0.0,         0.0
"Line.L33"              ,   2,        -6.7,        -3.3
"Line.L34"              ,   1,        20.0,        10.0,         0.0,         0.0,         0.0,         0.0
"Line.L34"              ,   2,       -20.0,       -10.0
"Line.L35"              ,   1,        26.7,        13.3,         0.0,         0.0,         0.0,         0.0
"Line.L35"              ,   2,       -26.7,       -13.3
"Line.L36"              ,   1,       129.4,       137.3,         0.0,         0.0,         0.0,         0.0
"Line.L36"              ,   2,      -129.3,      -137.1
"Line.L37"              ,   1,        13.3,         6.7,         0.0,         0.0,         0.0,         0.0
"Line.L37"              ,   2,       -13.3,        -6.7
"Line.L38"              ,   1,        13.3,         6.7,         0.0,         0.0,         0.0,         0.0
"Line.L38"              ,   2,       -13.3,        -6.7
"Line.L39"              ,   1,         6.7,         3.3,         0.0,         0.0,         0.0,         0.0
"Line.L39"              ,   2,        -6.7,        -3.3
"Line.L40"              ,   1,         6.7,         3.3,         0.0,         0.0,         0.0,         0.0
"Line.L40"              ,   2,        -6.7,        -3.3
"Line.L41"              ,   1,       122.6,       133.8,         0.0,         0.0,         0.0,         0.0
"Line.L41"              ,   2,      -122.5,      -133.6
"Line.L42"              ,   1,        13.3,         6.7,         0.0,         0.0,         0.0,         0.0
"Line.L42"              ,   2,       -13.3,        -6.7
"Line.L43"              ,   1,       102.5,       123.6,         0.0,         0.0,         0.0,         0.0
"Line.L43"              ,   2,      -102.5,      -123.5
"Line.L44"              ,   1,        13.3,         6.7,         0.0,         0.0,         0.0,         0.0
"Line.L44"              ,   2,       -13.3,        -6.7
"Line.L45"              ,   1,        89.1,       116.8,         0.0,         0.0,         0.0,         0.0
"Line.L45"              ,   2,       -89.1,      -116.7
"Line.L46"              ,   1,         6.7,         3.3,         0.0,         0.0,         0.0,         0.0
"Line.L46"              ,   2,        -6.7,        -3.3
"Line.L47"              ,   1,       -12.6,        50.0,         0.0,         0.0,         0.0,         0.0
"Line.L47"              ,   2,        12.6,       -50.0
"Line.L48"              ,   1,        66.7,        41.7,         0.0,         0.0,         0.0,         0.0
"Line.L48"              ,   2,       -66.7,       -41.7
"Line.L49"              ,   1,        20.0,        10.0,         0.0,         0.0,         0.0,         0.0
"Line.L49"              ,   2,       -20.0,       -10.0
"Line.L50"              ,   1,         6.7,         3.3,         0.0,         0.0,         0.0,         0.0
"Line.L50"              ,   2,        -6.7,        -3.3
"Line.L51"              ,   1,         0.0,        -0.0,         0.0,         0.0,         0.0,         0.0
"Line.L51"              ,   2,         0.0,         0.0
"Line.L52"              ,   1,       460.1,       133.7,         0.0,         0.0,         0.0,         0.0
"Line.L52"              ,   2,      -459.7,      -132.7
"Line.L53"              ,   1,       446.3,       126.0,         0.0,         0.0,         0.0,         0.0
"Line.L53"              ,   2,      -446.0,      -125.4
"Line.L54"              ,   1,        13.3,         6.7,         0.0,         0.0,         0.0,         0.0
"Line.L54"              ,   2,       -13.3,        -6.7
"Line.L55"              ,   1,       432.7,       118.8,         0.0,         0.0,         0.0,         0.0
"Line.L55"              ,   2,      -432.0,      -117.3
"Line.L56"              ,   1,         6.7,         3.3,         0.0,         0.0,         0.0,         0.0
"Line.L56"              ,   2,        -6.7,        -3.3
"Line.L57"              ,   1,         5.5,         6.7,         0.0,         0.0,         0.0,         0.0
"Line.L57"              ,   2,        -5.5,        -6.7
"Line.L58"              ,   1,       426.5,       110.6,         0.0,         0.0,         0.0,         0.0
"Line.L58"              ,   2,      -425.0,      -107.5
"Line.L59"              ,   1,         6.7,         3.3,         0.0,         0.0,         0.0,         0.0
"Line.L59"              ,   2,        -6.7,        -3.3
"Line.L60"              ,   1,         0.0,        -0.0,         0.0,         0.0,         0.0,         0.0
"Line.L60"              ,   2,        -0.0,         0.0
"Line.L61"              ,   1,        68.5,        70.0,         0.0,         0.0,         0.0,         0.0
"Line.L61"              ,   2,       -68.4,       -70.0
"Line.L62"              ,   1,        55.1,        63.3,         0.0,         0.0,         0.0,         0.0
"Line.L62"              ,   2,       -55.0,       -63.3
"Line.L63"              ,   1,        41.7,        56.6,         0.0,         0.0,         0.0,         0.0
"Line.L63"              ,   2,       -41.6,       -56.6
"Line.L64"              ,   1,        16.6,        45.0,         0.0,         0.0,         0.0,         0.0
"Line.L64"              ,   2,       -16.6,       -45.0
"Line.L65"              ,   1,        25.0,        11.6,         0.0,         0.0,         0.0,         0.0
"Line.L65"              ,   2,       -25.0,       -11.7
"Line.L66"              ,   1,        40.0,        20.0,         0.0,         0.0,         0.0,         0.0
"Line.L66"              ,   2,       -40.0,       -20.0
"Line.L67"              ,   1,       177.9,       -60.6,         0.0,         0.0,         0.0,         0.0
"Line.L67"              ,   2,      -177.8,        60.9
"Line.L68"              ,   1,       131.4,        73.7,         0.0,         0.0,         0.0,         0.0
"Line.L68"              ,   2,      -131.3,       -73.6
"Line.L69"              ,   1,        33.4,        16.7,         0.0,         0.0,         0.0,         0.0
"Line.L69"              ,   2,       -33.3,       -16.7
"Line.L70"              ,   1,        20.0,        10.0,         0.0,         0.0,         0.0,         0.0
"Line.L70"              ,   2,       -20.0,       -10.0
"Line.L71"              ,   1,        13.3,         6.7,         0.0,         0.0,         0.0,         0.0
"Line.L71"              ,   2,       -13.3,        -6.7
"Line.L72"              ,   1,        40.0,        20.0,         0.0,         0.0,         0.0,         0.0
"Line.L72"              ,   2,       -40.0,       -20.0
"Line.L73"              ,   1,       137.7,       -80.9,         0.0,         0.0,         0.0,         0.0
"Line.L73"              ,   2,      -137.7,        81.0
"Line.L74"              ,   1,        26.7,        13.4,         0.0,         0.0,         0.0,         0.0
"Line.L74"              ,   2,       -26.7,       -13.3
"Line.L75"              ,   1,        13.3,         6.7,         0.0,         0.0,         0.0,         0.0
"Line.L75"              ,   2,       -13.3,        -6.7
"Line.L76"              ,   1,        80.5,      -139.8,         0.0,         0.0,         0.0,         0.0
"Line.L76"              ,   2,       -80.4,       140.1
"Line.L77"              ,   1,        71.2,        -1.2,         0.0,         0.0,         0.0,         0.0
"Line.L77"              ,   2,       -71.1,         1.3
"Line.L78"              ,   1,        67.1,      -146.7,         0.0,         0.0,         0.0,         0.0
"Line.L78"              ,   2,       -67.1,       146.8
"Line.L79"              ,   1,        13.3,         6.7,         0.0,         0.0,         0.0,         0.0
"Line.L79"              ,   2,       -13.3,        -6.7
"Line.L80"              ,   1,        53.7,      -153.5,         0.0,         0.0,         0.0,         0.0
"Line.L80"              ,   2,       -53.6,       153.8
"Line.L81"              ,   1,        40.2,      -160.4,         0.0,         0.0,         0.0,         0.0
"Line.L81"              ,   2,       -40.2,       160.5
"Line.L82"              ,   1,        20.2,      -170.5,         0.0,         0.0,         0.0,         0.0
"Line.L82"              ,   2,       -20.1,       170.7
"Line.L83"              ,   1,        20.0,        10.0,         0.0,         0.0,         0.0,         0.0
"Line.L83"              ,   2,       -20.0,       -10.0
"Line.L84"              ,   1,         6.8,      -177.4,         0.0,         0.0,         0.0,         0.0
"Line.L84"              ,   2,        -6.7,       177.6
"Line.L85"              ,   1,        13.3,         6.7,         0.0,         0.0,         0.0,         0.0
"Line.L85"              ,   2,       -13.3,        -6.7
"Line.L86"              ,   1,        64.5,        -4.6,         0.0,         0.0,         0.0,         0.0
"Line.L86"              ,   2,       -64.4,         4.6
"Line.L87"              ,   1,        13.3,        -8.2,         0.0,         0.0,         0.0,         0.0
"Line.L87"              ,   2,       -13.3,         8.2
"Line.L88"              ,   1,        53.4,        -3.1,         0.0,         0.0,         0.0,         0.0
"Line.L88"              ,   2,       -53.4,         3.1
"Line.L89"              ,   1,        13.3,        -8.2,         0.0,         0.0,         0.0,         0.0
"Line.L89"              ,   2,       -13.3,         8.2
"Line.L90"              ,   1,        40.0,         5.1,         0.0,         0.0,         0.0,         0.0
"Line.L90"              ,   2,       -40.0,        -5.1
"Line.L91"              ,   1,        13.3,        -8.2,         0.0,         0.0,         0.0,         0.0
"Line.L91"              ,   2,       -13.3,         8.2
"Line.L92"              ,   1,        26.7,        13.3,         0.0,         0.0,         0.0,         0.0
"Line.L92"              ,   2,       -26.7,       -13.3
"Line.L93"              ,   1,        13.3,         6.7,         0.0,         0.0,         0.0,         0.0
"Line.L93"              ,   2,       -13.3,        -6.7
"Line.L94"              ,   1,        13.3,         6.7,         0.0,         0.0,         0.0,         0.0
"Line.L94"              ,   2,       -13.3,        -6.7
"Line.L95"              ,   1,         6.7,         3.3,         0.0,         0.0,         0.0,         0.0
"Line.L95"              ,   2,        -6.7,        -3.3
"Line.L96"              ,   1,        24.4,        20.0,         0.0,         0.0,         0.0,         0.0
"Line.L96"              ,   2,       -24.4,       -20.0
"Line.L97"              ,   1,        11.1,        13.3,         0.0,         0.0,         0.0,         0.0
"Line.L97"              ,   2,       -11.1,       -13.3
"Line.L98"              ,   1,        -2.3,         6.7,         0.0,         0.0,         0.0,         0.0
"Line.L98"              ,   2,         2.3,        -6.7
"Line.L99"              ,   1,         0.0,        -0.0,         0.0,         0.0,         0.0,         0.0
"Line.L99"              ,   2,         0.0,        -0.0
"Line.L118"             ,   1,       106.9,        53.6,         0.0,         0.0,         0.0,         0.0
"Line.L118"             ,   2,      -106.9,       -53.5
"Line.L100"             ,   1,        33.4,        16.7,         0.0,         0.0,         0.0,         0.0
"Line.L100"             ,   2,       -33.4,       -16.7
"Line.L101"             ,   1,        73.5,        36.8,         0.0,         0.0,         0.0,         0.0
"Line.L101"             ,   2,       -73.5,       -36.8
"Line.L102"             ,   1,        26.7,        13.4,         0.0,         0.0,         0.0,         0.0
"Line.L102"             ,   2,       -26.7,       -13.3
"Line.L103"             ,   1,        13.3,         6.7,         0.0,         0.0,         0.0,         0.0
"Line.L103"             ,   2,       -13.3,        -6.7
"Line.L104"             ,   1,        26.7,        13.3,         0.0,         0.0,         0.0,         0.0
"Line.L104"             ,   2,       -26.7,       -13.3
"Line.L105"             ,   1,        46.8,        23.4,         0.0,         0.0,         0.0,         0.0
"Line.L105"             ,   2,       -46.8,       -23.4
"Line.L106"             ,   1,        13.3,         6.7,         0.0,         0.0,         0.0,         0.0
"Line.L106"             ,   2,       -13.3,        -6.7
"Line.L107"             ,   1,        46.8,        23.4,         0.0,         0.0,         0.0,         0.0
"Line.L107"             ,   2,       -46.7,       -23.4
"Line.L108"             ,   1,         0.0,        -0.0,         0.0,         0.0,         0.0,         0.0
"Line.L108"             ,   2,         0.0,         0.0
"Line.L109"             ,   1,        33.4,        16.7,         0.0,         0.0,         0.0,         0.0
"Line.L109"             ,   2,       -33.4,       -16.7
"Line.L110"             ,   1,         6.7,         3.3,         0.0,         0.0,         0.0,         0.0
"Line.L110"             ,   2,        -6.7,        -3.3
"Line.L111"             ,   1,        26.7,        13.3,         0.0,         0.0,         0.0,         0.0
"Line.L111"             ,   2,       -26.7,       -13.3
"Line.L112"             ,   1,        20.0,        10.0,         0.0,         0.0,         0.0,         0.0
"Line.L112"             ,   2,       -20.0,       -10.0
"Line.L113"             ,   1,         6.7,         3.3,         0.0,         0.0,         0.0,         0.0
"Line.L113"             ,   2,        -6.7,        -3.3
"Line.L114"             ,   1,       169.6,       157.7,         0.0,         0.0,         0.0,         0.0
"Line.L114"             ,   2,      -169.4,      -157.3
"Line.L116"             ,   1,       474.5,       142.4,         0.0,         0.0,         0.0,         0.0
"Line.L116"             ,   2,      -473.5,      -140.3
"Line.L117"             ,   1,       349.8,        34.1,         0.0,         0.0,         0.0,         0.0
"Line.L117"             ,   2,      -349.3,       -33.1
"Line.SW1"              ,   1,       877.6,       450.6,        18.3,         9.4,         0.0,         0.0
"Line.SW1"              ,   2,      -877.6,      -450.6
"Line.SW2"              ,   1,       474.5,       142.4,         0.0,         0.0,         0.0,         0.0
"Line.SW2"              ,   2,      -474.5,      -142.4
"Line.SW3"              ,   1,       169.6,       157.7,         0.0,         0.0,         0.0,         0.0
"Line.SW3"              ,   2,      -169.6,      -157.7
