Bus, BasekV, Node1, Magnitude1, Angle1, pu1
"150", 4.16, 1,       2400,    0.0,   0.99926
"149", 4.16, 1,       2415,    0.0,    1.0055
"1", 4.16, 1,    2403.17,   -0.2,    1.0006
"2", 4.16, 1,    2403.01,   -0.2,    1.0005
"3", 4.16, 1,    2402.04,   -0.2,    1.0001
"7", 4.16, 1,    2394.99,   -0.3,   0.99717
"4", 4.16, 1,    2401.68,   -0.2,   0.99996
"5", 4.16, 1,    2401.16,   -0.2,   0.99975
"6", 4.16, 1,    2400.71,   -0.2,   0.99956
"8", 4.16, 1,    2389.59,   -0.4,   0.99493
"12", 4.16, 1,    2389.39,   -0.4,   0.99484
"9", 4.16, 1,    2389.08,   -0.4,   0.99471
"13", 4.16, 1,    2381.87,   -0.6,   0.99171
"9R", 4.16, 1,    2314.42,   -0.4,   0.96363
"14", 4.16, 1,    2313.23,   -0.4,   0.96313
"34", 4.16, 1,    2381.19,   -0.6,   0.99143
"18", 4.16, 1,    2370.46,   -0.7,   0.98696
"11", 4.16, 1,    2312.76,   -0.5,   0.96294
"10", 4.16, 1,       2313,   -0.5,   0.96304
"15", 4.16, 1,    2380.92,   -0.6,   0.99131
"16", 4.16, 1,    2380.23,   -0.6,   0.99103
"17", 4.16, 1,     2380.6,   -0.6,   0.99118
"19", 4.16, 1,    2369.54,   -0.7,   0.98658
"21", 4.16, 1,    2369.43,   -0.7,   0.98653
"20", 4.16, 1,    2368.95,   -0.7,   0.98633
"22", 4.16, 1,    2368.47,   -0.7,   0.98613
"23", 4.16, 1,    2368.71,   -0.7,   0.98623
"24", 4.16, 1,     2367.7,   -0.7,   0.98581
"25", 4.16, 1,    2368.08,   -0.7,   0.98597
"25R", 4.16, 1,    2427.28,   -0.7,    1.0106
"26", 4.16, 1,    2426.87,   -0.7,    1.0104
"28", 4.16, 1,    2367.84,   -0.7,   0.98587
"27", 4.16, 1,    2426.71,   -0.7,    1.0104
"31", 4.16, 1,    2426.47,   -0.7,    1.0103
"33", 4.16, 1,    2425.82,   -0.7,      1.01
"29", 4.16, 1,     2367.5,   -0.7,   0.98573
"30", 4.16, 1,     2367.3,   -0.7,   0.98565
"250", 4.16, 1,     2367.3,   -0.7,   0.98565
"32", 4.16, 1,     2426.2,   -0.7,    1.0102
"35", 4.16, 1,    2366.98,   -0.7,   0.98551
"36", 4.16, 1,    2366.21,   -0.7,   0.98519
"40", 4.16, 1,    2365.09,   -0.7,   0.98472
"37", 4.16, 1,    2365.66,   -0.7,   0.98496
"38", 4.16, 1,    2365.75,   -0.7,     0.985
"39", 4.16, 1,    2365.45,   -0.7,   0.98488
"41", 4.16, 1,    2364.79,   -0.7,    0.9846
"42", 4.16, 1,    2363.26,   -0.7,   0.98396
"43", 4.16, 1,    2362.35,   -0.7,   0.98358
"44", 4.16, 1,    2361.98,   -0.7,   0.98343
"45", 4.16, 1,    2361.61,   -0.7,   0.98328
"47", 4.16, 1,    2360.51,   -0.7,   0.98282
"46", 4.16, 1,    2361.33,   -0.7,   0.98316
"48", 4.16, 1,    2360.38,   -0.7,   0.98276
"49", 4.16, 1,    2359.71,   -0.7,   0.98248
"50", 4.16, 1,     2359.5,   -0.7,    0.9824
"51", 4.16, 1,    2359.42,   -0.7,   0.98237
"151", 4.16, 1,    2359.42,   -0.7,   0.98237
"52", 4.16, 1,    2377.68,   -0.7,   0.98997
"53", 4.16, 1,    2375.71,   -0.8,   0.98914
"54", 4.16, 1,    2374.54,   -0.8,   0.98866
"55", 4.16, 1,    2374.39,   -0.8,    0.9886
"57", 4.16, 1,    2371.49,   -0.9,   0.98739
"56", 4.16, 1,    2374.31,   -0.8,   0.98856
"58", 4.16, 1,    2371.31,   -0.9,   0.98732
"60", 4.16, 1,     2365.2,   -1.2,   0.98477
"59", 4.16, 1,    2371.09,   -0.9,   0.98722
"61", 4.16, 1,     2365.2,   -1.2,   0.98477
"62", 4.16, 1,    2363.99,   -1.1,   0.98427
"63", 4.16, 1,    2363.35,   -1.1,     0.984
"64", 4.16, 1,    2362.46,   -1.1,   0.98363
"65", 4.16, 1,    2362.29,   -1.1,   0.98356
"66", 4.16, 1,     2361.6,   -1.1,   0.98327
"67", 4.16, 1,    2304.52,   -1.3,   0.95951
"68", 4.16, 1,     2303.4,   -1.3,   0.95904
"72", 4.16, 1,    2305.41,   -1.3,   0.95988
"97", 4.16, 1,    2303.06,   -1.3,    0.9589
"69", 4.16, 1,    2302.11,   -1.3,    0.9585
"70", 4.16, 1,    2301.19,   -1.3,   0.95812
"71", 4.16, 1,    2300.67,   -1.3,    0.9579
"73", 4.16, 1,    2303.86,   -1.3,   0.95923
"76", 4.16, 1,     2306.4,   -1.4,   0.96029
"74", 4.16, 1,    2302.54,   -1.3,   0.95868
"75", 4.16, 1,    2301.79,   -1.4,   0.95837
"77", 4.16, 1,     2309.1,   -1.4,   0.96141
"86", 4.16, 1,    2305.93,   -1.4,    0.9601
"78", 4.16, 1,    2309.83,   -1.4,   0.96172
"79", 4.16, 1,     2309.7,   -1.5,   0.96166
"80", 4.16, 1,    2313.59,   -1.5,   0.96328
"81", 4.16, 1,    2315.08,   -1.6,    0.9639
"82", 4.16, 1,    2317.42,   -1.6,   0.96488
"84", 4.16, 1,    2313.18,   -1.6,   0.96311
"83", 4.16, 1,     2319.9,   -1.6,   0.96591
"85", 4.16, 1,    2312.29,   -1.6,   0.96274
"87", 4.16, 1,    2305.77,   -1.4,   0.96003
"88", 4.16, 1,    2305.76,   -1.4,   0.96002
"89", 4.16, 1,     2305.6,   -1.5,   0.95996
"90", 4.16, 1,    2305.59,   -1.5,   0.95995
"91", 4.16, 1,     2305.4,   -1.5,   0.95987
"92", 4.16, 1,    2305.39,   -1.5,   0.95987
"93", 4.16, 1,    2305.14,   -1.5,   0.95976
"94", 4.16, 1,    2304.63,   -1.5,   0.95955
"95", 4.16, 1,    2304.97,   -1.5,   0.95969
"96", 4.16, 1,    2304.78,   -1.5,   0.95961
"98", 4.16, 1,    2302.73,   -1.3,   0.95876
"99", 4.16, 1,    2302.38,   -1.3,   0.95862
"100", 4.16, 1,    2302.37,   -1.3,   0.95861
"450", 4.16, 1,    2302.37,   -1.3,   0.95861
"197", 4.16, 1,    2303.06,   -1.3,    0.9589
"101", 4.16, 1,    2301.89,   -1.3,   0.95841
"102", 4.16, 1,    2300.84,   -1.3,   0.95797
"105", 4.16, 1,    2301.01,   -1.3,   0.95805
"103", 4.16, 1,    2299.61,   -1.3,   0.95746
"104", 4.16, 1,     2298.3,   -1.3,   0.95691
"106", 4.16, 1,    2300.17,   -1.3,   0.95769
"108", 4.16, 1,    2300.35,   -1.3,   0.95777
"107", 4.16, 1,    2299.08,   -1.3,   0.95724
"109", 4.16, 1,    2297.38,   -1.4,   0.95653
"300", 4.16, 1,    2300.35,   -1.3,   0.95777
"110", 4.16, 1,    2295.97,   -1.4,   0.95595
"111", 4.16, 1,    2295.43,   -1.4,   0.95572
"112", 4.16, 1,     2295.5,   -1.4,   0.95575
"113", 4.16, 1,    2294.01,   -1.4,   0.95513
"114", 4.16, 1,    2293.71,   -1.4,     0.955
"135", 4.16, 1,    2370.46,   -0.7,   0.98696
"152", 4.16, 1,    2381.87,   -0.6,   0.99171
"160R", 4.16, 1,    2306.07,   -1.2,   0.96015
"150R", 4.16, 1,       2415,    0.0,    1.0055
"160", 4.16, 1,     2365.2,   -1.2,   0.98477
"610", 4.16, 1,     2365.2,   -1.2,   0.98477
