Bus, BasekV, Node1, Magnitude1, Angle1, pu1
"150", 4.16, 1,       2400,    0.0,   0.99926
"149", 4.16, 1,       2415,    0.0,    1.0055
"1", 4.16, 1,    2405.95,   -0.3,    1.0017
"2", 4.16, 1,    2405.84,   -0.3,    1.0017
"3", 4.16, 1,    2405.15,   -0.3,    1.0014
"7", 4.16, 1,    2399.68,   -0.4,   0.99913
"4", 4.16, 1,    2404.89,   -0.3,    1.0013
"5", 4.16, 1,    2404.52,   -0.3,    1.0011
"6", 4.16, 1,     2404.2,   -0.3,     1.001
"8", 4.16, 1,    2395.55,   -0.6,   0.99741
"12", 4.16, 1,     2395.4,   -0.6,   0.99734
"9", 4.16, 1,    2394.94,   -0.6,   0.99715
"13", 4.16, 1,    2389.69,   -0.7,   0.99497
"9R", 4.16, 1,     2320.1,   -0.6,   0.96599
"14", 4.16, 1,    2319.25,   -0.6,   0.96564
"34", 4.16, 1,    2389.21,   -0.7,   0.99477
"18", 4.16, 1,    2380.28,   -0.9,   0.99105
"11", 4.16, 1,    2318.91,   -0.6,    0.9655
"10", 4.16, 1,    2319.08,   -0.6,   0.96557
"15", 4.16, 1,    2389.01,   -0.7,   0.99468
"16", 4.16, 1,    2388.52,   -0.7,   0.99448
"17", 4.16, 1,    2388.78,   -0.7,   0.99459
"19", 4.16, 1,    2379.63,   -0.9,   0.99078
"21", 4.16, 1,    2379.48,   -0.9,   0.99071
"20", 4.16, 1,    2379.21,   -0.9,    0.9906
"22", 4.16, 1,    2378.79,   -0.9,   0.99043
"23", 4.16, 1,     2378.9,   -0.9,   0.99048
"24", 4.16, 1,    2378.19,   -0.9,   0.99018
"25", 4.16, 1,    2378.39,   -0.9,   0.99026
"25R", 4.16, 1,    2437.84,   -0.9,     1.015
"26", 4.16, 1,    2437.56,   -0.9,    1.0149
"28", 4.16, 1,    2378.17,   -0.9,   0.99017
"27", 4.16, 1,    2437.44,   -0.9,    1.0148
"31", 4.16, 1,    2437.27,   -0.9,    1.0148
"33", 4.16, 1,    2436.81,   -0.9,    1.0146
"29", 4.16, 1,    2377.93,   -0.9,   0.99007
"30", 4.16, 1,    2377.79,   -0.9,   0.99001
"250", 4.16, 1,    2377.79,   -0.9,   0.99001
"32", 4.16, 1,    2437.08,   -0.9,    1.0147
"35", 4.16, 1,    2377.32,   -0.9,   0.98982
"36", 4.16, 1,    2376.77,   -0.9,   0.98959
"40", 4.16, 1,    2375.65,   -0.9,   0.98912
"37", 4.16, 1,    2376.38,   -0.9,   0.98943
"38", 4.16, 1,    2376.45,   -0.9,   0.98945
"39", 4.16, 1,    2376.24,   -0.9,   0.98937
"41", 4.16, 1,    2375.44,   -0.9,   0.98903
"42", 4.16, 1,    2374.03,   -0.9,   0.98845
"43", 4.16, 1,    2373.38,   -0.9,   0.98818
"44", 4.16, 1,    2372.86,   -0.9,   0.98796
"45", 4.16, 1,     2372.6,   -0.9,   0.98785
"47", 4.16, 1,    2371.49,   -1.0,   0.98739
"46", 4.16, 1,     2372.4,   -1.0,   0.98777
"48", 4.16, 1,     2371.2,   -1.0,   0.98727
"49", 4.16, 1,    2370.92,   -1.0,   0.98715
"50", 4.16, 1,    2370.77,   -1.0,   0.98709
"51", 4.16, 1,    2370.72,   -1.0,   0.98707
"151", 4.16, 1,    2370.72,   -1.0,   0.98707
"52", 4.16, 1,    2386.88,   -0.9,    0.9938
"53", 4.16, 1,    2385.56,   -1.0,   0.99325
"54", 4.16, 1,    2384.79,   -1.0,   0.99293
"55", 4.16, 1,    2384.68,   -1.0,   0.99288
"57", 4.16, 1,    2382.78,   -1.2,   0.99209
"56", 4.16, 1,    2384.62,   -1.0,   0.99286
"58", 4.16, 1,    2382.52,   -1.2,   0.99198
"60", 4.16, 1,    2378.77,   -1.5,   0.99042
"59", 4.16, 1,    2382.36,   -1.2,   0.99192
"61", 4.16, 1,    2378.77,   -1.5,   0.99042
"62", 4.16, 1,    2377.21,   -1.5,   0.98977
"63", 4.16, 1,    2376.25,   -1.5,   0.98937
"64", 4.16, 1,    2374.64,   -1.5,    0.9887
"65", 4.16, 1,    2373.32,   -1.4,   0.98815
"66", 4.16, 1,    2372.82,   -1.4,   0.98794
"67", 4.16, 1,    2318.75,   -1.6,   0.96543
"68", 4.16, 1,    2317.95,   -1.6,    0.9651
"72", 4.16, 1,    2319.88,   -1.7,    0.9659
"97", 4.16, 1,    2317.65,   -1.6,   0.96497
"69", 4.16, 1,    2317.03,   -1.6,   0.96472
"70", 4.16, 1,    2316.38,   -1.6,   0.96444
"71", 4.16, 1,    2316.01,   -1.6,   0.96429
"73", 4.16, 1,    2318.78,   -1.7,   0.96544
"76", 4.16, 1,    2320.95,   -1.7,   0.96635
"74", 4.16, 1,    2317.84,   -1.7,   0.96505
"75", 4.16, 1,    2317.31,   -1.7,   0.96483
"77", 4.16, 1,    2324.02,   -1.8,   0.96763
"86", 4.16, 1,    2320.95,   -1.8,   0.96635
"78", 4.16, 1,    2324.83,   -1.8,   0.96796
"79", 4.16, 1,    2324.74,   -1.8,   0.96793
"80", 4.16, 1,    2328.88,   -1.9,   0.96965
"81", 4.16, 1,    2330.44,   -1.9,    0.9703
"82", 4.16, 1,    2332.83,   -1.9,   0.97129
"84", 4.16, 1,    2329.09,   -1.9,   0.96974
"83", 4.16, 1,    2335.32,   -2.0,   0.97233
"85", 4.16, 1,    2328.46,   -1.9,   0.96947
"87", 4.16, 1,    2321.05,   -1.8,   0.96639
"88", 4.16, 1,    2321.14,   -1.8,   0.96642
"89", 4.16, 1,    2321.06,   -1.8,   0.96639
"90", 4.16, 1,    2321.19,   -1.8,   0.96645
"91", 4.16, 1,    2320.98,   -1.8,   0.96636
"92", 4.16, 1,    2321.13,   -1.9,   0.96642
"93", 4.16, 1,    2320.79,   -1.8,   0.96628
"94", 4.16, 1,    2320.42,   -1.8,   0.96613
"95", 4.16, 1,    2320.67,   -1.8,   0.96623
"96", 4.16, 1,    2320.53,   -1.8,   0.96617
"98", 4.16, 1,    2317.34,   -1.6,   0.96485
"99", 4.16, 1,    2316.96,   -1.6,   0.96469
"100", 4.16, 1,    2316.88,   -1.6,   0.96465
"450", 4.16, 1,    2316.88,   -1.6,   0.96465
"197", 4.16, 1,    2317.65,   -1.6,   0.96497
"101", 4.16, 1,    2316.82,   -1.6,   0.96463
"102", 4.16, 1,    2316.07,   -1.7,   0.96431
"105", 4.16, 1,    2316.19,   -1.7,   0.96437
"103", 4.16, 1,     2315.2,   -1.7,   0.96395
"104", 4.16, 1,    2314.26,   -1.7,   0.96356
"106", 4.16, 1,    2315.59,   -1.7,   0.96412
"108", 4.16, 1,    2315.72,   -1.7,   0.96417
"107", 4.16, 1,    2314.82,   -1.7,   0.96379
"109", 4.16, 1,    2313.61,   -1.7,   0.96329
"300", 4.16, 1,    2315.72,   -1.7,   0.96417
"110", 4.16, 1,     2312.6,   -1.7,   0.96287
"111", 4.16, 1,    2312.22,   -1.7,   0.96271
"112", 4.16, 1,    2312.27,   -1.7,   0.96273
"113", 4.16, 1,    2311.21,   -1.7,   0.96229
"114", 4.16, 1,    2310.99,   -1.7,    0.9622
"135", 4.16, 1,    2380.28,   -0.9,   0.99105
"152", 4.16, 1,    2389.69,   -0.7,   0.99497
"160R", 4.16, 1,    2319.31,   -1.5,   0.96566
"150R", 4.16, 1,       2415,    0.0,    1.0055
"160", 4.16, 1,    2378.77,   -1.5,   0.99042
"610", 4.16, 1,    2378.77,   -1.5,   0.99042
