Bus, BasekV, Node1, Magnitude1, Angle1, pu1
"150", 4.16, 1,       2400,    0.0,   0.99926
"149", 4.16, 1,       2415,    0.0,    1.0055
"1", 4.16, 1,    2401.79,   -0.3,         1
"2", 4.16, 1,    2401.65,   -0.3,   0.99995
"3", 4.16, 1,     2400.8,   -0.3,   0.99959
"7", 4.16, 1,    2392.51,   -0.5,   0.99614
"4", 4.16, 1,    2400.48,   -0.3,   0.99946
"5", 4.16, 1,    2400.03,   -0.3,   0.99927
"6", 4.16, 1,    2399.63,   -0.3,   0.99911
"8", 4.16, 1,     2386.4,   -0.7,    0.9936
"12", 4.16, 1,    2386.22,   -0.7,   0.99352
"9", 4.16, 1,     2385.6,   -0.7,   0.99327
"13", 4.16, 1,    2377.68,   -0.9,   0.98997
"9R", 4.16, 1,    2311.05,   -0.7,   0.96223
"14", 4.16, 1,       2310,   -0.7,   0.96179
"34", 4.16, 1,    2377.08,   -0.9,   0.98972
"18", 4.16, 1,    2365.76,   -1.1,     0.985
"11", 4.16, 1,    2309.59,   -0.7,   0.96162
"10", 4.16, 1,     2309.8,   -0.7,    0.9617
"15", 4.16, 1,    2376.84,   -0.9,   0.98962
"16", 4.16, 1,    2376.24,   -0.9,   0.98937
"17", 4.16, 1,    2376.56,   -0.9,    0.9895
"19", 4.16, 1,    2364.96,   -1.1,   0.98467
"21", 4.16, 1,    2364.75,   -1.1,   0.98458
"20", 4.16, 1,    2364.44,   -1.1,   0.98445
"22", 4.16, 1,     2363.9,   -1.1,   0.98423
"23", 4.16, 1,    2364.03,   -1.1,   0.98428
"24", 4.16, 1,    2363.14,   -1.1,   0.98391
"25", 4.16, 1,    2363.37,   -1.1,   0.98401
"25R", 4.16, 1,    2422.45,   -1.1,    1.0086
"26", 4.16, 1,     2422.1,   -1.1,    1.0085
"28", 4.16, 1,    2363.09,   -1.1,   0.98389
"27", 4.16, 1,    2421.96,   -1.1,    1.0084
"31", 4.16, 1,    2421.75,   -1.1,    1.0083
"33", 4.16, 1,    2421.17,   -1.2,    1.0081
"29", 4.16, 1,    2362.79,   -1.1,   0.98377
"30", 4.16, 1,    2362.62,   -1.1,    0.9837
"250", 4.16, 1,    2362.62,   -1.1,    0.9837
"32", 4.16, 1,    2421.51,   -1.1,    1.0082
"35", 4.16, 1,    2361.99,   -1.1,   0.98343
"36", 4.16, 1,    2361.31,   -1.2,   0.98315
"40", 4.16, 1,    2359.85,   -1.2,   0.98254
"37", 4.16, 1,    2360.83,   -1.2,   0.98295
"38", 4.16, 1,    2360.91,   -1.2,   0.98298
"39", 4.16, 1,    2360.65,   -1.2,   0.98288
"41", 4.16, 1,    2359.58,   -1.2,   0.98243
"42", 4.16, 1,    2357.77,   -1.2,   0.98168
"43", 4.16, 1,    2356.96,   -1.2,   0.98134
"44", 4.16, 1,    2356.25,   -1.2,   0.98105
"45", 4.16, 1,    2355.93,   -1.2,   0.98091
"47", 4.16, 1,    2354.49,   -1.2,   0.98031
"46", 4.16, 1,    2355.69,   -1.2,   0.98081
"48", 4.16, 1,    2354.09,   -1.2,   0.98014
"49", 4.16, 1,    2353.78,   -1.2,   0.98002
"50", 4.16, 1,     2353.6,   -1.2,   0.97994
"51", 4.16, 1,    2353.54,   -1.3,   0.97991
"151", 4.16, 1,    2353.54,   -1.3,   0.97991
"52", 4.16, 1,    2372.36,   -1.1,   0.98775
"53", 4.16, 1,    2369.82,   -1.2,   0.98669
"54", 4.16, 1,    2368.29,   -1.3,   0.98606
"55", 4.16, 1,    2368.15,   -1.3,     0.986
"57", 4.16, 1,     2364.2,   -1.5,   0.98436
"56", 4.16, 1,    2368.09,   -1.3,   0.98597
"58", 4.16, 1,    2363.86,   -1.5,   0.98421
"60", 4.16, 1,    2355.86,   -1.8,   0.98088
"59", 4.16, 1,    2363.66,   -1.5,   0.98413
"61", 4.16, 1,    2355.86,   -1.8,   0.98088
"62", 4.16, 1,    2353.74,   -1.8,      0.98
"63", 4.16, 1,    2352.44,   -1.8,   0.97946
"64", 4.16, 1,    2350.18,   -1.8,   0.97852
"65", 4.16, 1,    2348.24,   -1.8,   0.97771
"66", 4.16, 1,    2347.64,   -1.8,   0.97746
"67", 4.16, 1,    2294.73,   -2.0,   0.95543
"68", 4.16, 1,    2293.74,   -2.0,   0.95502
"72", 4.16, 1,    2294.94,   -2.1,   0.95552
"97", 4.16, 1,    2293.35,   -2.0,   0.95486
"69", 4.16, 1,     2292.6,   -2.0,   0.95454
"70", 4.16, 1,     2291.8,   -2.0,   0.95421
"71", 4.16, 1,    2291.34,   -2.0,   0.95402
"73", 4.16, 1,    2293.57,   -2.1,   0.95495
"76", 4.16, 1,     2295.4,   -2.1,   0.95571
"74", 4.16, 1,    2292.41,   -2.1,   0.95447
"75", 4.16, 1,    2291.75,   -2.1,   0.95419
"77", 4.16, 1,    2297.96,   -2.2,   0.95678
"86", 4.16, 1,    2294.79,   -2.2,   0.95545
"78", 4.16, 1,    2298.66,   -2.2,   0.95707
"79", 4.16, 1,    2298.54,   -2.2,   0.95702
"80", 4.16, 1,     2302.2,   -2.3,   0.95854
"81", 4.16, 1,    2303.59,   -2.3,   0.95912
"82", 4.16, 1,    2305.78,   -2.3,   0.96003
"84", 4.16, 1,    2301.93,   -2.3,   0.95843
"83", 4.16, 1,    2308.09,   -2.4,   0.96099
"85", 4.16, 1,    2301.14,   -2.3,    0.9581
"87", 4.16, 1,    2294.52,   -2.2,   0.95534
"88", 4.16, 1,    2294.52,   -2.2,   0.95534
"89", 4.16, 1,    2294.39,   -2.2,   0.95529
"90", 4.16, 1,     2294.4,   -2.3,   0.95529
"91", 4.16, 1,    2294.22,   -2.2,   0.95522
"92", 4.16, 1,    2294.23,   -2.3,   0.95522
"93", 4.16, 1,    2293.99,   -2.3,   0.95512
"94", 4.16, 1,    2293.53,   -2.3,   0.95493
"95", 4.16, 1,    2293.83,   -2.3,   0.95506
"96", 4.16, 1,    2293.67,   -2.3,   0.95499
"98", 4.16, 1,    2292.96,   -2.0,   0.95469
"99", 4.16, 1,    2292.45,   -2.0,   0.95448
"100", 4.16, 1,    2292.33,   -2.0,   0.95443
"450", 4.16, 1,    2292.33,   -2.0,   0.95443
"197", 4.16, 1,    2293.35,   -2.0,   0.95486
"101", 4.16, 1,    2292.32,   -2.0,   0.95443
"102", 4.16, 1,    2291.39,   -2.0,   0.95404
"105", 4.16, 1,    2291.55,   -2.0,   0.95411
"103", 4.16, 1,    2290.32,   -2.0,   0.95359
"104", 4.16, 1,    2289.16,   -2.1,   0.95311
"106", 4.16, 1,     2290.8,   -2.1,    0.9538
"108", 4.16, 1,    2290.96,   -2.1,   0.95386
"107", 4.16, 1,    2289.85,   -2.1,    0.9534
"109", 4.16, 1,    2288.35,   -2.1,   0.95277
"300", 4.16, 1,    2290.97,   -2.1,   0.95386
"110", 4.16, 1,    2287.11,   -2.1,   0.95226
"111", 4.16, 1,    2286.63,   -2.1,   0.95206
"112", 4.16, 1,    2286.69,   -2.1,   0.95208
"113", 4.16, 1,    2285.39,   -2.1,   0.95154
"114", 4.16, 1,    2285.12,   -2.1,   0.95143
"135", 4.16, 1,    2365.76,   -1.1,     0.985
"152", 4.16, 1,    2377.68,   -0.9,   0.98997
"160R", 4.16, 1,    2296.96,   -1.8,   0.95636
"150R", 4.16, 1,       2415,    0.0,    1.0055
"160", 4.16, 1,    2355.86,   -1.8,   0.98088
"610", 4.16, 1,    2355.86,   -1.8,   0.98088
