Bus, BasekV, Node1, Magnitude1, Angle1, pu1
"150", 4.16, 1,       2400,    0.0,   0.99926
"149", 4.16, 1,       2415,    0.0,    1.0055
"1", 4.16, 1,    2402.68,   -0.3,    1.0004
"2", 4.16, 1,    2402.55,   -0.3,    1.0003
"3", 4.16, 1,    2401.75,   -0.3,   0.99999
"7", 4.16, 1,    2394.04,   -0.5,   0.99678
"4", 4.16, 1,    2401.45,   -0.3,   0.99987
"5", 4.16, 1,    2401.03,   -0.3,   0.99969
"6", 4.16, 1,    2400.65,   -0.3,   0.99953
"8", 4.16, 1,    2388.34,   -0.7,   0.99441
"12", 4.16, 1,    2388.17,   -0.7,   0.99434
"9", 4.16, 1,    2387.56,   -0.7,   0.99408
"13", 4.16, 1,    2380.23,   -0.9,   0.99103
"9R", 4.16, 1,    2312.95,   -0.7,   0.96302
"14", 4.16, 1,    2311.97,   -0.7,   0.96261
"34", 4.16, 1,    2379.66,   -0.9,   0.99079
"18", 4.16, 1,     2368.9,   -1.1,   0.98631
"11", 4.16, 1,    2311.58,   -0.7,   0.96245
"10", 4.16, 1,    2311.78,   -0.7,   0.96253
"15", 4.16, 1,    2379.44,   -0.9,    0.9907
"16", 4.16, 1,    2378.88,   -0.9,   0.99047
"17", 4.16, 1,    2379.18,   -0.9,   0.99059
"19", 4.16, 1,    2368.15,   -1.1,     0.986
"21", 4.16, 1,    2367.94,   -1.1,   0.98591
"20", 4.16, 1,    2367.66,   -1.1,   0.98579
"22", 4.16, 1,    2367.15,   -1.1,   0.98558
"23", 4.16, 1,    2367.26,   -1.1,   0.98563
"24", 4.16, 1,    2366.43,   -1.1,   0.98528
"25", 4.16, 1,    2366.63,   -1.1,   0.98537
"25R", 4.16, 1,     2425.8,   -1.1,      1.01
"26", 4.16, 1,    2425.47,   -1.1,    1.0099
"28", 4.16, 1,    2366.37,   -1.1,   0.98526
"27", 4.16, 1,    2425.33,   -1.1,    1.0098
"31", 4.16, 1,    2425.13,   -1.1,    1.0097
"33", 4.16, 1,     2424.6,   -1.1,    1.0095
"29", 4.16, 1,    2366.09,   -1.1,   0.98514
"30", 4.16, 1,    2365.92,   -1.1,   0.98507
"250", 4.16, 1,    2365.92,   -1.1,   0.98507
"32", 4.16, 1,    2424.91,   -1.1,    1.0096
"35", 4.16, 1,    2365.31,   -1.1,   0.98481
"36", 4.16, 1,    2364.67,   -1.1,   0.98455
"40", 4.16, 1,    2363.26,   -1.2,   0.98396
"37", 4.16, 1,    2364.22,   -1.1,   0.98436
"38", 4.16, 1,    2364.29,   -1.1,   0.98439
"39", 4.16, 1,    2364.05,   -1.1,   0.98429
"41", 4.16, 1,    2363.02,   -1.2,   0.98386
"42", 4.16, 1,    2361.27,   -1.2,   0.98314
"43", 4.16, 1,    2360.52,   -1.2,   0.98282
"44", 4.16, 1,    2359.83,   -1.2,   0.98253
"45", 4.16, 1,    2359.52,   -1.2,   0.98241
"47", 4.16, 1,    2358.13,   -1.2,   0.98183
"46", 4.16, 1,     2359.3,   -1.2,   0.98231
"48", 4.16, 1,    2357.74,   -1.2,   0.98166
"49", 4.16, 1,    2357.47,   -1.2,   0.98155
"50", 4.16, 1,     2357.3,   -1.2,   0.98148
"51", 4.16, 1,    2357.24,   -1.2,   0.98146
"151", 4.16, 1,    2357.24,   -1.2,   0.98146
"52", 4.16, 1,     2375.4,   -1.1,   0.98902
"53", 4.16, 1,    2373.09,   -1.2,   0.98806
"54", 4.16, 1,    2371.71,   -1.3,   0.98748
"55", 4.16, 1,    2371.59,   -1.3,   0.98743
"57", 4.16, 1,    2368.02,   -1.4,   0.98595
"56", 4.16, 1,    2371.52,   -1.3,    0.9874
"58", 4.16, 1,    2367.68,   -1.4,    0.9858
"60", 4.16, 1,    2360.51,   -1.8,   0.98282
"59", 4.16, 1,     2367.5,   -1.4,   0.98573
"61", 4.16, 1,    2360.51,   -1.8,   0.98282
"62", 4.16, 1,    2358.45,   -1.8,   0.98196
"63", 4.16, 1,    2357.18,   -1.8,   0.98143
"64", 4.16, 1,    2354.95,   -1.8,    0.9805
"65", 4.16, 1,       2353,   -1.8,   0.97969
"66", 4.16, 1,    2352.43,   -1.8,   0.97945
"67", 4.16, 1,     2299.6,   -2.0,   0.95746
"68", 4.16, 1,    2298.67,   -2.0,   0.95707
"72", 4.16, 1,    2299.95,   -2.0,    0.9576
"97", 4.16, 1,     2298.3,   -2.0,   0.95692
"69", 4.16, 1,    2297.61,   -2.0,   0.95663
"70", 4.16, 1,    2296.85,   -2.0,   0.95631
"71", 4.16, 1,    2296.42,   -2.0,   0.95613
"73", 4.16, 1,    2298.67,   -2.0,   0.95707
"76", 4.16, 1,    2300.49,   -2.1,   0.95783
"74", 4.16, 1,    2297.58,   -2.1,   0.95662
"75", 4.16, 1,    2296.96,   -2.1,   0.95636
"77", 4.16, 1,    2303.15,   -2.2,   0.95893
"86", 4.16, 1,    2300.01,   -2.2,   0.95763
"78", 4.16, 1,    2303.86,   -2.2,   0.95923
"79", 4.16, 1,    2303.75,   -2.2,   0.95919
"80", 4.16, 1,    2307.47,   -2.3,   0.96073
"81", 4.16, 1,    2308.89,   -2.3,   0.96132
"82", 4.16, 1,    2311.09,   -2.3,   0.96224
"84", 4.16, 1,    2307.32,   -2.3,   0.96067
"83", 4.16, 1,    2313.41,   -2.3,   0.96321
"85", 4.16, 1,    2306.59,   -2.3,   0.96037
"87", 4.16, 1,    2299.81,   -2.2,   0.95755
"88", 4.16, 1,    2299.84,   -2.2,   0.95756
"89", 4.16, 1,    2299.72,   -2.2,   0.95751
"90", 4.16, 1,    2299.75,   -2.2,   0.95752
"91", 4.16, 1,    2299.57,   -2.2,   0.95745
"92", 4.16, 1,    2299.61,   -2.2,   0.95746
"93", 4.16, 1,    2299.36,   -2.2,   0.95736
"94", 4.16, 1,    2298.93,   -2.2,   0.95718
"95", 4.16, 1,    2299.21,   -2.2,    0.9573
"96", 4.16, 1,    2299.06,   -2.2,   0.95723
"98", 4.16, 1,    2297.92,   -2.0,   0.95676
"99", 4.16, 1,    2297.43,   -2.0,   0.95655
"100", 4.16, 1,    2297.31,   -2.0,    0.9565
"450", 4.16, 1,    2297.31,   -2.0,    0.9565
"197", 4.16, 1,     2298.3,   -2.0,   0.95692
"101", 4.16, 1,    2297.34,   -2.0,   0.95652
"102", 4.16, 1,    2296.46,   -2.0,   0.95615
"105", 4.16, 1,    2296.61,   -2.0,   0.95621
"103", 4.16, 1,    2295.45,   -2.0,   0.95573
"104", 4.16, 1,    2294.37,   -2.0,   0.95528
"106", 4.16, 1,    2295.91,   -2.0,   0.95592
"108", 4.16, 1,    2296.06,   -2.0,   0.95598
"107", 4.16, 1,    2295.02,   -2.0,   0.95555
"109", 4.16, 1,    2293.61,   -2.0,   0.95496
"300", 4.16, 1,    2296.06,   -2.0,   0.95598
"110", 4.16, 1,    2292.44,   -2.1,   0.95448
"111", 4.16, 1,       2292,   -2.1,   0.95429
"112", 4.16, 1,    2292.06,   -2.1,   0.95432
"113", 4.16, 1,    2290.83,   -2.1,   0.95381
"114", 4.16, 1,    2290.58,   -2.1,    0.9537
"135", 4.16, 1,     2368.9,   -1.1,   0.98631
"152", 4.16, 1,    2380.23,   -0.9,   0.99103
"160R", 4.16, 1,    2301.51,   -1.8,   0.95825
"150R", 4.16, 1,       2415,    0.0,    1.0055
"160", 4.16, 1,    2360.51,   -1.8,   0.98282
"610", 4.16, 1,    2360.51,   -1.8,   0.98282
