Bus, BasekV, Node1, Magnitude1, Angle1, pu1
"150", 4.16, 1,       2400,    0.0,   0.99926
"149", 4.16, 1,       2415,    0.0,    1.0055
"1", 4.16, 1,    2403.24,   -0.2,    1.0006
"2", 4.16, 1,    2403.09,   -0.2,    1.0005
"3", 4.16, 1,    2402.15,   -0.2,    1.0002
"7", 4.16, 1,    2395.09,   -0.4,   0.99722
"4", 4.16, 1,     2401.8,   -0.2,         1
"5", 4.16, 1,     2401.3,   -0.2,    0.9998
"6", 4.16, 1,    2400.87,   -0.2,   0.99962
"8", 4.16, 1,    2389.72,   -0.5,   0.99498
"12", 4.16, 1,    2389.52,   -0.5,    0.9949
"9", 4.16, 1,    2389.17,   -0.5,   0.99475
"13", 4.16, 1,    2382.03,   -0.6,   0.99178
"9R", 4.16, 1,     2314.5,   -0.5,   0.96366
"14", 4.16, 1,    2313.35,   -0.5,   0.96318
"34", 4.16, 1,    2381.38,   -0.6,   0.99151
"18", 4.16, 1,    2370.69,   -0.7,   0.98706
"11", 4.16, 1,     2312.9,   -0.5,     0.963
"10", 4.16, 1,    2313.13,   -0.5,   0.96309
"15", 4.16, 1,    2381.11,   -0.6,    0.9914
"16", 4.16, 1,    2380.46,   -0.6,   0.99112
"17", 4.16, 1,    2380.81,   -0.6,   0.99127
"19", 4.16, 1,    2369.81,   -0.7,   0.98669
"21", 4.16, 1,    2369.68,   -0.8,   0.98664
"20", 4.16, 1,    2369.24,   -0.8,   0.98645
"22", 4.16, 1,    2368.76,   -0.8,   0.98625
"23", 4.16, 1,    2368.97,   -0.8,   0.98634
"24", 4.16, 1,       2368,   -0.8,   0.98594
"25", 4.16, 1,    2368.35,   -0.8,   0.98608
"25R", 4.16, 1,    2427.55,   -0.8,    1.0107
"26", 4.16, 1,    2427.16,   -0.8,    1.0106
"28", 4.16, 1,    2368.11,   -0.8,   0.98598
"27", 4.16, 1,    2427.01,   -0.8,    1.0105
"31", 4.16, 1,    2426.77,   -0.8,    1.0104
"33", 4.16, 1,    2426.15,   -0.8,    1.0101
"29", 4.16, 1,    2367.78,   -0.8,   0.98584
"30", 4.16, 1,    2367.59,   -0.8,   0.98577
"250", 4.16, 1,    2367.59,   -0.8,   0.98577
"32", 4.16, 1,    2426.52,   -0.8,    1.0103
"35", 4.16, 1,    2367.22,   -0.8,   0.98561
"36", 4.16, 1,    2366.47,   -0.8,    0.9853
"40", 4.16, 1,    2365.31,   -0.8,   0.98482
"37", 4.16, 1,    2365.94,   -0.8,   0.98508
"38", 4.16, 1,    2366.03,   -0.8,   0.98512
"39", 4.16, 1,    2365.74,   -0.8,     0.985
"41", 4.16, 1,    2365.02,   -0.8,    0.9847
"42", 4.16, 1,    2363.47,   -0.8,   0.98405
"43", 4.16, 1,    2362.58,   -0.8,   0.98368
"44", 4.16, 1,    2362.16,   -0.8,    0.9835
"45", 4.16, 1,    2361.81,   -0.8,   0.98336
"47", 4.16, 1,    2360.66,   -0.8,   0.98288
"46", 4.16, 1,    2361.54,   -0.8,   0.98325
"48", 4.16, 1,    2360.49,   -0.8,   0.98281
"49", 4.16, 1,    2359.89,   -0.8,   0.98256
"50", 4.16, 1,    2359.68,   -0.8,   0.98247
"51", 4.16, 1,    2359.62,   -0.8,   0.98245
"151", 4.16, 1,    2359.62,   -0.8,   0.98245
"52", 4.16, 1,    2377.85,   -0.8,   0.99004
"53", 4.16, 1,    2375.87,   -0.9,   0.98921
"54", 4.16, 1,    2374.71,   -0.9,   0.98873
"55", 4.16, 1,    2374.56,   -0.9,   0.98867
"57", 4.16, 1,    2371.64,   -1.0,   0.98745
"56", 4.16, 1,    2374.48,   -0.9,   0.98864
"58", 4.16, 1,    2371.44,   -1.0,   0.98737
"60", 4.16, 1,    2365.34,   -1.3,   0.98483
"59", 4.16, 1,    2371.22,   -1.0,   0.98728
"61", 4.16, 1,    2365.34,   -1.3,   0.98483
"62", 4.16, 1,       2364,   -1.2,   0.98427
"63", 4.16, 1,    2363.26,   -1.2,   0.98396
"64", 4.16, 1,    2362.15,   -1.2,    0.9835
"65", 4.16, 1,    2361.69,   -1.2,   0.98331
"66", 4.16, 1,    2361.02,   -1.2,   0.98303
"67", 4.16, 1,    2304.69,   -1.4,   0.95958
"68", 4.16, 1,     2303.6,   -1.4,   0.95912
"72", 4.16, 1,    2305.54,   -1.4,   0.95993
"97", 4.16, 1,    2303.26,   -1.4,   0.95898
"69", 4.16, 1,    2302.35,   -1.4,    0.9586
"70", 4.16, 1,    2301.47,   -1.4,   0.95824
"71", 4.16, 1,    2300.97,   -1.4,   0.95803
"73", 4.16, 1,    2304.04,   -1.5,   0.95931
"76", 4.16, 1,     2306.5,   -1.5,   0.96033
"74", 4.16, 1,    2302.77,   -1.5,   0.95878
"75", 4.16, 1,    2302.05,   -1.5,   0.95848
"77", 4.16, 1,    2309.24,   -1.6,   0.96147
"86", 4.16, 1,    2306.06,   -1.5,   0.96015
"78", 4.16, 1,    2309.98,   -1.6,   0.96178
"79", 4.16, 1,    2309.86,   -1.6,   0.96173
"80", 4.16, 1,    2313.78,   -1.7,   0.96336
"81", 4.16, 1,    2315.27,   -1.7,   0.96398
"82", 4.16, 1,    2317.62,   -1.7,   0.96496
"84", 4.16, 1,    2313.44,   -1.7,   0.96322
"83", 4.16, 1,    2320.11,   -1.7,     0.966
"85", 4.16, 1,    2312.59,   -1.7,   0.96286
"87", 4.16, 1,    2305.91,   -1.6,   0.96009
"88", 4.16, 1,    2305.92,   -1.6,   0.96009
"89", 4.16, 1,    2305.77,   -1.6,   0.96003
"90", 4.16, 1,    2305.78,   -1.6,   0.96003
"91", 4.16, 1,    2305.58,   -1.6,   0.95995
"92", 4.16, 1,    2305.59,   -1.6,   0.95995
"93", 4.16, 1,    2305.33,   -1.6,   0.95984
"94", 4.16, 1,    2304.83,   -1.6,   0.95964
"95", 4.16, 1,    2305.16,   -1.6,   0.95977
"96", 4.16, 1,    2304.98,   -1.6,    0.9597
"98", 4.16, 1,    2302.92,   -1.4,   0.95884
"99", 4.16, 1,    2302.56,   -1.4,   0.95869
"100", 4.16, 1,    2302.52,   -1.4,   0.95868
"450", 4.16, 1,    2302.52,   -1.4,   0.95868
"197", 4.16, 1,    2303.26,   -1.4,   0.95898
"101", 4.16, 1,    2302.13,   -1.4,   0.95851
"102", 4.16, 1,    2301.11,   -1.4,   0.95809
"105", 4.16, 1,    2301.28,   -1.4,   0.95816
"103", 4.16, 1,    2299.93,   -1.4,    0.9576
"104", 4.16, 1,    2298.66,   -1.5,   0.95707
"106", 4.16, 1,    2300.47,   -1.5,   0.95782
"108", 4.16, 1,    2300.64,   -1.5,   0.95789
"107", 4.16, 1,    2299.42,   -1.5,   0.95738
"109", 4.16, 1,    2297.78,   -1.5,    0.9567
"300", 4.16, 1,    2300.64,   -1.5,   0.95789
"110", 4.16, 1,    2296.41,   -1.5,   0.95613
"111", 4.16, 1,    2295.89,   -1.5,   0.95591
"112", 4.16, 1,    2295.96,   -1.5,   0.95594
"113", 4.16, 1,    2294.52,   -1.5,   0.95534
"114", 4.16, 1,    2294.23,   -1.5,   0.95522
"135", 4.16, 1,    2370.69,   -0.7,   0.98706
"152", 4.16, 1,    2382.03,   -0.6,   0.99178
"160R", 4.16, 1,    2306.21,   -1.3,   0.96021
"150R", 4.16, 1,       2415,    0.0,    1.0055
"160", 4.16, 1,    2365.34,   -1.3,   0.98483
"610", 4.16, 1,    2365.34,   -1.3,   0.98483
