Bus, BasekV, Node1, Magnitude1, Angle1, pu1
"150", 4.16, 1,       2400,    0.0,   0.99926
"149", 4.16, 1,       2415,    0.0,    1.0055
"1", 4.16, 1,    2402.72,   -0.4,    1.0004
"2", 4.16, 1,    2402.61,   -0.4,    1.0003
"3", 4.16, 1,    2401.92,   -0.4,    1.0001
"7", 4.16, 1,    2394.06,   -0.6,   0.99679
"4", 4.16, 1,    2401.66,   -0.4,   0.99995
"5", 4.16, 1,    2401.29,   -0.4,    0.9998
"6", 4.16, 1,    2400.96,   -0.4,   0.99966
"8", 4.16, 1,    2388.36,   -0.8,   0.99441
"12", 4.16, 1,    2388.21,   -0.8,   0.99435
"9", 4.16, 1,    2387.44,   -0.8,   0.99403
"13", 4.16, 1,    2380.26,   -1.1,   0.99104
"9R", 4.16, 1,    2312.83,   -0.8,   0.96297
"14", 4.16, 1,    2311.97,   -0.8,   0.96261
"34", 4.16, 1,    2379.77,   -1.1,   0.99084
"18", 4.16, 1,    2369.09,   -1.3,   0.98639
"11", 4.16, 1,    2311.64,   -0.8,   0.96247
"10", 4.16, 1,    2311.81,   -0.8,   0.96254
"15", 4.16, 1,    2379.58,   -1.1,   0.99076
"16", 4.16, 1,    2379.09,   -1.1,   0.99055
"17", 4.16, 1,    2379.35,   -1.1,   0.99066
"19", 4.16, 1,    2368.43,   -1.3,   0.98612
"21", 4.16, 1,    2368.18,   -1.3,   0.98601
"20", 4.16, 1,    2368.01,   -1.3,   0.98594
"22", 4.16, 1,    2367.49,   -1.3,   0.98572
"23", 4.16, 1,    2367.52,   -1.3,   0.98574
"24", 4.16, 1,     2366.8,   -1.3,   0.98544
"25", 4.16, 1,    2366.91,   -1.3,   0.98548
"25R", 4.16, 1,    2426.08,   -1.3,    1.0101
"26", 4.16, 1,    2425.79,   -1.4,      1.01
"28", 4.16, 1,    2366.63,   -1.4,   0.98537
"27", 4.16, 1,    2425.68,   -1.4,      1.01
"31", 4.16, 1,     2425.5,   -1.4,    1.0099
"33", 4.16, 1,    2425.04,   -1.4,    1.0097
"29", 4.16, 1,    2366.38,   -1.4,   0.98526
"30", 4.16, 1,    2366.24,   -1.4,   0.98521
"250", 4.16, 1,    2366.24,   -1.4,   0.98521
"32", 4.16, 1,    2425.31,   -1.4,    1.0098
"35", 4.16, 1,    2365.46,   -1.4,   0.98488
"36", 4.16, 1,    2364.91,   -1.4,   0.98465
"40", 4.16, 1,    2363.35,   -1.4,     0.984
"37", 4.16, 1,    2364.51,   -1.4,   0.98448
"38", 4.16, 1,    2364.58,   -1.4,   0.98451
"39", 4.16, 1,    2364.37,   -1.4,   0.98442
"41", 4.16, 1,    2363.13,   -1.4,   0.98391
"42", 4.16, 1,    2361.28,   -1.4,   0.98314
"43", 4.16, 1,    2360.63,   -1.5,   0.98287
"44", 4.16, 1,    2359.76,   -1.5,    0.9825
"45", 4.16, 1,    2359.49,   -1.5,    0.9824
"47", 4.16, 1,    2357.95,   -1.5,   0.98175
"46", 4.16, 1,     2359.3,   -1.5,   0.98231
"48", 4.16, 1,    2357.41,   -1.5,   0.98153
"49", 4.16, 1,    2357.38,   -1.5,   0.98151
"50", 4.16, 1,    2357.23,   -1.5,   0.98145
"51", 4.16, 1,    2357.17,   -1.5,   0.98143
"151", 4.16, 1,    2357.17,   -1.5,   0.98143
"52", 4.16, 1,    2375.36,   -1.3,     0.989
"53", 4.16, 1,       2373,   -1.5,   0.98802
"54", 4.16, 1,    2371.58,   -1.5,   0.98743
"55", 4.16, 1,    2371.47,   -1.5,   0.98738
"57", 4.16, 1,    2367.78,   -1.7,   0.98584
"56", 4.16, 1,    2371.41,   -1.5,   0.98736
"58", 4.16, 1,    2367.34,   -1.7,   0.98566
"60", 4.16, 1,     2360.1,   -2.2,   0.98265
"59", 4.16, 1,    2367.18,   -1.7,   0.98559
"61", 4.16, 1,     2360.1,   -2.2,   0.98265
"62", 4.16, 1,    2357.57,   -2.2,   0.98159
"63", 4.16, 1,    2355.94,   -2.2,   0.98092
"64", 4.16, 1,    2352.97,   -2.2,   0.97968
"65", 4.16, 1,    2350.02,   -2.2,   0.97845
"66", 4.16, 1,    2349.52,   -2.2,   0.97824
"67", 4.16, 1,    2299.24,   -2.3,   0.95731
"68", 4.16, 1,    2298.43,   -2.4,   0.95697
"72", 4.16, 1,    2299.46,   -2.5,    0.9574
"97", 4.16, 1,    2298.04,   -2.4,   0.95681
"69", 4.16, 1,    2297.51,   -2.4,   0.95659
"70", 4.16, 1,    2296.85,   -2.4,   0.95631
"71", 4.16, 1,    2296.48,   -2.4,   0.95616
"73", 4.16, 1,    2298.34,   -2.5,   0.95693
"76", 4.16, 1,    2299.86,   -2.5,   0.95757
"74", 4.16, 1,     2297.4,   -2.5,   0.95654
"75", 4.16, 1,    2296.86,   -2.5,   0.95632
"77", 4.16, 1,    2302.67,   -2.6,   0.95874
"86", 4.16, 1,    2299.48,   -2.6,   0.95741
"78", 4.16, 1,    2303.41,   -2.6,   0.95904
"79", 4.16, 1,    2303.32,   -2.6,   0.95901
"80", 4.16, 1,    2307.14,   -2.7,    0.9606
"81", 4.16, 1,    2308.59,   -2.7,    0.9612
"82", 4.16, 1,    2310.81,   -2.7,   0.96213
"84", 4.16, 1,    2307.23,   -2.7,   0.96063
"83", 4.16, 1,    2313.14,   -2.8,    0.9631
"85", 4.16, 1,    2306.59,   -2.7,   0.96037
"87", 4.16, 1,    2299.33,   -2.6,   0.95734
"88", 4.16, 1,    2299.39,   -2.6,   0.95737
"89", 4.16, 1,     2299.3,   -2.6,   0.95733
"90", 4.16, 1,    2299.39,   -2.7,   0.95737
"91", 4.16, 1,     2299.2,   -2.7,   0.95729
"92", 4.16, 1,     2299.3,   -2.7,   0.95733
"93", 4.16, 1,    2299.01,   -2.7,   0.95721
"94", 4.16, 1,    2298.64,   -2.7,   0.95706
"95", 4.16, 1,    2298.88,   -2.7,   0.95716
"96", 4.16, 1,    2298.75,   -2.7,    0.9571
"98", 4.16, 1,    2297.64,   -2.4,   0.95664
"99", 4.16, 1,    2297.07,   -2.4,   0.95641
"100", 4.16, 1,    2296.89,   -2.4,   0.95633
"450", 4.16, 1,    2296.89,   -2.4,   0.95633
"197", 4.16, 1,    2298.04,   -2.4,   0.95681
"101", 4.16, 1,    2297.21,   -2.4,   0.95646
"102", 4.16, 1,    2296.45,   -2.4,   0.95614
"105", 4.16, 1,    2296.57,   -2.4,    0.9562
"103", 4.16, 1,    2295.57,   -2.4,   0.95578
"104", 4.16, 1,    2294.62,   -2.4,   0.95539
"106", 4.16, 1,    2295.97,   -2.4,   0.95594
"108", 4.16, 1,     2296.1,   -2.4,     0.956
"107", 4.16, 1,    2295.19,   -2.4,   0.95562
"109", 4.16, 1,    2293.97,   -2.4,   0.95511
"300", 4.16, 1,     2296.1,   -2.4,     0.956
"110", 4.16, 1,    2292.95,   -2.4,   0.95469
"111", 4.16, 1,    2292.57,   -2.4,   0.95453
"112", 4.16, 1,    2292.62,   -2.4,   0.95455
"113", 4.16, 1,    2291.55,   -2.5,   0.95411
"114", 4.16, 1,    2291.33,   -2.5,   0.95401
"135", 4.16, 1,    2369.09,   -1.3,   0.98639
"152", 4.16, 1,    2380.26,   -1.1,   0.99104
"160R", 4.16, 1,    2301.11,   -2.2,   0.95808
"150R", 4.16, 1,       2415,    0.0,    1.0055
"160", 4.16, 1,     2360.1,   -2.2,   0.98265
"610", 4.16, 1,     2360.1,   -2.2,   0.98265
