Bus, BasekV, Node1, Magnitude1, Angle1, pu1
"150", 4.16, 1,       2400,    0.0,   0.99926
"149", 4.16, 1,       2415,    0.0,    1.0055
"1", 4.16, 1,    2403.36,   -0.3,    1.0007
"2", 4.16, 1,    2403.23,   -0.3,    1.0006
"3", 4.16, 1,    2402.48,   -0.3,    1.0003
"7", 4.16, 1,    2395.19,   -0.5,   0.99726
"4", 4.16, 1,     2402.2,   -0.3,    1.0002
"5", 4.16, 1,    2401.79,   -0.3,         1
"6", 4.16, 1,    2401.44,   -0.3,   0.99986
"8", 4.16, 1,    2389.82,   -0.7,   0.99502
"12", 4.16, 1,    2389.66,   -0.7,   0.99495
"9", 4.16, 1,    2389.05,   -0.7,    0.9947
"13", 4.16, 1,    2382.16,   -0.9,   0.99183
"9R", 4.16, 1,    2314.39,   -0.7,   0.96362
"14", 4.16, 1,    2313.46,   -0.7,   0.96323
"34", 4.16, 1,    2381.63,   -0.9,   0.99161
"18", 4.16, 1,    2371.29,   -1.1,   0.98731
"11", 4.16, 1,     2313.1,   -0.7,   0.96308
"10", 4.16, 1,    2313.28,   -0.7,   0.96315
"15", 4.16, 1,    2381.42,   -0.9,   0.99152
"16", 4.16, 1,    2380.88,   -0.9,    0.9913
"17", 4.16, 1,    2381.17,   -0.9,   0.99142
"19", 4.16, 1,    2370.58,   -1.1,   0.98701
"21", 4.16, 1,    2370.37,   -1.1,   0.98692
"20", 4.16, 1,    2370.11,   -1.1,   0.98682
"22", 4.16, 1,    2369.62,   -1.1,   0.98661
"23", 4.16, 1,    2369.72,   -1.1,   0.98665
"24", 4.16, 1,    2368.93,   -1.1,   0.98633
"25", 4.16, 1,    2369.12,   -1.1,    0.9864
"25R", 4.16, 1,    2428.35,   -1.1,    1.0111
"26", 4.16, 1,    2428.03,   -1.1,    1.0109
"28", 4.16, 1,    2368.86,   -1.1,    0.9863
"27", 4.16, 1,    2427.91,   -1.1,    1.0109
"31", 4.16, 1,    2427.72,   -1.1,    1.0108
"33", 4.16, 1,    2427.21,   -1.1,    1.0106
"29", 4.16, 1,     2368.6,   -1.1,   0.98619
"30", 4.16, 1,    2368.44,   -1.1,   0.98612
"250", 4.16, 1,    2368.44,   -1.1,   0.98612
"32", 4.16, 1,    2427.51,   -1.1,    1.0107
"35", 4.16, 1,    2367.83,   -1.1,   0.98587
"36", 4.16, 1,    2367.23,   -1.1,   0.98562
"40", 4.16, 1,    2365.86,   -1.1,   0.98504
"37", 4.16, 1,     2366.8,   -1.1,   0.98544
"38", 4.16, 1,    2366.87,   -1.1,   0.98547
"39", 4.16, 1,    2366.64,   -1.1,   0.98537
"41", 4.16, 1,    2365.62,   -1.1,   0.98495
"42", 4.16, 1,    2363.94,   -1.2,   0.98425
"43", 4.16, 1,    2363.22,   -1.2,   0.98395
"44", 4.16, 1,    2362.54,   -1.2,   0.98366
"45", 4.16, 1,    2362.25,   -1.2,   0.98354
"47", 4.16, 1,    2360.89,   -1.2,   0.98298
"46", 4.16, 1,    2362.04,   -1.2,   0.98345
"48", 4.16, 1,     2360.5,   -1.2,   0.98281
"49", 4.16, 1,    2360.27,   -1.2,   0.98272
"50", 4.16, 1,     2360.1,   -1.2,   0.98265
"51", 4.16, 1,    2360.05,   -1.2,   0.98263
"151", 4.16, 1,    2360.05,   -1.2,   0.98263
"52", 4.16, 1,    2377.71,   -1.1,   0.98998
"53", 4.16, 1,    2375.58,   -1.2,   0.98909
"54", 4.16, 1,    2374.31,   -1.3,   0.98856
"55", 4.16, 1,    2374.19,   -1.3,   0.98851
"57", 4.16, 1,    2370.92,   -1.4,   0.98715
"56", 4.16, 1,    2374.13,   -1.3,   0.98849
"58", 4.16, 1,    2370.58,   -1.4,   0.98701
"60", 4.16, 1,    2364.04,   -1.8,   0.98429
"59", 4.16, 1,     2370.4,   -1.4,   0.98694
"61", 4.16, 1,    2364.04,   -1.8,   0.98429
"62", 4.16, 1,       2362,   -1.8,   0.98344
"63", 4.16, 1,    2360.73,   -1.8,   0.98291
"64", 4.16, 1,    2358.51,   -1.8,   0.98199
"65", 4.16, 1,    2356.52,   -1.8,   0.98116
"66", 4.16, 1,    2355.98,   -1.8,   0.98093
"67", 4.16, 1,    2303.29,   -1.9,   0.95899
"68", 4.16, 1,    2302.41,   -1.9,   0.95863
"72", 4.16, 1,    2303.74,   -2.0,   0.95918
"97", 4.16, 1,    2302.05,   -2.0,   0.95848
"69", 4.16, 1,     2301.4,   -2.0,   0.95821
"70", 4.16, 1,    2300.68,   -2.0,   0.95791
"71", 4.16, 1,    2300.28,   -2.0,   0.95774
"73", 4.16, 1,    2302.53,   -2.0,   0.95868
"76", 4.16, 1,    2304.34,   -2.1,   0.95943
"74", 4.16, 1,     2301.5,   -2.0,   0.95825
"75", 4.16, 1,    2300.91,   -2.1,     0.958
"77", 4.16, 1,    2307.07,   -2.2,   0.96057
"86", 4.16, 1,    2303.96,   -2.1,   0.95927
"78", 4.16, 1,    2307.79,   -2.2,   0.96087
"79", 4.16, 1,    2307.69,   -2.2,   0.96083
"80", 4.16, 1,    2311.46,   -2.2,    0.9624
"81", 4.16, 1,    2312.89,   -2.3,   0.96299
"82", 4.16, 1,    2315.11,   -2.3,   0.96391
"84", 4.16, 1,    2311.41,   -2.3,   0.96238
"83", 4.16, 1,    2317.44,   -2.3,   0.96488
"85", 4.16, 1,    2310.72,   -2.3,   0.96209
"87", 4.16, 1,    2303.82,   -2.2,   0.95921
"88", 4.16, 1,    2303.86,   -2.2,   0.95923
"89", 4.16, 1,    2303.75,   -2.2,   0.95919
"90", 4.16, 1,    2303.81,   -2.2,   0.95921
"91", 4.16, 1,    2303.62,   -2.2,   0.95913
"92", 4.16, 1,    2303.69,   -2.2,   0.95916
"93", 4.16, 1,    2303.42,   -2.2,   0.95905
"94", 4.16, 1,    2303.02,   -2.2,   0.95888
"95", 4.16, 1,    2303.28,   -2.2,   0.95899
"96", 4.16, 1,    2303.14,   -2.2,   0.95893
"98", 4.16, 1,    2301.68,   -2.0,   0.95832
"99", 4.16, 1,     2301.2,   -2.0,   0.95812
"100", 4.16, 1,    2301.07,   -2.0,   0.95807
"450", 4.16, 1,    2301.07,   -2.0,   0.95807
"197", 4.16, 1,    2302.05,   -2.0,   0.95848
"101", 4.16, 1,    2301.14,   -2.0,    0.9581
"102", 4.16, 1,    2300.31,   -2.0,   0.95775
"105", 4.16, 1,    2300.45,   -2.0,   0.95781
"103", 4.16, 1,    2299.36,   -2.0,   0.95736
"104", 4.16, 1,    2298.33,   -2.0,   0.95693
"106", 4.16, 1,    2299.79,   -2.0,   0.95754
"108", 4.16, 1,    2299.93,   -2.0,    0.9576
"107", 4.16, 1,    2298.94,   -2.0,   0.95718
"109", 4.16, 1,    2297.61,   -2.0,   0.95663
"300", 4.16, 1,    2299.93,   -2.0,    0.9576
"110", 4.16, 1,    2296.51,   -2.0,   0.95617
"111", 4.16, 1,    2296.09,   -2.0,     0.956
"112", 4.16, 1,    2296.14,   -2.0,   0.95602
"113", 4.16, 1,    2294.98,   -2.0,   0.95554
"114", 4.16, 1,    2294.74,   -2.0,   0.95544
"135", 4.16, 1,    2371.29,   -1.1,   0.98731
"152", 4.16, 1,    2382.16,   -0.9,   0.99183
"160R", 4.16, 1,    2304.94,   -1.8,   0.95968
"150R", 4.16, 1,       2415,    0.0,    1.0055
"160", 4.16, 1,    2364.04,   -1.8,   0.98429
"610", 4.16, 1,    2364.04,   -1.8,   0.98429
