hour, t(sec), kWh,State,kWOut,kWIn,kvarOut,DCkW,kWTotalLosses,kWInvLosses,kWIdlingLosses,kWChDchLosses,kWh Chng,InvEff,InverterON,Vref,Vavg (DRC),VV Oper,VW Oper,DRC Oper,VV_DRC Oper,WP Oper,WV Oper,kWDesired,kW VW Limit,Limit kWOut Function,kVA Exceeded,Grid voltage,di/dt,it,it History,Rated VDC,Avg duty cycle,Target (Amps),Series L,Max. Amps (phase),
1, 0.00000, 40, 0, 0, 0, 0, 0, 0, 0, 0, 0, -24, 1, 1, 9999, 9999, 9999, 9999, 9999, 9999, 9999, 9999, 0, 9999, 16, 0, 0, 0, 0, 0, 8000, 0, 0, 0, 0
2, 0.00000, 40, 0, 0, 0, 0, 0, 0, 0, 0, 0, 0, 1, 1, 9999, 9999, 9999, 9999, 9999, 9999, 9999, 9999, 0, 9999, 16, 0, 0, 0, 0, 0, 8000, 0, 0, 0, 0
3, 0.00000, 40, -1, 0, 4.80003, -3.18568E-005, -4.80003, 0.240002, 0, 0, 0.240002, 0, 1, 1, 9999, 9999, 9999, 9999, 9999, 9999, 9999, 9999, -4.8, 9999, 16, 0, 0, 0, 0, 0, 8000, 0, 0, 0, 0
4, 0.00000, 44.56, -1, 0, 7.19967, 0.000334157, -7.19967, 0.359983, 0, 0, 0.359983, 4.56003, 1, 1, 9999, 9999, 9999, 9999, 9999, 9999, 9999, 9999, -7.2, 9999, 16, 0, 0, 0, 0, 0, 8000, 0, 0, 0, 0
5, 0.00000, 51.3997, -1, 0, 7.99987, 0.000123139, -7.99987, 0.399993, 0, 0, 0.399993, 6.83968, 1, 1, 9999, 9999, 9999, 9999, 9999, 9999, 9999, 9999, -8, 9999, 16, 0, 0, 0, 0, 0, 8000, 0, 0, 0, 0
6, 0.00000, 58.9996, -1, 0, 7.20012, -0.000106104, -7.20012, 0.360006, 0, 0, 0.360006, 7.59987, 1, 1, 9999, 9999, 9999, 9999, 9999, 9999, 9999, 9999, -7.2, 9999, 16, 0, 0, 0, 0, 0, 8000, 0, 0, 0, 0
7, 0.00000, 64, 0, 0, 0, 0, 0, 0, 0, 0, 0, 5.00041, 1, 1, 9999, 9999, 9999, 9999, 9999, 9999, 9999, 9999, -4.8, 9999, 16, 0, 0, 0, 0, 0, 8000, 0, 0, 0, 0
8, 0.00000, 64, 0, 0, 0, 0, 0, 0, 0, 0, 0, 0, 1, 1, 9999, 9999, 9999, 9999, 9999, 9999, 9999, 9999, 0, 9999, 16, 0, 0, 0, 0, 0, 8000, 0, 0, 0, 0
9, 0.00000, 64, 0, 0, 0, 0, 0, 0, 0, 0, 0, 0, 1, 1, 9999, 9999, 9999, 9999, 9999, 9999, 9999, 9999, 0, 9999, 16, 0, 0, 0, 0, 0, 8000, 0, 0, 0, 0
10, 0.00000, 64, 0, 0, 0, 0, 0, 0, 0, 0, 0, 0, 1, 1, 9999, 9999, 9999, 9999, 9999, 9999, 9999, 9999, 0, 9999, 16, 0, 0, 0, 0, 0, 8000, 0, 0, 0, 0
11, 0.00000, 64, 0, 0, 0, 0, 0, 0, 0, 0, 0, 0, 1, 1, 9999, 9999, 9999, 9999, 9999, 9999, 9999, 9999, 0, 9999, 16, 0, 0, 0, 0, 0, 8000, 0, 0, 0, 0
12, 0.00000, 64, 0, 0, 0, 0, 0, 0, 0, 0, 0, 0, 1, 1, 9999, 9999, 9999, 9999, 9999, 9999, 9999, 9999, 0, 9999, 16, 0, 0, 0, 0, 0, 8000, 0, 0, 0, 0
13, 0.00000, 64, 0, 0, 0, 0, 0, 0, 0, 0, 0, 0, 1, 1, 9999, 9999, 9999, 9999, 9999, 9999, 9999, 9999, 0, 9999, 16, 0, 0, 0, 0, 0, 8000, 0, 0, 0, 0
14, 0.00000, 64, 0, 0, 0, 0, 0, 0, 0, 0, 0, 0, 1, 1, 9999, 9999, 9999, 9999, 9999, 9999, 9999, 9999, 0, 9999, 16, 0, 0, 0, 0, 0, 8000, 0, 0, 0, 0
15, 0.00000, 64, 0, 0, 0, 0, 0, 0, 0, 0, 0, 0, 1, 1, 9999, 9999, 9999, 9999, 9999, 9999, 9999, 9999, 0, 9999, 16, 0, 0, 0, 0, 0, 8000, 0, 0, 0, 0
16, 0.00000, 64, 1, 4.79993, 0, -2.38869E-005, 4.79993, 0.252628, 0, 0, 0.252628, 0, 1, 1, 9999, 9999, 9999, 9999, 9999, 9999, 9999, 9999, 4.8, 9999, 16, 0, 0, 0, 0, 0, 8000, 0, 0, 0, 0
17, 0.00000, 58.9474, 1, 8.00004, 0, 1.32136E-005, 8.00004, 0.421055, 0, 0, 0.421055, -5.05255, 1, 1, 9999, 9999, 9999, 9999, 9999, 9999, 9999, 9999, 8, 9999, 16, 0, 0, 0, 0, 0, 8000, 0, 0, 0, 0
18, 0.00000, 50.5263, 1, 12.8001, 0, 4.4662E-005, 12.8001, 0.673692, 0, 0, 0.673692, -8.4211, 1, 1, 9999, 9999, 9999, 9999, 9999, 9999, 9999, 9999, 12.8, 9999, 16, 0, 0, 0, 0, 0, 8000, 0, 0, 0, 0
19, 0.00000, 37.0525, 1, 14.4001, 0, 3.06267E-005, 14.4001, 0.757898, 0, 0, 0.757898, -13.4738, 1, 1, 9999, 9999, 9999, 9999, 9999, 9999, 9999, 9999, 14.4, 9999, 16, 0, 0, 0, 0, 0, 8000, 0, 0, 0, 0
20, 0.00000, 21.8946, 1, 12.7999, 0, -2.77829E-005, 12.7999, 0.673681, 0, 0, 0.673681, -15.158, 1, 1, 9999, 9999, 9999, 9999, 9999, 9999, 9999, 9999, 12.8, 9999, 16, 0, 0, 0, 0, 0, 8000, 0, 0, 0, 0
21, 0.00000, 19.2, 0, 0, 0, 0, 0, 0, 0, 0, 0, -2.69455, 1, 1, 9999, 9999, 9999, 9999, 9999, 9999, 9999, 9999, 8, 9999, 16, 0, 0, 0, 0, 0, 8000, 0, 0, 0, 0
22, 0.00000, 19.2, 0, 0, 0, 0, 0, 0, 0, 0, 0, 0, 1, 1, 9999, 9999, 9999, 9999, 9999, 9999, 9999, 9999, 4.8, 9999, 16, 0, 0, 0, 0, 0, 8000, 0, 0, 0, 0
23, 0.00000, 19.2, 0, 0, 0, 0, 0, 0, 0, 0, 0, 0, 1, 1, 9999, 9999, 9999, 9999, 9999, 9999, 9999, 9999, 0, 9999, 16, 0, 0, 0, 0, 0, 8000, 0, 0, 0, 0
24, 0.00000, 19.2, 0, 0, 0, 0, 0, 0, 0, 0, 0, 0, 1, 1, 9999, 9999, 9999, 9999, 9999, 9999, 9999, 9999, 0, 9999, 16, 0, 0, 0, 0, 0, 8000, 0, 0, 0, 0
