Element, Terminal, P(kW), Q(kvar),  P_Normal, Q_Normal, P_Emergency, Q_Emergency
"Line.L115"             ,   1,       636.9,       432.5,         0.0,         0.0,         0.0,         0.0
"Line.L115"             ,   2,      -634.6,      -427.6
"Line.L1"               ,   1,         6.7,         3.3,         0.0,         0.0,         0.0,         0.0
"Line.L1"               ,   2,        -6.7,        -3.3
"Line.L2"               ,   1,        33.4,        16.7,         0.0,         0.0,         0.0,         0.0
"Line.L2"               ,   2,       -33.3,       -16.7
"Line.L3"               ,   1,       581.2,       401.0,         0.0,         0.0,         0.0,         0.0
"Line.L3"               ,   2,      -579.7,      -397.9
"Line.L4"               ,   1,        13.3,         6.7,         0.0,         0.0,         0.0,         0.0
"Line.L4"               ,   2,       -13.3,        -6.7
"Line.L5"               ,   1,        20.0,        10.0,         0.0,         0.0,         0.0,         0.0
"Line.L5"               ,   2,       -20.0,       -10.0
"Line.L6"               ,   1,        13.3,         6.7,         0.0,         0.0,         0.0,         0.0
"Line.L6"               ,   2,       -13.3,        -6.7
"Line.L7"               ,   1,       573.0,       394.5,         0.0,         0.0,         0.0,         0.0
"Line.L7"               ,   2,      -572.1,      -392.5
"Line.L8"               ,   1,         6.7,         3.3,         0.0,         0.0,         0.0,         0.0
"Line.L8"               ,   2,        -6.7,        -3.3
"Line.L9"               ,   1,         5.6,        16.7,         0.0,         0.0,         0.0,         0.0
"Line.L9"               ,   2,        -5.6,       -16.7
"Line.L10"              ,   1,       559.8,       372.5,         0.0,         0.0,         0.0,         0.0
"Line.L10"              ,   2,      -558.4,      -369.7
"Line.L11"              ,   1,        20.0,        10.0,         0.0,         0.0,         0.0,         0.0
"Line.L11"              ,   2,       -20.0,       -10.0
"Line.L12"              ,   1,        33.4,        16.7,         0.0,         0.0,         0.0,         0.0
"Line.L12"              ,   2,       -33.3,       -16.7
"Line.L13"              ,   1,       199.6,       219.0,         0.0,         0.0,         0.0,         0.0
"Line.L13"              ,   2,      -198.8,      -217.5
"Line.L14"              ,   1,        13.3,         6.7,         0.0,         0.0,         0.0,         0.0
"Line.L14"              ,   2,       -13.3,        -6.7
"Line.L15"              ,   1,         6.7,         3.3,         0.0,         0.0,         0.0,         0.0
"Line.L15"              ,   2,        -6.7,        -3.3
"Line.L16"              ,   1,        13.3,         6.7,         0.0,         0.0,         0.0,         0.0
"Line.L16"              ,   2,       -13.3,        -6.7
"Line.L17"              ,   1,         6.7,         3.3,         0.0,         0.0,         0.0,         0.0
"Line.L17"              ,   2,        -6.7,        -3.3
"Line.L18"              ,   1,        26.7,        13.3,         0.0,         0.0,         0.0,         0.0
"Line.L18"              ,   2,       -26.7,       -13.3
"Line.L19"              ,   1,        65.7,        46.8,         0.0,         0.0,         0.0,         0.0
"Line.L19"              ,   2,       -65.7,       -46.7
"Line.L20"              ,   1,        13.3,         6.7,         0.0,         0.0,         0.0,         0.0
"Line.L20"              ,   2,       -13.3,        -6.7
"Line.L21"              ,   1,        13.3,         6.7,         0.0,         0.0,         0.0,         0.0
"Line.L21"              ,   2,       -13.3,        -6.7
"Line.L22"              ,   1,        52.3,        40.0,         0.0,         0.0,         0.0,         0.0
"Line.L22"              ,   2,       -52.3,       -40.0
"Line.L23"              ,   1,        13.3,         6.7,         0.0,         0.0,         0.0,         0.0
"Line.L23"              ,   2,       -13.3,        -6.7
"Line.L24"              ,   1,        39.0,        33.4,         0.0,         0.0,         0.0,         0.0
"Line.L24"              ,   2,       -39.0,       -33.3
"Line.L25"              ,   1,        26.7,        13.3,         0.0,         0.0,         0.0,         0.0
"Line.L25"              ,   2,       -26.7,       -13.3
"Line.L26"              ,   1,        12.3,        20.0,         0.0,         0.0,         0.0,         0.0
"Line.L26"              ,   2,       -12.3,       -20.0
"Line.L27"              ,   1,        13.3,         6.7,         0.0,         0.0,         0.0,         0.0
"Line.L27"              ,   2,       -13.3,        -6.7
"Line.L28"              ,   1,        13.3,         6.7,         0.0,         0.0,         0.0,         0.0
"Line.L28"              ,   2,       -13.3,        -6.7
"Line.L29"              ,   1,        13.3,         6.7,         0.0,         0.0,         0.0,         0.0
"Line.L29"              ,   2,       -13.3,        -6.7
"Line.L30"              ,   1,        26.7,        13.3,         0.0,         0.0,         0.0,         0.0
"Line.L30"              ,   2,       -26.7,       -13.3
"Line.L31"              ,   1,        13.3,         6.7,         0.0,         0.0,         0.0,         0.0
"Line.L31"              ,   2,       -13.3,        -6.7
"Line.L32"              ,   1,         0.0,        -0.0,         0.0,         0.0,         0.0,         0.0
"Line.L32"              ,   2,        -0.0,         0.0
"Line.L33"              ,   1,         6.7,         3.3,         0.0,         0.0,         0.0,         0.0
"Line.L33"              ,   2,        -6.7,        -3.3
"Line.L34"              ,   1,        20.0,        10.0,         0.0,         0.0,         0.0,         0.0
"Line.L34"              ,   2,       -20.0,       -10.0
"Line.L35"              ,   1,        26.7,        13.3,         0.0,         0.0,         0.0,         0.0
"Line.L35"              ,   2,       -26.7,       -13.3
"Line.L36"              ,   1,        66.3,       137.1,         0.0,         0.0,         0.0,         0.0
"Line.L36"              ,   2,       -66.2,      -137.0
"Line.L37"              ,   1,        13.3,         6.7,         0.0,         0.0,         0.0,         0.0
"Line.L37"              ,   2,       -13.3,        -6.7
"Line.L38"              ,   1,        13.3,         6.7,         0.0,         0.0,         0.0,         0.0
"Line.L38"              ,   2,       -13.3,        -6.7
"Line.L39"              ,   1,         6.7,         3.3,         0.0,         0.0,         0.0,         0.0
"Line.L39"              ,   2,        -6.7,        -3.3
"Line.L40"              ,   1,         6.7,         3.3,         0.0,         0.0,         0.0,         0.0
"Line.L40"              ,   2,        -6.7,        -3.3
"Line.L41"              ,   1,        59.6,       133.7,         0.0,         0.0,         0.0,         0.0
"Line.L41"              ,   2,       -59.5,      -133.5
"Line.L42"              ,   1,        13.3,         6.7,         0.0,         0.0,         0.0,         0.0
"Line.L42"              ,   2,       -13.3,        -6.7
"Line.L43"              ,   1,        39.5,       123.5,         0.0,         0.0,         0.0,         0.0
"Line.L43"              ,   2,       -39.5,      -123.5
"Line.L44"              ,   1,        13.3,         6.7,         0.0,         0.0,         0.0,         0.0
"Line.L44"              ,   2,       -13.3,        -6.7
"Line.L45"              ,   1,        26.1,       116.8,         0.0,         0.0,         0.0,         0.0
"Line.L45"              ,   2,       -26.1,      -116.7
"Line.L46"              ,   1,         6.7,         3.3,         0.0,         0.0,         0.0,         0.0
"Line.L46"              ,   2,        -6.7,        -3.3
"Line.L47"              ,   1,       -75.6,        50.0,         0.0,         0.0,         0.0,         0.0
"Line.L47"              ,   2,        75.6,       -50.0
"Line.L48"              ,   1,        66.7,        41.7,         0.0,         0.0,         0.0,         0.0
"Line.L48"              ,   2,       -66.7,       -41.7
"Line.L49"              ,   1,        20.0,        10.0,         0.0,         0.0,         0.0,         0.0
"Line.L49"              ,   2,       -20.0,       -10.0
"Line.L50"              ,   1,         6.7,         3.3,         0.0,         0.0,         0.0,         0.0
"Line.L50"              ,   2,        -6.7,        -3.3
"Line.L51"              ,   1,         0.0,        -0.0,         0.0,         0.0,         0.0,         0.0
"Line.L51"              ,   2,         0.0,        -0.0
"Line.L52"              ,   1,       311.6,       126.3,         0.0,         0.0,         0.0,         0.0
"Line.L52"              ,   2,      -311.4,      -125.8
"Line.L53"              ,   1,       298.1,       119.1,         0.0,         0.0,         0.0,         0.0
"Line.L53"              ,   2,      -297.9,      -118.8
"Line.L54"              ,   1,        13.3,         6.7,         0.0,         0.0,         0.0,         0.0
"Line.L54"              ,   2,       -13.3,        -6.7
"Line.L55"              ,   1,       284.6,       112.2,         0.0,         0.0,         0.0,         0.0
"Line.L55"              ,   2,      -284.3,      -111.5
"Line.L56"              ,   1,         6.7,         3.3,         0.0,         0.0,         0.0,         0.0
"Line.L56"              ,   2,        -6.7,        -3.3
"Line.L57"              ,   1,        -0.5,         6.7,         0.0,         0.0,         0.0,         0.0
"Line.L57"              ,   2,         0.5,        -6.7
"Line.L58"              ,   1,       284.8,       104.8,         0.0,         0.0,         0.0,         0.0
"Line.L58"              ,   2,      -284.1,      -103.4
"Line.L59"              ,   1,         6.7,         3.3,         0.0,         0.0,         0.0,         0.0
"Line.L59"              ,   2,        -6.7,        -3.3
"Line.L60"              ,   1,         0.0,        -0.0,         0.0,         0.0,         0.0,         0.0
"Line.L60"              ,   2,        -0.0,         0.0
"Line.L61"              ,   1,        26.4,        70.0,         0.0,         0.0,         0.0,         0.0
"Line.L61"              ,   2,       -26.4,       -70.0
"Line.L62"              ,   1,        13.0,        63.3,         0.0,         0.0,         0.0,         0.0
"Line.L62"              ,   2,       -13.0,       -63.3
"Line.L63"              ,   1,        -0.3,        56.6,         0.0,         0.0,         0.0,         0.0
"Line.L63"              ,   2,         0.4,       -56.6
"Line.L64"              ,   1,       -25.4,        45.0,         0.0,         0.0,         0.0,         0.0
"Line.L64"              ,   2,        25.4,       -45.0
"Line.L65"              ,   1,        25.0,        11.6,         0.0,         0.0,         0.0,         0.0
"Line.L65"              ,   2,       -25.0,       -11.7
"Line.L66"              ,   1,        40.1,        20.0,         0.0,         0.0,         0.0,         0.0
"Line.L66"              ,   2,       -40.0,       -20.0
"Line.L67"              ,   1,        91.5,       -64.2,         0.0,         0.0,         0.0,         0.0
"Line.L67"              ,   2,       -91.4,        64.3
"Line.L68"              ,   1,       119.2,        73.7,         0.0,         0.0,         0.0,         0.0
"Line.L68"              ,   2,      -119.2,       -73.6
"Line.L69"              ,   1,        33.4,        16.7,         0.0,         0.0,         0.0,         0.0
"Line.L69"              ,   2,       -33.3,       -16.7
"Line.L70"              ,   1,        20.0,        10.0,         0.0,         0.0,         0.0,         0.0
"Line.L70"              ,   2,       -20.0,       -10.0
"Line.L71"              ,   1,        13.3,         6.7,         0.0,         0.0,         0.0,         0.0
"Line.L71"              ,   2,       -13.3,        -6.7
"Line.L72"              ,   1,        40.1,        20.0,         0.0,         0.0,         0.0,         0.0
"Line.L72"              ,   2,       -40.0,       -20.0
"Line.L73"              ,   1,        51.4,       -84.3,         0.0,         0.0,         0.0,         0.0
"Line.L73"              ,   2,       -51.3,        84.4
"Line.L74"              ,   1,        26.7,        13.4,         0.0,         0.0,         0.0,         0.0
"Line.L74"              ,   2,       -26.7,       -13.3
"Line.L75"              ,   1,        13.3,         6.7,         0.0,         0.0,         0.0,         0.0
"Line.L75"              ,   2,       -13.3,        -6.7
"Line.L76"              ,   1,        80.5,      -142.5,         0.0,         0.0,         0.0,         0.0
"Line.L76"              ,   2,       -80.4,       142.7
"Line.L77"              ,   1,        59.0,        -1.9,         0.0,         0.0,         0.0,         0.0
"Line.L77"              ,   2,       -59.0,         2.0
"Line.L78"              ,   1,        67.1,      -149.4,         0.0,         0.0,         0.0,         0.0
"Line.L78"              ,   2,       -67.1,       149.5
"Line.L79"              ,   1,        13.3,         6.7,         0.0,         0.0,         0.0,         0.0
"Line.L79"              ,   2,       -13.3,        -6.7
"Line.L80"              ,   1,        53.7,      -156.1,         0.0,         0.0,         0.0,         0.0
"Line.L80"              ,   2,       -53.6,       156.4
"Line.L81"              ,   1,        40.3,      -163.1,         0.0,         0.0,         0.0,         0.0
"Line.L81"              ,   2,       -40.2,       163.2
"Line.L82"              ,   1,        20.2,      -173.2,         0.0,         0.0,         0.0,         0.0
"Line.L82"              ,   2,       -20.1,       173.4
"Line.L83"              ,   1,        20.0,        10.0,         0.0,         0.0,         0.0,         0.0
"Line.L83"              ,   2,       -20.0,       -10.0
"Line.L84"              ,   1,         6.8,      -180.1,         0.0,         0.0,         0.0,         0.0
"Line.L84"              ,   2,        -6.7,       180.2
"Line.L85"              ,   1,        13.3,         6.7,         0.0,         0.0,         0.0,         0.0
"Line.L85"              ,   2,       -13.3,        -6.7
"Line.L86"              ,   1,        52.3,        -5.3,         0.0,         0.0,         0.0,         0.0
"Line.L86"              ,   2,       -52.3,         5.3
"Line.L87"              ,   1,        13.3,        -8.5,         0.0,         0.0,         0.0,         0.0
"Line.L87"              ,   2,       -13.3,         8.5
"Line.L88"              ,   1,        53.4,        -3.5,         0.0,         0.0,         0.0,         0.0
"Line.L88"              ,   2,       -53.4,         3.5
"Line.L89"              ,   1,        13.3,        -8.4,         0.0,         0.0,         0.0,         0.0
"Line.L89"              ,   2,       -13.3,         8.5
"Line.L90"              ,   1,        40.0,         4.9,         0.0,         0.0,         0.0,         0.0
"Line.L90"              ,   2,       -40.0,        -4.9
"Line.L91"              ,   1,        13.3,        -8.4,         0.0,         0.0,         0.0,         0.0
"Line.L91"              ,   2,       -13.3,         8.4
"Line.L92"              ,   1,        26.7,        13.3,         0.0,         0.0,         0.0,         0.0
"Line.L92"              ,   2,       -26.7,       -13.3
"Line.L93"              ,   1,        13.3,         6.7,         0.0,         0.0,         0.0,         0.0
"Line.L93"              ,   2,       -13.3,        -6.7
"Line.L94"              ,   1,        13.3,         6.7,         0.0,         0.0,         0.0,         0.0
"Line.L94"              ,   2,       -13.3,        -6.7
"Line.L95"              ,   1,         6.7,         3.3,         0.0,         0.0,         0.0,         0.0
"Line.L95"              ,   2,        -6.7,        -3.3
"Line.L96"              ,   1,        12.3,        20.0,         0.0,         0.0,         0.0,         0.0
"Line.L96"              ,   2,       -12.3,       -20.0
"Line.L97"              ,   1,        -1.1,        13.3,         0.0,         0.0,         0.0,         0.0
"Line.L97"              ,   2,         1.1,       -13.3
"Line.L98"              ,   1,       -14.4,         6.7,         0.0,         0.0,         0.0,         0.0
"Line.L98"              ,   2,        14.4,        -6.7
"Line.L99"              ,   1,         0.0,        -0.0,         0.0,         0.0,         0.0,         0.0
"Line.L99"              ,   2,         0.0,        -0.0
"Line.L118"             ,   1,       106.9,        53.6,         0.0,         0.0,         0.0,         0.0
"Line.L118"             ,   2,      -106.9,       -53.5
"Line.L100"             ,   1,        33.4,        16.7,         0.0,         0.0,         0.0,         0.0
"Line.L100"             ,   2,       -33.4,       -16.7
"Line.L101"             ,   1,        73.5,        36.8,         0.0,         0.0,         0.0,         0.0
"Line.L101"             ,   2,       -73.5,       -36.8
"Line.L102"             ,   1,        26.7,        13.4,         0.0,         0.0,         0.0,         0.0
"Line.L102"             ,   2,       -26.7,       -13.3
"Line.L103"             ,   1,        13.3,         6.7,         0.0,         0.0,         0.0,         0.0
"Line.L103"             ,   2,       -13.3,        -6.7
"Line.L104"             ,   1,        26.7,        13.3,         0.0,         0.0,         0.0,         0.0
"Line.L104"             ,   2,       -26.7,       -13.3
"Line.L105"             ,   1,        46.8,        23.4,         0.0,         0.0,         0.0,         0.0
"Line.L105"             ,   2,       -46.8,       -23.4
"Line.L106"             ,   1,        13.3,         6.7,         0.0,         0.0,         0.0,         0.0
"Line.L106"             ,   2,       -13.3,        -6.7
"Line.L107"             ,   1,        46.8,        23.4,         0.0,         0.0,         0.0,         0.0
"Line.L107"             ,   2,       -46.7,       -23.4
"Line.L108"             ,   1,         0.0,        -0.0,         0.0,         0.0,         0.0,         0.0
"Line.L108"             ,   2,         0.0,         0.0
"Line.L109"             ,   1,        33.4,        16.7,         0.0,         0.0,         0.0,         0.0
"Line.L109"             ,   2,       -33.4,       -16.7
"Line.L110"             ,   1,         6.7,         3.3,         0.0,         0.0,         0.0,         0.0
"Line.L110"             ,   2,        -6.7,        -3.3
"Line.L111"             ,   1,        26.7,        13.4,         0.0,         0.0,         0.0,         0.0
"Line.L111"             ,   2,       -26.7,       -13.3
"Line.L112"             ,   1,        20.0,        10.0,         0.0,         0.0,         0.0,         0.0
"Line.L112"             ,   2,       -20.0,       -10.0
"Line.L113"             ,   1,         6.7,         3.3,         0.0,         0.0,         0.0,         0.0
"Line.L113"             ,   2,        -6.7,        -3.3
"Line.L114"             ,   1,       106.5,       157.4,         0.0,         0.0,         0.0,         0.0
"Line.L114"             ,   2,      -106.3,      -157.1
"Line.L116"             ,   1,       325.5,       134.0,         0.0,         0.0,         0.0,         0.0
"Line.L116"             ,   2,      -325.0,      -132.9
"Line.L117"             ,   1,       251.0,        30.0,         0.0,         0.0,         0.0,         0.0
"Line.L117"             ,   2,      -250.7,       -29.5
"Line.SW1"              ,   1,       636.9,       432.5,         0.0,         0.0,         0.0,         0.0
"Line.SW1"              ,   2,      -636.9,      -432.5
"Line.SW2"              ,   1,       325.5,       134.0,         0.0,         0.0,         0.0,         0.0
"Line.SW2"              ,   2,      -325.5,      -134.0
"Line.SW3"              ,   1,       106.5,       157.4,         0.0,         0.0,         0.0,         0.0
"Line.SW3"              ,   2,      -106.5,      -157.4
