Element, Terminal, P(kW), Q(kvar),  P_Normal, Q_Normal, P_Emergency, Q_Emergency
"Line.L115"             ,   1,       618.3,       174.0,         0.0,         0.0,         0.0,         0.0
"Line.L115"             ,   2,      -616.6,      -170.7
"Line.L1"               ,   1,         4.1,         2.0,         0.0,         0.0,         0.0,         0.0
"Line.L1"               ,   2,        -4.1,        -2.0
"Line.L2"               ,   1,        20.4,        10.2,         0.0,         0.0,         0.0,         0.0
"Line.L2"               ,   2,       -20.4,       -10.2
"Line.L3"               ,   1,       583.9,       154.3,         0.0,         0.0,         0.0,         0.0
"Line.L3"               ,   2,      -582.8,      -152.1
"Line.L4"               ,   1,         8.2,         4.1,         0.0,         0.0,         0.0,         0.0
"Line.L4"               ,   2,        -8.2,        -4.1
"Line.L5"               ,   1,        12.3,         6.1,         0.0,         0.0,         0.0,         0.0
"Line.L5"               ,   2,       -12.3,        -6.1
"Line.L6"               ,   1,         8.2,         4.1,         0.0,         0.0,         0.0,         0.0
"Line.L6"               ,   2,        -8.2,        -4.1
"Line.L7"               ,   1,       578.8,       150.0,         0.0,         0.0,         0.0,         0.0
"Line.L7"               ,   2,      -578.0,      -148.6
"Line.L8"               ,   1,         4.1,         2.0,         0.0,         0.0,         0.0,         0.0
"Line.L8"               ,   2,        -4.1,        -2.0
"Line.L9"               ,   1,        15.1,        10.2,         0.0,         0.0,         0.0,         0.0
"Line.L9"               ,   2,       -15.1,       -10.2
"Line.L10"              ,   1,       558.8,       136.3,         0.0,         0.0,         0.0,         0.0
"Line.L10"              ,   2,      -557.8,      -134.2
"Line.L11"              ,   1,        12.3,         6.1,         0.0,         0.0,         0.0,         0.0
"Line.L11"              ,   2,       -12.3,        -6.1
"Line.L12"              ,   1,        20.4,        10.2,         0.0,         0.0,         0.0,         0.0
"Line.L12"              ,   2,       -20.4,       -10.2
"Line.L13"              ,   1,       195.3,       134.3,         0.0,         0.0,         0.0,         0.0
"Line.L13"              ,   2,      -194.8,      -133.3
"Line.L14"              ,   1,         8.2,         4.1,         0.0,         0.0,         0.0,         0.0
"Line.L14"              ,   2,        -8.2,        -4.1
"Line.L15"              ,   1,         4.1,         2.0,         0.0,         0.0,         0.0,         0.0
"Line.L15"              ,   2,        -4.1,        -2.0
"Line.L16"              ,   1,         8.2,         4.1,         0.0,         0.0,         0.0,         0.0
"Line.L16"              ,   2,        -8.2,        -4.1
"Line.L17"              ,   1,         4.1,         2.0,         0.0,         0.0,         0.0,         0.0
"Line.L17"              ,   2,        -4.1,        -2.0
"Line.L18"              ,   1,        16.4,         8.2,         0.0,         0.0,         0.0,         0.0
"Line.L18"              ,   2,       -16.3,        -8.2
"Line.L19"              ,   1,        51.9,        28.6,         0.0,         0.0,         0.0,         0.0
"Line.L19"              ,   2,       -51.9,       -28.6
"Line.L20"              ,   1,         8.2,         4.1,         0.0,         0.0,         0.0,         0.0
"Line.L20"              ,   2,        -8.2,        -4.1
"Line.L21"              ,   1,         8.2,         4.1,         0.0,         0.0,         0.0,         0.0
"Line.L21"              ,   2,        -8.2,        -4.1
"Line.L22"              ,   1,        43.7,        24.5,         0.0,         0.0,         0.0,         0.0
"Line.L22"              ,   2,       -43.7,       -24.5
"Line.L23"              ,   1,         8.2,         4.1,         0.0,         0.0,         0.0,         0.0
"Line.L23"              ,   2,        -8.2,        -4.1
"Line.L24"              ,   1,        35.5,        20.4,         0.0,         0.0,         0.0,         0.0
"Line.L24"              ,   2,       -35.5,       -20.4
"Line.L25"              ,   1,        16.4,         8.2,         0.0,         0.0,         0.0,         0.0
"Line.L25"              ,   2,       -16.3,        -8.2
"Line.L26"              ,   1,        19.2,        12.3,         0.0,         0.0,         0.0,         0.0
"Line.L26"              ,   2,       -19.2,       -12.3
"Line.L27"              ,   1,         8.2,         4.1,         0.0,         0.0,         0.0,         0.0
"Line.L27"              ,   2,        -8.2,        -4.1
"Line.L28"              ,   1,         8.2,         4.1,         0.0,         0.0,         0.0,         0.0
"Line.L28"              ,   2,        -8.2,        -4.1
"Line.L29"              ,   1,         8.2,         4.1,         0.0,         0.0,         0.0,         0.0
"Line.L29"              ,   2,        -8.2,        -4.1
"Line.L30"              ,   1,        16.3,         8.2,         0.0,         0.0,         0.0,         0.0
"Line.L30"              ,   2,       -16.3,        -8.2
"Line.L31"              ,   1,         8.2,         4.1,         0.0,         0.0,         0.0,         0.0
"Line.L31"              ,   2,        -8.2,        -4.1
"Line.L32"              ,   1,         0.0,        -0.0,         0.0,         0.0,         0.0,         0.0
"Line.L32"              ,   2,        -0.0,         0.0
"Line.L33"              ,   1,         4.1,         2.0,         0.0,         0.0,         0.0,         0.0
"Line.L33"              ,   2,        -4.1,        -2.0
"Line.L34"              ,   1,        12.3,         6.1,         0.0,         0.0,         0.0,         0.0
"Line.L34"              ,   2,       -12.3,        -6.1
"Line.L35"              ,   1,        16.4,         8.2,         0.0,         0.0,         0.0,         0.0
"Line.L35"              ,   2,       -16.3,        -8.2
"Line.L36"              ,   1,       101.9,        84.1,         0.0,         0.0,         0.0,         0.0
"Line.L36"              ,   2,      -101.9,       -84.0
"Line.L37"              ,   1,         8.2,         4.1,         0.0,         0.0,         0.0,         0.0
"Line.L37"              ,   2,        -8.2,        -4.1
"Line.L38"              ,   1,         8.2,         4.1,         0.0,         0.0,         0.0,         0.0
"Line.L38"              ,   2,        -8.2,        -4.1
"Line.L39"              ,   1,         4.1,         2.0,         0.0,         0.0,         0.0,         0.0
"Line.L39"              ,   2,        -4.1,        -2.0
"Line.L40"              ,   1,         4.1,         2.0,         0.0,         0.0,         0.0,         0.0
"Line.L40"              ,   2,        -4.1,        -2.0
"Line.L41"              ,   1,        97.8,        81.9,         0.0,         0.0,         0.0,         0.0
"Line.L41"              ,   2,       -97.7,       -81.8
"Line.L42"              ,   1,         8.2,         4.1,         0.0,         0.0,         0.0,         0.0
"Line.L42"              ,   2,        -8.2,        -4.1
"Line.L43"              ,   1,        85.5,        75.7,         0.0,         0.0,         0.0,         0.0
"Line.L43"              ,   2,       -85.4,       -75.7
"Line.L44"              ,   1,         8.2,         4.1,         0.0,         0.0,         0.0,         0.0
"Line.L44"              ,   2,        -8.2,        -4.1
"Line.L45"              ,   1,        77.3,        71.6,         0.0,         0.0,         0.0,         0.0
"Line.L45"              ,   2,       -77.2,       -71.5
"Line.L46"              ,   1,         4.1,         2.0,         0.0,         0.0,         0.0,         0.0
"Line.L46"              ,   2,        -4.1,        -2.0
"Line.L47"              ,   1,        14.9,        30.7,         0.0,         0.0,         0.0,         0.0
"Line.L47"              ,   2,       -14.9,       -30.6
"Line.L48"              ,   1,        40.9,        25.5,         0.0,         0.0,         0.0,         0.0
"Line.L48"              ,   2,       -40.9,       -25.5
"Line.L49"              ,   1,        12.3,         6.1,         0.0,         0.0,         0.0,         0.0
"Line.L49"              ,   2,       -12.3,        -6.1
"Line.L50"              ,   1,         4.1,         2.0,         0.0,         0.0,         0.0,         0.0
"Line.L50"              ,   2,        -4.1,        -2.0
"Line.L51"              ,   1,         0.0,        -0.0,         0.0,         0.0,         0.0,         0.0
"Line.L51"              ,   2,         0.0,         0.0
"Line.L52"              ,   1,       333.5,       -15.3,         0.0,         0.0,         0.0,         0.0
"Line.L52"              ,   2,      -333.3,        15.8
"Line.L53"              ,   1,       325.1,       -19.9,         0.0,         0.0,         0.0,         0.0
"Line.L53"              ,   2,      -324.9,        20.2
"Line.L54"              ,   1,         8.2,         4.1,         0.0,         0.0,         0.0,         0.0
"Line.L54"              ,   2,        -8.2,        -4.1
"Line.L55"              ,   1,       316.8,       -24.2,         0.0,         0.0,         0.0,         0.0
"Line.L55"              ,   2,      -316.4,        25.0
"Line.L56"              ,   1,         4.1,         2.0,         0.0,         0.0,         0.0,         0.0
"Line.L56"              ,   2,        -4.1,        -2.0
"Line.L57"              ,   1,         5.5,         4.1,         0.0,         0.0,         0.0,         0.0
"Line.L57"              ,   2,        -5.5,        -4.1
"Line.L58"              ,   1,       310.9,       -29.1,         0.0,         0.0,         0.0,         0.0
"Line.L58"              ,   2,      -310.2,        30.6
"Line.L59"              ,   1,         4.1,         2.0,         0.0,         0.0,         0.0,         0.0
"Line.L59"              ,   2,        -4.1,        -2.0
"Line.L60"              ,   1,         0.0,        -0.0,         0.0,         0.0,         0.0,         0.0
"Line.L60"              ,   2,        -0.0,         0.0
"Line.L61"              ,   1,        57.1,        42.9,         0.0,         0.0,         0.0,         0.0
"Line.L61"              ,   2,       -57.0,       -42.9
"Line.L62"              ,   1,        48.8,        38.8,         0.0,         0.0,         0.0,         0.0
"Line.L62"              ,   2,       -48.8,       -38.8
"Line.L63"              ,   1,        40.6,        34.7,         0.0,         0.0,         0.0,         0.0
"Line.L63"              ,   2,       -40.6,       -34.7
"Line.L64"              ,   1,        25.3,        27.5,         0.0,         0.0,         0.0,         0.0
"Line.L64"              ,   2,       -25.3,       -27.6
"Line.L65"              ,   1,        15.3,         7.1,         0.0,         0.0,         0.0,         0.0
"Line.L65"              ,   2,       -15.3,        -7.2
"Line.L66"              ,   1,        24.5,        12.3,         0.0,         0.0,         0.0,         0.0
"Line.L66"              ,   2,       -24.5,       -12.3
"Line.L67"              ,   1,       139.5,      -133.4,         0.0,         0.0,         0.0,         0.0
"Line.L67"              ,   2,      -139.4,       133.6
"Line.L68"              ,   1,        84.7,        45.1,         0.0,         0.0,         0.0,         0.0
"Line.L68"              ,   2,       -84.7,       -45.0
"Line.L69"              ,   1,        20.4,        10.2,         0.0,         0.0,         0.0,         0.0
"Line.L69"              ,   2,       -20.4,       -10.2
"Line.L70"              ,   1,        12.3,         6.1,         0.0,         0.0,         0.0,         0.0
"Line.L70"              ,   2,       -12.3,        -6.1
"Line.L71"              ,   1,         8.2,         4.1,         0.0,         0.0,         0.0,         0.0
"Line.L71"              ,   2,        -8.2,        -4.1
"Line.L72"              ,   1,        24.5,        12.3,         0.0,         0.0,         0.0,         0.0
"Line.L72"              ,   2,       -24.5,       -12.3
"Line.L73"              ,   1,       114.9,      -145.9,         0.0,         0.0,         0.0,         0.0
"Line.L73"              ,   2,      -114.8,       146.0
"Line.L74"              ,   1,        16.4,         8.2,         0.0,         0.0,         0.0,         0.0
"Line.L74"              ,   2,       -16.3,        -8.2
"Line.L75"              ,   1,         8.2,         4.1,         0.0,         0.0,         0.0,         0.0
"Line.L75"              ,   2,        -8.2,        -4.1
"Line.L76"              ,   1,        49.6,      -162.8,         0.0,         0.0,         0.0,         0.0
"Line.L76"              ,   2,       -49.5,       163.1
"Line.L77"              ,   1,        47.8,       -19.9,         0.0,         0.0,         0.0,         0.0
"Line.L77"              ,   2,       -47.8,        20.0
"Line.L78"              ,   1,        41.3,      -167.2,         0.0,         0.0,         0.0,         0.0
"Line.L78"              ,   2,       -41.3,       167.2
"Line.L79"              ,   1,         8.2,         4.1,         0.0,         0.0,         0.0,         0.0
"Line.L79"              ,   2,        -8.2,        -4.1
"Line.L80"              ,   1,        33.1,      -171.3,         0.0,         0.0,         0.0,         0.0
"Line.L80"              ,   2,       -32.9,       171.6
"Line.L81"              ,   1,        24.8,      -175.7,         0.0,         0.0,         0.0,         0.0
"Line.L81"              ,   2,       -24.7,       175.8
"Line.L82"              ,   1,        12.4,      -182.0,         0.0,         0.0,         0.0,         0.0
"Line.L82"              ,   2,       -12.4,       182.2
"Line.L83"              ,   1,        12.3,         6.1,         0.0,         0.0,         0.0,         0.0
"Line.L83"              ,   2,       -12.3,        -6.1
"Line.L84"              ,   1,         4.2,      -186.2,         0.0,         0.0,         0.0,         0.0
"Line.L84"              ,   2,        -4.1,       186.4
"Line.L85"              ,   1,         8.2,         4.1,         0.0,         0.0,         0.0,         0.0
"Line.L85"              ,   2,        -8.2,        -4.1
"Line.L86"              ,   1,        43.7,       -22.0,         0.0,         0.0,         0.0,         0.0
"Line.L86"              ,   2,       -43.7,        22.0
"Line.L87"              ,   1,         8.2,       -11.4,         0.0,         0.0,         0.0,         0.0
"Line.L87"              ,   2,        -8.2,        11.4
"Line.L88"              ,   1,        32.7,       -14.7,         0.0,         0.0,         0.0,         0.0
"Line.L88"              ,   2,       -32.7,        14.7
"Line.L89"              ,   1,         8.2,       -11.4,         0.0,         0.0,         0.0,         0.0
"Line.L89"              ,   2,        -8.2,        11.4
"Line.L90"              ,   1,        24.5,        -3.3,         0.0,         0.0,         0.0,         0.0
"Line.L90"              ,   2,       -24.5,         3.3
"Line.L91"              ,   1,         8.2,       -11.4,         0.0,         0.0,         0.0,         0.0
"Line.L91"              ,   2,        -8.2,        11.4
"Line.L92"              ,   1,        16.3,         8.2,         0.0,         0.0,         0.0,         0.0
"Line.L92"              ,   2,       -16.3,        -8.2
"Line.L93"              ,   1,         8.2,         4.1,         0.0,         0.0,         0.0,         0.0
"Line.L93"              ,   2,        -8.2,        -4.1
"Line.L94"              ,   1,         8.2,         4.1,         0.0,         0.0,         0.0,         0.0
"Line.L94"              ,   2,        -8.2,        -4.1
"Line.L95"              ,   1,         4.1,         2.0,         0.0,         0.0,         0.0,         0.0
"Line.L95"              ,   2,        -4.1,        -2.0
"Line.L96"              ,   1,        19.2,        12.3,         0.0,         0.0,         0.0,         0.0
"Line.L96"              ,   2,       -19.2,       -12.3
"Line.L97"              ,   1,        11.0,         8.2,         0.0,         0.0,         0.0,         0.0
"Line.L97"              ,   2,       -11.0,        -8.2
"Line.L98"              ,   1,         2.8,         4.1,         0.0,         0.0,         0.0,         0.0
"Line.L98"              ,   2,        -2.8,        -4.1
"Line.L99"              ,   1,         0.0,        -0.0,         0.0,         0.0,         0.0,         0.0
"Line.L99"              ,   2,         0.0,         0.0
"Line.L118"             ,   1,        65.5,        32.8,         0.0,         0.0,         0.0,         0.0
"Line.L118"             ,   2,       -65.4,       -32.7
"Line.L100"             ,   1,        20.4,        10.2,         0.0,         0.0,         0.0,         0.0
"Line.L100"             ,   2,       -20.4,       -10.2
"Line.L101"             ,   1,        45.0,        22.5,         0.0,         0.0,         0.0,         0.0
"Line.L101"             ,   2,       -45.0,       -22.5
"Line.L102"             ,   1,        16.4,         8.2,         0.0,         0.0,         0.0,         0.0
"Line.L102"             ,   2,       -16.3,        -8.2
"Line.L103"             ,   1,         8.2,         4.1,         0.0,         0.0,         0.0,         0.0
"Line.L103"             ,   2,        -8.2,        -4.1
"Line.L104"             ,   1,        16.4,         8.2,         0.0,         0.0,         0.0,         0.0
"Line.L104"             ,   2,       -16.3,        -8.2
"Line.L105"             ,   1,        28.6,        14.3,         0.0,         0.0,         0.0,         0.0
"Line.L105"             ,   2,       -28.6,       -14.3
"Line.L106"             ,   1,         8.2,         4.1,         0.0,         0.0,         0.0,         0.0
"Line.L106"             ,   2,        -8.2,        -4.1
"Line.L107"             ,   1,        28.6,        14.3,         0.0,         0.0,         0.0,         0.0
"Line.L107"             ,   2,       -28.6,       -14.3
"Line.L108"             ,   1,         0.0,        -0.0,         0.0,         0.0,         0.0,         0.0
"Line.L108"             ,   2,         0.0,         0.0
"Line.L109"             ,   1,        20.4,        10.2,         0.0,         0.0,         0.0,         0.0
"Line.L109"             ,   2,       -20.4,       -10.2
"Line.L110"             ,   1,         4.1,         2.0,         0.0,         0.0,         0.0,         0.0
"Line.L110"             ,   2,        -4.1,        -2.0
"Line.L111"             ,   1,        16.4,         8.2,         0.0,         0.0,         0.0,         0.0
"Line.L111"             ,   2,       -16.4,        -8.2
"Line.L112"             ,   1,        12.3,         6.1,         0.0,         0.0,         0.0,         0.0
"Line.L112"             ,   2,       -12.3,        -6.1
"Line.L113"             ,   1,         4.1,         2.0,         0.0,         0.0,         0.0,         0.0
"Line.L113"             ,   2,        -4.1,        -2.0
"Line.L114"             ,   1,       126.5,        96.5,         0.0,         0.0,         0.0,         0.0
"Line.L114"             ,   2,      -126.4,       -96.3
"Line.L116"             ,   1,       342.1,       -10.3,         0.0,         0.0,         0.0,         0.0
"Line.L116"             ,   2,      -341.7,        11.2
"Line.L117"             ,   1,       249.0,       -75.5,         0.0,         0.0,         0.0,         0.0
"Line.L117"             ,   2,      -248.8,        76.0
"Line.SW1"              ,   1,       618.3,       174.0,         0.0,         0.0,         0.0,         0.0
"Line.SW1"              ,   2,      -618.3,      -174.0
"Line.SW2"              ,   1,       342.1,       -10.3,         0.0,         0.0,         0.0,         0.0
"Line.SW2"              ,   2,      -342.1,        10.3
"Line.SW3"              ,   1,       126.5,        96.5,         0.0,         0.0,         0.0,         0.0
"Line.SW3"              ,   2,      -126.5,       -96.5
