Element, Terminal, P(kW), Q(kvar),  P_Normal, Q_Normal, P_Emergency, Q_Emergency
"Line.L115"             ,   1,       667.4,       292.1,         0.0,         0.0,         0.0,         0.0
"Line.L115"             ,   2,      -665.3,      -287.8
"Line.L1"               ,   1,         5.2,         2.6,         0.0,         0.0,         0.0,         0.0
"Line.L1"               ,   2,        -5.2,        -2.6
"Line.L2"               ,   1,        26.2,        13.1,         0.0,         0.0,         0.0,         0.0
"Line.L2"               ,   2,       -26.2,       -13.1
"Line.L3"               ,   1,       623.3,       266.8,         0.0,         0.0,         0.0,         0.0
"Line.L3"               ,   2,      -621.9,      -264.0
"Line.L4"               ,   1,        10.5,         5.2,         0.0,         0.0,         0.0,         0.0
"Line.L4"               ,   2,       -10.5,        -5.2
"Line.L5"               ,   1,        15.7,         7.9,         0.0,         0.0,         0.0,         0.0
"Line.L5"               ,   2,       -15.7,        -7.9
"Line.L6"               ,   1,        10.5,         5.2,         0.0,         0.0,         0.0,         0.0
"Line.L6"               ,   2,       -10.5,        -5.2
"Line.L7"               ,   1,       616.7,       261.4,         0.0,         0.0,         0.0,         0.0
"Line.L7"               ,   2,      -615.8,      -259.5
"Line.L8"               ,   1,         5.2,         2.6,         0.0,         0.0,         0.0,         0.0
"Line.L8"               ,   2,        -5.2,        -2.6
"Line.L9"               ,   1,        12.9,        13.1,         0.0,         0.0,         0.0,         0.0
"Line.L9"               ,   2,       -12.9,       -13.1
"Line.L10"              ,   1,       597.6,       243.7,         0.0,         0.0,         0.0,         0.0
"Line.L10"              ,   2,      -596.4,      -241.2
"Line.L11"              ,   1,        15.7,         7.9,         0.0,         0.0,         0.0,         0.0
"Line.L11"              ,   2,       -15.7,        -7.9
"Line.L12"              ,   1,        26.2,        13.1,         0.0,         0.0,         0.0,         0.0
"Line.L12"              ,   2,       -26.2,       -13.1
"Line.L13"              ,   1,       210.2,       172.5,         0.0,         0.0,         0.0,         0.0
"Line.L13"              ,   2,      -209.5,      -171.2
"Line.L14"              ,   1,        10.5,         5.2,         0.0,         0.0,         0.0,         0.0
"Line.L14"              ,   2,       -10.5,        -5.2
"Line.L15"              ,   1,         5.2,         2.6,         0.0,         0.0,         0.0,         0.0
"Line.L15"              ,   2,        -5.2,        -2.6
"Line.L16"              ,   1,        10.5,         5.2,         0.0,         0.0,         0.0,         0.0
"Line.L16"              ,   2,       -10.5,        -5.2
"Line.L17"              ,   1,         5.2,         2.6,         0.0,         0.0,         0.0,         0.0
"Line.L17"              ,   2,        -5.2,        -2.6
"Line.L18"              ,   1,        21.0,        10.5,         0.0,         0.0,         0.0,         0.0
"Line.L18"              ,   2,       -21.0,       -10.5
"Line.L19"              ,   1,        60.2,        36.8,         0.0,         0.0,         0.0,         0.0
"Line.L19"              ,   2,       -60.2,       -36.8
"Line.L20"              ,   1,        10.5,         5.2,         0.0,         0.0,         0.0,         0.0
"Line.L20"              ,   2,       -10.5,        -5.2
"Line.L21"              ,   1,        10.5,         5.2,         0.0,         0.0,         0.0,         0.0
"Line.L21"              ,   2,       -10.5,        -5.2
"Line.L22"              ,   1,        49.7,        31.5,         0.0,         0.0,         0.0,         0.0
"Line.L22"              ,   2,       -49.6,       -31.5
"Line.L23"              ,   1,        10.5,         5.2,         0.0,         0.0,         0.0,         0.0
"Line.L23"              ,   2,       -10.5,        -5.2
"Line.L24"              ,   1,        39.2,        26.2,         0.0,         0.0,         0.0,         0.0
"Line.L24"              ,   2,       -39.1,       -26.2
"Line.L25"              ,   1,        21.0,        10.5,         0.0,         0.0,         0.0,         0.0
"Line.L25"              ,   2,       -21.0,       -10.5
"Line.L26"              ,   1,        18.2,        15.7,         0.0,         0.0,         0.0,         0.0
"Line.L26"              ,   2,       -18.2,       -15.7
"Line.L27"              ,   1,        10.5,         5.2,         0.0,         0.0,         0.0,         0.0
"Line.L27"              ,   2,       -10.5,        -5.2
"Line.L28"              ,   1,        10.5,         5.2,         0.0,         0.0,         0.0,         0.0
"Line.L28"              ,   2,       -10.5,        -5.2
"Line.L29"              ,   1,        10.5,         5.2,         0.0,         0.0,         0.0,         0.0
"Line.L29"              ,   2,       -10.5,        -5.2
"Line.L30"              ,   1,        21.0,        10.5,         0.0,         0.0,         0.0,         0.0
"Line.L30"              ,   2,       -21.0,       -10.5
"Line.L31"              ,   1,        10.5,         5.2,         0.0,         0.0,         0.0,         0.0
"Line.L31"              ,   2,       -10.5,        -5.2
"Line.L32"              ,   1,         0.0,        -0.0,         0.0,         0.0,         0.0,         0.0
"Line.L32"              ,   2,        -0.0,        -0.0
"Line.L33"              ,   1,         5.2,         2.6,         0.0,         0.0,         0.0,         0.0
"Line.L33"              ,   2,        -5.2,        -2.6
"Line.L34"              ,   1,        15.7,         7.9,         0.0,         0.0,         0.0,         0.0
"Line.L34"              ,   2,       -15.7,        -7.9
"Line.L35"              ,   1,        21.0,        10.5,         0.0,         0.0,         0.0,         0.0
"Line.L35"              ,   2,       -21.0,       -10.5
"Line.L36"              ,   1,        96.8,       107.9,         0.0,         0.0,         0.0,         0.0
"Line.L36"              ,   2,       -96.7,      -107.8
"Line.L37"              ,   1,        10.5,         5.2,         0.0,         0.0,         0.0,         0.0
"Line.L37"              ,   2,       -10.5,        -5.2
"Line.L38"              ,   1,        10.5,         5.2,         0.0,         0.0,         0.0,         0.0
"Line.L38"              ,   2,       -10.5,        -5.2
"Line.L39"              ,   1,         5.2,         2.6,         0.0,         0.0,         0.0,         0.0
"Line.L39"              ,   2,        -5.2,        -2.6
"Line.L40"              ,   1,         5.2,         2.6,         0.0,         0.0,         0.0,         0.0
"Line.L40"              ,   2,        -5.2,        -2.6
"Line.L41"              ,   1,        91.5,       105.2,         0.0,         0.0,         0.0,         0.0
"Line.L41"              ,   2,       -91.4,      -105.1
"Line.L42"              ,   1,        10.5,         5.2,         0.0,         0.0,         0.0,         0.0
"Line.L42"              ,   2,       -10.5,        -5.2
"Line.L43"              ,   1,        75.7,        97.2,         0.0,         0.0,         0.0,         0.0
"Line.L43"              ,   2,       -75.6,       -97.1
"Line.L44"              ,   1,        10.5,         5.2,         0.0,         0.0,         0.0,         0.0
"Line.L44"              ,   2,       -10.5,        -5.2
"Line.L45"              ,   1,        65.1,        91.9,         0.0,         0.0,         0.0,         0.0
"Line.L45"              ,   2,       -65.1,       -91.8
"Line.L46"              ,   1,         5.2,         2.6,         0.0,         0.0,         0.0,         0.0
"Line.L46"              ,   2,        -5.2,        -2.6
"Line.L47"              ,   1,       -14.9,        39.4,         0.0,         0.0,         0.0,         0.0
"Line.L47"              ,   2,        14.9,       -39.3
"Line.L48"              ,   1,        52.5,        32.8,         0.0,         0.0,         0.0,         0.0
"Line.L48"              ,   2,       -52.5,       -32.8
"Line.L49"              ,   1,        15.7,         7.9,         0.0,         0.0,         0.0,         0.0
"Line.L49"              ,   2,       -15.7,        -7.9
"Line.L50"              ,   1,         5.2,         2.6,         0.0,         0.0,         0.0,         0.0
"Line.L50"              ,   2,        -5.2,        -2.6
"Line.L51"              ,   1,         0.0,        -0.0,         0.0,         0.0,         0.0,         0.0
"Line.L51"              ,   2,         0.0,         0.0
"Line.L52"              ,   1,       348.9,        49.2,         0.0,         0.0,         0.0,         0.0
"Line.L52"              ,   2,      -348.7,       -48.7
"Line.L53"              ,   1,       338.2,        43.5,         0.0,         0.0,         0.0,         0.0
"Line.L53"              ,   2,      -338.0,       -43.1
"Line.L54"              ,   1,        10.5,         5.2,         0.0,         0.0,         0.0,         0.0
"Line.L54"              ,   2,       -10.5,        -5.2
"Line.L55"              ,   1,       327.5,        37.9,         0.0,         0.0,         0.0,         0.0
"Line.L55"              ,   2,      -327.1,       -37.1
"Line.L56"              ,   1,         5.2,         2.6,         0.0,         0.0,         0.0,         0.0
"Line.L56"              ,   2,        -5.2,        -2.6
"Line.L57"              ,   1,         3.8,         5.2,         0.0,         0.0,         0.0,         0.0
"Line.L57"              ,   2,        -3.8,        -5.2
"Line.L58"              ,   1,       323.3,        31.9,         0.0,         0.0,         0.0,         0.0
"Line.L58"              ,   2,      -322.5,       -30.2
"Line.L59"              ,   1,         5.2,         2.6,         0.0,         0.0,         0.0,         0.0
"Line.L59"              ,   2,        -5.2,        -2.6
"Line.L60"              ,   1,         0.0,        -0.0,         0.0,         0.0,         0.0,         0.0
"Line.L60"              ,   2,        -0.0,         0.0
"Line.L61"              ,   1,        50.5,        55.0,         0.0,         0.0,         0.0,         0.0
"Line.L61"              ,   2,       -50.5,       -55.0
"Line.L62"              ,   1,        40.0,        49.8,         0.0,         0.0,         0.0,         0.0
"Line.L62"              ,   2,       -40.0,       -49.8
"Line.L63"              ,   1,        29.5,        44.5,         0.0,         0.0,         0.0,         0.0
"Line.L63"              ,   2,       -29.4,       -44.6
"Line.L64"              ,   1,         9.8,        35.4,         0.0,         0.0,         0.0,         0.0
"Line.L64"              ,   2,        -9.7,       -35.4
"Line.L65"              ,   1,        19.7,         9.2,         0.0,         0.0,         0.0,         0.0
"Line.L65"              ,   2,       -19.7,        -9.2
"Line.L66"              ,   1,        31.5,        15.8,         0.0,         0.0,         0.0,         0.0
"Line.L66"              ,   2,       -31.5,       -15.8
"Line.L67"              ,   1,       132.7,      -101.7,         0.0,         0.0,         0.0,         0.0
"Line.L67"              ,   2,      -132.6,       101.9
"Line.L68"              ,   1,       102.3,        57.9,         0.0,         0.0,         0.0,         0.0
"Line.L68"              ,   2,      -102.2,       -57.9
"Line.L69"              ,   1,        26.2,        13.1,         0.0,         0.0,         0.0,         0.0
"Line.L69"              ,   2,       -26.2,       -13.1
"Line.L70"              ,   1,        15.7,         7.9,         0.0,         0.0,         0.0,         0.0
"Line.L70"              ,   2,       -15.7,        -7.9
"Line.L71"              ,   1,        10.5,         5.2,         0.0,         0.0,         0.0,         0.0
"Line.L71"              ,   2,       -10.5,        -5.2
"Line.L72"              ,   1,        31.5,        15.8,         0.0,         0.0,         0.0,         0.0
"Line.L72"              ,   2,       -31.5,       -15.7
"Line.L73"              ,   1,       101.1,      -117.7,         0.0,         0.0,         0.0,         0.0
"Line.L73"              ,   2,      -101.0,       117.8
"Line.L74"              ,   1,        21.0,        10.5,         0.0,         0.0,         0.0,         0.0
"Line.L74"              ,   2,       -21.0,       -10.5
"Line.L75"              ,   1,        10.5,         5.2,         0.0,         0.0,         0.0,         0.0
"Line.L75"              ,   2,       -10.5,        -5.2
"Line.L76"              ,   1,        63.5,      -153.3,         0.0,         0.0,         0.0,         0.0
"Line.L76"              ,   2,       -63.4,       153.5
"Line.L77"              ,   1,        54.9,       -11.7,         0.0,         0.0,         0.0,         0.0
"Line.L77"              ,   2,       -54.9,        11.8
"Line.L78"              ,   1,        52.9,      -158.8,         0.0,         0.0,         0.0,         0.0
"Line.L78"              ,   2,       -52.9,       158.8
"Line.L79"              ,   1,        10.5,         5.2,         0.0,         0.0,         0.0,         0.0
"Line.L79"              ,   2,       -10.5,        -5.2
"Line.L80"              ,   1,        42.4,      -164.1,         0.0,         0.0,         0.0,         0.0
"Line.L80"              ,   2,       -42.2,       164.4
"Line.L81"              ,   1,        31.7,      -169.6,         0.0,         0.0,         0.0,         0.0
"Line.L81"              ,   2,       -31.7,       169.7
"Line.L82"              ,   1,        15.9,      -177.6,         0.0,         0.0,         0.0,         0.0
"Line.L82"              ,   2,       -15.8,       177.8
"Line.L83"              ,   1,        15.8,         7.9,         0.0,         0.0,         0.0,         0.0
"Line.L83"              ,   2,       -15.7,        -7.9
"Line.L84"              ,   1,         5.3,      -183.0,         0.0,         0.0,         0.0,         0.0
"Line.L84"              ,   2,        -5.2,       183.2
"Line.L85"              ,   1,        10.5,         5.2,         0.0,         0.0,         0.0,         0.0
"Line.L85"              ,   2,       -10.5,        -5.2
"Line.L86"              ,   1,        49.7,       -14.4,         0.0,         0.0,         0.0,         0.0
"Line.L86"              ,   2,       -49.6,        14.4
"Line.L87"              ,   1,        10.5,       -10.1,         0.0,         0.0,         0.0,         0.0
"Line.L87"              ,   2,       -10.5,        10.1
"Line.L88"              ,   1,        42.0,        -9.6,         0.0,         0.0,         0.0,         0.0
"Line.L88"              ,   2,       -42.0,         9.6
"Line.L89"              ,   1,        10.5,       -10.1,         0.0,         0.0,         0.0,         0.0
"Line.L89"              ,   2,       -10.5,        10.1
"Line.L90"              ,   1,        31.5,         0.4,         0.0,         0.0,         0.0,         0.0
"Line.L90"              ,   2,       -31.5,        -0.4
"Line.L91"              ,   1,        10.5,       -10.1,         0.0,         0.0,         0.0,         0.0
"Line.L91"              ,   2,       -10.5,        10.1
"Line.L92"              ,   1,        21.0,        10.5,         0.0,         0.0,         0.0,         0.0
"Line.L92"              ,   2,       -21.0,       -10.5
"Line.L93"              ,   1,        10.5,         5.2,         0.0,         0.0,         0.0,         0.0
"Line.L93"              ,   2,       -10.5,        -5.2
"Line.L94"              ,   1,        10.5,         5.2,         0.0,         0.0,         0.0,         0.0
"Line.L94"              ,   2,       -10.5,        -5.2
"Line.L95"              ,   1,         5.2,         2.6,         0.0,         0.0,         0.0,         0.0
"Line.L95"              ,   2,        -5.2,        -2.6
"Line.L96"              ,   1,        18.1,        15.7,         0.0,         0.0,         0.0,         0.0
"Line.L96"              ,   2,       -18.1,       -15.7
"Line.L97"              ,   1,         7.7,        10.5,         0.0,         0.0,         0.0,         0.0
"Line.L97"              ,   2,        -7.7,       -10.5
"Line.L98"              ,   1,        -2.8,         5.2,         0.0,         0.0,         0.0,         0.0
"Line.L98"              ,   2,         2.8,        -5.2
"Line.L99"              ,   1,         0.0,        -0.0,         0.0,         0.0,         0.0,         0.0
"Line.L99"              ,   2,         0.0,        -0.0
"Line.L118"             ,   1,        84.1,        42.1,         0.0,         0.0,         0.0,         0.0
"Line.L118"             ,   2,       -84.1,       -42.1
"Line.L100"             ,   1,        26.3,        13.1,         0.0,         0.0,         0.0,         0.0
"Line.L100"             ,   2,       -26.2,       -13.1
"Line.L101"             ,   1,        57.8,        28.9,         0.0,         0.0,         0.0,         0.0
"Line.L101"             ,   2,       -57.8,       -28.9
"Line.L102"             ,   1,        21.0,        10.5,         0.0,         0.0,         0.0,         0.0
"Line.L102"             ,   2,       -21.0,       -10.5
"Line.L103"             ,   1,        10.5,         5.2,         0.0,         0.0,         0.0,         0.0
"Line.L103"             ,   2,       -10.5,        -5.2
"Line.L104"             ,   1,        21.0,        10.5,         0.0,         0.0,         0.0,         0.0
"Line.L104"             ,   2,       -21.0,       -10.5
"Line.L105"             ,   1,        36.8,        18.4,         0.0,         0.0,         0.0,         0.0
"Line.L105"             ,   2,       -36.8,       -18.4
"Line.L106"             ,   1,        10.5,         5.2,         0.0,         0.0,         0.0,         0.0
"Line.L106"             ,   2,       -10.5,        -5.2
"Line.L107"             ,   1,        36.8,        18.4,         0.0,         0.0,         0.0,         0.0
"Line.L107"             ,   2,       -36.7,       -18.4
"Line.L108"             ,   1,         0.0,        -0.0,         0.0,         0.0,         0.0,         0.0
"Line.L108"             ,   2,         0.0,         0.0
"Line.L109"             ,   1,        26.3,        13.1,         0.0,         0.0,         0.0,         0.0
"Line.L109"             ,   2,       -26.2,       -13.1
"Line.L110"             ,   1,         5.2,         2.6,         0.0,         0.0,         0.0,         0.0
"Line.L110"             ,   2,        -5.2,        -2.6
"Line.L111"             ,   1,        21.0,        10.5,         0.0,         0.0,         0.0,         0.0
"Line.L111"             ,   2,       -21.0,       -10.5
"Line.L112"             ,   1,        15.7,         7.9,         0.0,         0.0,         0.0,         0.0
"Line.L112"             ,   2,       -15.7,        -7.9
"Line.L113"             ,   1,         5.2,         2.6,         0.0,         0.0,         0.0,         0.0
"Line.L113"             ,   2,        -5.2,        -2.6
"Line.L114"             ,   1,       128.4,       123.9,         0.0,         0.0,         0.0,         0.0
"Line.L114"             ,   2,      -128.3,      -123.7
"Line.L116"             ,   1,       359.9,        55.6,         0.0,         0.0,         0.0,         0.0
"Line.L116"             ,   2,      -359.4,       -54.5
"Line.L117"             ,   1,       266.7,       -27.5,         0.0,         0.0,         0.0,         0.0
"Line.L117"             ,   2,      -266.4,        28.0
"Line.SW1"              ,   1,       667.4,       292.1,         0.0,         0.0,         0.0,         0.0
"Line.SW1"              ,   2,      -667.4,      -292.1
"Line.SW2"              ,   1,       359.9,        55.6,         0.0,         0.0,         0.0,         0.0
"Line.SW2"              ,   2,      -359.9,       -55.6
"Line.SW3"              ,   1,       128.4,       123.9,         0.0,         0.0,         0.0,         0.0
"Line.SW3"              ,   2,      -128.4,      -123.9
