Element, Terminal, P(kW), Q(kvar),  P_Normal, Q_Normal, P_Emergency, Q_Emergency
"Line.L115"             ,   1,       669.8,       275.3,         0.0,         0.0,         0.0,         0.0
"Line.L115"             ,   2,      -667.7,      -271.0
"Line.L1"               ,   1,         5.3,         2.6,         0.0,         0.0,         0.0,         0.0
"Line.L1"               ,   2,        -5.3,        -2.6
"Line.L2"               ,   1,        26.3,        13.2,         0.0,         0.0,         0.0,         0.0
"Line.L2"               ,   2,       -26.3,       -13.2
"Line.L3"               ,   1,       625.6,       249.9,         0.0,         0.0,         0.0,         0.0
"Line.L3"               ,   2,      -624.3,      -247.1
"Line.L4"               ,   1,        10.5,         5.3,         0.0,         0.0,         0.0,         0.0
"Line.L4"               ,   2,       -10.5,        -5.3
"Line.L5"               ,   1,        15.8,         7.9,         0.0,         0.0,         0.0,         0.0
"Line.L5"               ,   2,       -15.8,        -7.9
"Line.L6"               ,   1,        10.5,         5.3,         0.0,         0.0,         0.0,         0.0
"Line.L6"               ,   2,       -10.5,        -5.3
"Line.L7"               ,   1,       619.0,       244.5,         0.0,         0.0,         0.0,         0.0
"Line.L7"               ,   2,      -618.1,      -242.7
"Line.L8"               ,   1,         5.3,         2.6,         0.0,         0.0,         0.0,         0.0
"Line.L8"               ,   2,        -5.3,        -2.6
"Line.L9"               ,   1,        13.0,        13.2,         0.0,         0.0,         0.0,         0.0
"Line.L9"               ,   2,       -13.0,       -13.2
"Line.L10"              ,   1,       599.9,       226.9,         0.0,         0.0,         0.0,         0.0
"Line.L10"              ,   2,      -598.6,      -224.3
"Line.L11"              ,   1,        15.8,         7.9,         0.0,         0.0,         0.0,         0.0
"Line.L11"              ,   2,       -15.8,        -7.9
"Line.L12"              ,   1,        26.3,        13.2,         0.0,         0.0,         0.0,         0.0
"Line.L12"              ,   2,       -26.3,       -13.2
"Line.L13"              ,   1,       210.9,       172.9,         0.0,         0.0,         0.0,         0.0
"Line.L13"              ,   2,      -210.3,      -171.6
"Line.L14"              ,   1,        10.5,         5.3,         0.0,         0.0,         0.0,         0.0
"Line.L14"              ,   2,       -10.5,        -5.3
"Line.L15"              ,   1,         5.3,         2.6,         0.0,         0.0,         0.0,         0.0
"Line.L15"              ,   2,        -5.3,        -2.6
"Line.L16"              ,   1,        10.5,         5.3,         0.0,         0.0,         0.0,         0.0
"Line.L16"              ,   2,       -10.5,        -5.3
"Line.L17"              ,   1,         5.3,         2.6,         0.0,         0.0,         0.0,         0.0
"Line.L17"              ,   2,        -5.3,        -2.6
"Line.L18"              ,   1,        21.0,        10.5,         0.0,         0.0,         0.0,         0.0
"Line.L18"              ,   2,       -21.0,       -10.5
"Line.L19"              ,   1,        60.4,        36.9,         0.0,         0.0,         0.0,         0.0
"Line.L19"              ,   2,       -60.3,       -36.8
"Line.L20"              ,   1,        10.5,         5.3,         0.0,         0.0,         0.0,         0.0
"Line.L20"              ,   2,       -10.5,        -5.3
"Line.L21"              ,   1,        10.5,         5.3,         0.0,         0.0,         0.0,         0.0
"Line.L21"              ,   2,       -10.5,        -5.3
"Line.L22"              ,   1,        49.8,        31.6,         0.0,         0.0,         0.0,         0.0
"Line.L22"              ,   2,       -49.8,       -31.6
"Line.L23"              ,   1,        10.5,         5.3,         0.0,         0.0,         0.0,         0.0
"Line.L23"              ,   2,       -10.5,        -5.3
"Line.L24"              ,   1,        39.3,        26.3,         0.0,         0.0,         0.0,         0.0
"Line.L24"              ,   2,       -39.3,       -26.3
"Line.L25"              ,   1,        21.0,        10.5,         0.0,         0.0,         0.0,         0.0
"Line.L25"              ,   2,       -21.0,       -10.5
"Line.L26"              ,   1,        18.2,        15.8,         0.0,         0.0,         0.0,         0.0
"Line.L26"              ,   2,       -18.2,       -15.8
"Line.L27"              ,   1,        10.5,         5.3,         0.0,         0.0,         0.0,         0.0
"Line.L27"              ,   2,       -10.5,        -5.3
"Line.L28"              ,   1,        10.5,         5.3,         0.0,         0.0,         0.0,         0.0
"Line.L28"              ,   2,       -10.5,        -5.3
"Line.L29"              ,   1,        10.5,         5.3,         0.0,         0.0,         0.0,         0.0
"Line.L29"              ,   2,       -10.5,        -5.3
"Line.L30"              ,   1,        21.0,        10.5,         0.0,         0.0,         0.0,         0.0
"Line.L30"              ,   2,       -21.0,       -10.5
"Line.L31"              ,   1,        10.5,         5.3,         0.0,         0.0,         0.0,         0.0
"Line.L31"              ,   2,       -10.5,        -5.3
"Line.L32"              ,   1,         0.0,        -0.0,         0.0,         0.0,         0.0,         0.0
"Line.L32"              ,   2,         0.0,         0.0
"Line.L33"              ,   1,         5.3,         2.6,         0.0,         0.0,         0.0,         0.0
"Line.L33"              ,   2,        -5.3,        -2.6
"Line.L34"              ,   1,        15.8,         7.9,         0.0,         0.0,         0.0,         0.0
"Line.L34"              ,   2,       -15.8,        -7.9
"Line.L35"              ,   1,        21.0,        10.5,         0.0,         0.0,         0.0,         0.0
"Line.L35"              ,   2,       -21.0,       -10.5
"Line.L36"              ,   1,        97.2,       108.2,         0.0,         0.0,         0.0,         0.0
"Line.L36"              ,   2,       -97.1,      -108.1
"Line.L37"              ,   1,        10.5,         5.3,         0.0,         0.0,         0.0,         0.0
"Line.L37"              ,   2,       -10.5,        -5.3
"Line.L38"              ,   1,        10.5,         5.3,         0.0,         0.0,         0.0,         0.0
"Line.L38"              ,   2,       -10.5,        -5.3
"Line.L39"              ,   1,         5.3,         2.6,         0.0,         0.0,         0.0,         0.0
"Line.L39"              ,   2,        -5.3,        -2.6
"Line.L40"              ,   1,         5.3,         2.6,         0.0,         0.0,         0.0,         0.0
"Line.L40"              ,   2,        -5.3,        -2.6
"Line.L41"              ,   1,        91.9,       105.4,         0.0,         0.0,         0.0,         0.0
"Line.L41"              ,   2,       -91.8,      -105.3
"Line.L42"              ,   1,        10.5,         5.3,         0.0,         0.0,         0.0,         0.0
"Line.L42"              ,   2,       -10.5,        -5.3
"Line.L43"              ,   1,        76.0,        97.5,         0.0,         0.0,         0.0,         0.0
"Line.L43"              ,   2,       -76.0,       -97.4
"Line.L44"              ,   1,        10.5,         5.3,         0.0,         0.0,         0.0,         0.0
"Line.L44"              ,   2,       -10.5,        -5.3
"Line.L45"              ,   1,        65.5,        92.1,         0.0,         0.0,         0.0,         0.0
"Line.L45"              ,   2,       -65.5,       -92.1
"Line.L46"              ,   1,         5.3,         2.6,         0.0,         0.0,         0.0,         0.0
"Line.L46"              ,   2,        -5.3,        -2.6
"Line.L47"              ,   1,       -14.8,        39.5,         0.0,         0.0,         0.0,         0.0
"Line.L47"              ,   2,        14.8,       -39.4
"Line.L48"              ,   1,        52.6,        32.9,         0.0,         0.0,         0.0,         0.0
"Line.L48"              ,   2,       -52.6,       -32.9
"Line.L49"              ,   1,        15.8,         7.9,         0.0,         0.0,         0.0,         0.0
"Line.L49"              ,   2,       -15.8,        -7.9
"Line.L50"              ,   1,         5.3,         2.6,         0.0,         0.0,         0.0,         0.0
"Line.L50"              ,   2,        -5.3,        -2.6
"Line.L51"              ,   1,         0.0,        -0.0,         0.0,         0.0,         0.0,         0.0
"Line.L51"              ,   2,         0.0,         0.0
"Line.L52"              ,   1,       350.3,        31.9,         0.0,         0.0,         0.0,         0.0
"Line.L52"              ,   2,      -350.1,       -31.4
"Line.L53"              ,   1,       339.6,        26.1,         0.0,         0.0,         0.0,         0.0
"Line.L53"              ,   2,      -339.4,       -25.8
"Line.L54"              ,   1,        10.5,         5.3,         0.0,         0.0,         0.0,         0.0
"Line.L54"              ,   2,       -10.5,        -5.3
"Line.L55"              ,   1,       328.9,        20.6,         0.0,         0.0,         0.0,         0.0
"Line.L55"              ,   2,      -328.5,       -19.8
"Line.L56"              ,   1,         5.3,         2.6,         0.0,         0.0,         0.0,         0.0
"Line.L56"              ,   2,        -5.3,        -2.6
"Line.L57"              ,   1,         3.9,         5.3,         0.0,         0.0,         0.0,         0.0
"Line.L57"              ,   2,        -3.9,        -5.3
"Line.L58"              ,   1,       324.6,        14.5,         0.0,         0.0,         0.0,         0.0
"Line.L58"              ,   2,      -323.8,       -12.8
"Line.L59"              ,   1,         5.3,         2.6,         0.0,         0.0,         0.0,         0.0
"Line.L59"              ,   2,        -5.3,        -2.6
"Line.L60"              ,   1,         0.0,        -0.0,         0.0,         0.0,         0.0,         0.0
"Line.L60"              ,   2,        -0.0,         0.0
"Line.L61"              ,   1,        50.8,        55.2,         0.0,         0.0,         0.0,         0.0
"Line.L61"              ,   2,       -50.7,       -55.2
"Line.L62"              ,   1,        40.2,        49.9,         0.0,         0.0,         0.0,         0.0
"Line.L62"              ,   2,       -40.2,       -49.9
"Line.L63"              ,   1,        29.7,        44.7,         0.0,         0.0,         0.0,         0.0
"Line.L63"              ,   2,       -29.6,       -44.7
"Line.L64"              ,   1,         9.9,        35.5,         0.0,         0.0,         0.0,         0.0
"Line.L64"              ,   2,        -9.9,       -35.5
"Line.L65"              ,   1,        19.7,         9.2,         0.0,         0.0,         0.0,         0.0
"Line.L65"              ,   2,       -19.7,        -9.2
"Line.L66"              ,   1,        31.6,        15.8,         0.0,         0.0,         0.0,         0.0
"Line.L66"              ,   2,       -31.6,       -15.8
"Line.L67"              ,   1,       133.4,      -119.4,         0.0,         0.0,         0.0,         0.0
"Line.L67"              ,   2,      -133.3,       119.6
"Line.L68"              ,   1,       102.6,        58.1,         0.0,         0.0,         0.0,         0.0
"Line.L68"              ,   2,      -102.5,       -58.0
"Line.L69"              ,   1,        26.3,        13.2,         0.0,         0.0,         0.0,         0.0
"Line.L69"              ,   2,       -26.3,       -13.2
"Line.L70"              ,   1,        15.8,         7.9,         0.0,         0.0,         0.0,         0.0
"Line.L70"              ,   2,       -15.8,        -7.9
"Line.L71"              ,   1,        10.5,         5.3,         0.0,         0.0,         0.0,         0.0
"Line.L71"              ,   2,       -10.5,        -5.3
"Line.L72"              ,   1,        31.6,        15.8,         0.0,         0.0,         0.0,         0.0
"Line.L72"              ,   2,       -31.6,       -15.8
"Line.L73"              ,   1,       101.7,      -135.4,         0.0,         0.0,         0.0,         0.0
"Line.L73"              ,   2,      -101.6,       135.6
"Line.L74"              ,   1,        21.1,        10.5,         0.0,         0.0,         0.0,         0.0
"Line.L74"              ,   2,       -21.0,       -10.5
"Line.L75"              ,   1,        10.5,         5.3,         0.0,         0.0,         0.0,         0.0
"Line.L75"              ,   2,       -10.5,        -5.3
"Line.L76"              ,   1,        63.7,      -167.2,         0.0,         0.0,         0.0,         0.0
"Line.L76"              ,   2,       -63.6,       167.5
"Line.L77"              ,   1,        55.1,       -15.7,         0.0,         0.0,         0.0,         0.0
"Line.L77"              ,   2,       -55.1,        15.8
"Line.L78"              ,   1,        53.1,      -172.7,         0.0,         0.0,         0.0,         0.0
"Line.L78"              ,   2,       -53.1,       172.8
"Line.L79"              ,   1,        10.5,         5.3,         0.0,         0.0,         0.0,         0.0
"Line.L79"              ,   2,       -10.5,        -5.3
"Line.L80"              ,   1,        42.5,      -178.0,         0.0,         0.0,         0.0,         0.0
"Line.L80"              ,   2,       -42.4,       178.4
"Line.L81"              ,   1,        31.8,      -183.7,         0.0,         0.0,         0.0,         0.0
"Line.L81"              ,   2,       -31.8,       183.8
"Line.L82"              ,   1,        16.0,      -191.7,         0.0,         0.0,         0.0,         0.0
"Line.L82"              ,   2,       -15.9,       191.9
"Line.L83"              ,   1,        15.8,         7.9,         0.0,         0.0,         0.0,         0.0
"Line.L83"              ,   2,       -15.8,        -7.9
"Line.L84"              ,   1,         5.4,      -197.2,         0.0,         0.0,         0.0,         0.0
"Line.L84"              ,   2,        -5.3,       197.4
"Line.L85"              ,   1,        10.5,         5.3,         0.0,         0.0,         0.0,         0.0
"Line.L85"              ,   2,       -10.5,        -5.3
"Line.L86"              ,   1,        49.8,       -18.4,         0.0,         0.0,         0.0,         0.0
"Line.L86"              ,   2,       -49.8,        18.4
"Line.L87"              ,   1,        10.5,       -11.4,         0.0,         0.0,         0.0,         0.0
"Line.L87"              ,   2,       -10.5,        11.4
"Line.L88"              ,   1,        42.1,       -12.3,         0.0,         0.0,         0.0,         0.0
"Line.L88"              ,   2,       -42.1,        12.3
"Line.L89"              ,   1,        10.5,       -11.4,         0.0,         0.0,         0.0,         0.0
"Line.L89"              ,   2,       -10.5,        11.4
"Line.L90"              ,   1,        31.6,        -0.9,         0.0,         0.0,         0.0,         0.0
"Line.L90"              ,   2,       -31.6,         0.9
"Line.L91"              ,   1,        10.5,       -11.4,         0.0,         0.0,         0.0,         0.0
"Line.L91"              ,   2,       -10.5,        11.4
"Line.L92"              ,   1,        21.0,        10.5,         0.0,         0.0,         0.0,         0.0
"Line.L92"              ,   2,       -21.0,       -10.5
"Line.L93"              ,   1,        10.5,         5.3,         0.0,         0.0,         0.0,         0.0
"Line.L93"              ,   2,       -10.5,        -5.3
"Line.L94"              ,   1,        10.5,         5.3,         0.0,         0.0,         0.0,         0.0
"Line.L94"              ,   2,       -10.5,        -5.3
"Line.L95"              ,   1,         5.3,         2.6,         0.0,         0.0,         0.0,         0.0
"Line.L95"              ,   2,        -5.3,        -2.6
"Line.L96"              ,   1,        18.2,        15.8,         0.0,         0.0,         0.0,         0.0
"Line.L96"              ,   2,       -18.2,       -15.8
"Line.L97"              ,   1,         7.7,        10.5,         0.0,         0.0,         0.0,         0.0
"Line.L97"              ,   2,        -7.7,       -10.5
"Line.L98"              ,   1,        -2.8,         5.3,         0.0,         0.0,         0.0,         0.0
"Line.L98"              ,   2,         2.8,        -5.3
"Line.L99"              ,   1,         0.0,        -0.0,         0.0,         0.0,         0.0,         0.0
"Line.L99"              ,   2,        -0.0,         0.0
"Line.L118"             ,   1,        84.3,        42.2,         0.0,         0.0,         0.0,         0.0
"Line.L118"             ,   2,       -84.3,       -42.2
"Line.L100"             ,   1,        26.3,        13.2,         0.0,         0.0,         0.0,         0.0
"Line.L100"             ,   2,       -26.3,       -13.2
"Line.L101"             ,   1,        57.9,        29.0,         0.0,         0.0,         0.0,         0.0
"Line.L101"             ,   2,       -57.9,       -29.0
"Line.L102"             ,   1,        21.1,        10.5,         0.0,         0.0,         0.0,         0.0
"Line.L102"             ,   2,       -21.0,       -10.5
"Line.L103"             ,   1,        10.5,         5.3,         0.0,         0.0,         0.0,         0.0
"Line.L103"             ,   2,       -10.5,        -5.3
"Line.L104"             ,   1,        21.0,        10.5,         0.0,         0.0,         0.0,         0.0
"Line.L104"             ,   2,       -21.0,       -10.5
"Line.L105"             ,   1,        36.9,        18.5,         0.0,         0.0,         0.0,         0.0
"Line.L105"             ,   2,       -36.9,       -18.5
"Line.L106"             ,   1,        10.5,         5.3,         0.0,         0.0,         0.0,         0.0
"Line.L106"             ,   2,       -10.5,        -5.3
"Line.L107"             ,   1,        36.9,        18.5,         0.0,         0.0,         0.0,         0.0
"Line.L107"             ,   2,       -36.8,       -18.4
"Line.L108"             ,   1,         0.0,        -0.0,         0.0,         0.0,         0.0,         0.0
"Line.L108"             ,   2,         0.0,         0.0
"Line.L109"             ,   1,        26.3,        13.2,         0.0,         0.0,         0.0,         0.0
"Line.L109"             ,   2,       -26.3,       -13.2
"Line.L110"             ,   1,         5.3,         2.6,         0.0,         0.0,         0.0,         0.0
"Line.L110"             ,   2,        -5.3,        -2.6
"Line.L111"             ,   1,        21.1,        10.5,         0.0,         0.0,         0.0,         0.0
"Line.L111"             ,   2,       -21.0,       -10.5
"Line.L112"             ,   1,        15.8,         7.9,         0.0,         0.0,         0.0,         0.0
"Line.L112"             ,   2,       -15.8,        -7.9
"Line.L113"             ,   1,         5.3,         2.6,         0.0,         0.0,         0.0,         0.0
"Line.L113"             ,   2,        -5.3,        -2.6
"Line.L114"             ,   1,       128.9,       124.2,         0.0,         0.0,         0.0,         0.0
"Line.L114"             ,   2,      -128.8,      -124.0
"Line.L116"             ,   1,       361.4,        38.3,         0.0,         0.0,         0.0,         0.0
"Line.L116"             ,   2,      -360.9,       -37.2
"Line.L117"             ,   1,       267.8,       -45.0,         0.0,         0.0,         0.0,         0.0
"Line.L117"             ,   2,      -267.5,        45.5
"Line.SW1"              ,   1,       669.8,       275.3,         0.0,         0.0,         0.0,         0.0
"Line.SW1"              ,   2,      -669.8,      -275.3
"Line.SW2"              ,   1,       361.4,        38.3,         0.0,         0.0,         0.0,         0.0
"Line.SW2"              ,   2,      -361.4,       -38.3
"Line.SW3"              ,   1,       128.9,       124.2,         0.0,         0.0,         0.0,         0.0
"Line.SW3"              ,   2,      -128.9,      -124.2
