Element, Terminal, P(kW), Q(kvar),  P_Normal, Q_Normal, P_Emergency, Q_Emergency
"Line.L115"             ,   1,       841.4,       235.1,         0.0,         0.0,         0.0,         0.0
"Line.L115"             ,   2,      -838.4,      -228.8
"Line.L1"               ,   1,         4.7,         2.4,         0.0,         0.0,         0.0,         0.0
"Line.L1"               ,   2,        -4.7,        -2.4
"Line.L2"               ,   1,        23.7,        11.8,         0.0,         0.0,         0.0,         0.0
"Line.L2"               ,   2,       -23.7,       -11.8
"Line.L3"               ,   1,       800.5,       209.9,         0.0,         0.0,         0.0,         0.0
"Line.L3"               ,   2,      -798.4,      -205.7
"Line.L4"               ,   1,         9.5,         4.7,         0.0,         0.0,         0.0,         0.0
"Line.L4"               ,   2,        -9.5,        -4.7
"Line.L5"               ,   1,        14.2,         7.1,         0.0,         0.0,         0.0,         0.0
"Line.L5"               ,   2,       -14.2,        -7.1
"Line.L6"               ,   1,         9.5,         4.7,         0.0,         0.0,         0.0,         0.0
"Line.L6"               ,   2,        -9.5,        -4.7
"Line.L7"               ,   1,       793.7,       203.3,         0.0,         0.0,         0.0,         0.0
"Line.L7"               ,   2,      -792.3,      -200.5
"Line.L8"               ,   1,         4.7,         2.4,         0.0,         0.0,         0.0,         0.0
"Line.L8"               ,   2,        -4.7,        -2.4
"Line.L9"               ,   1,        23.7,        11.8,         0.0,         0.0,         0.0,         0.0
"Line.L9"               ,   2,       -23.7,       -11.8
"Line.L10"              ,   1,       763.9,       186.3,         0.0,         0.0,         0.0,         0.0
"Line.L10"              ,   2,      -762.0,      -182.5
"Line.L11"              ,   1,        14.2,         7.1,         0.0,         0.0,         0.0,         0.0
"Line.L11"              ,   2,       -14.2,        -7.1
"Line.L12"              ,   1,        23.7,        11.8,         0.0,         0.0,         0.0,         0.0
"Line.L12"              ,   2,       -23.7,       -11.8
"Line.L13"              ,   1,       265.2,       156.5,         0.0,         0.0,         0.0,         0.0
"Line.L13"              ,   2,      -264.4,      -154.8
"Line.L14"              ,   1,         9.5,         4.7,         0.0,         0.0,         0.0,         0.0
"Line.L14"              ,   2,        -9.5,        -4.7
"Line.L15"              ,   1,         4.7,         2.4,         0.0,         0.0,         0.0,         0.0
"Line.L15"              ,   2,        -4.7,        -2.4
"Line.L16"              ,   1,         9.5,         4.7,         0.0,         0.0,         0.0,         0.0
"Line.L16"              ,   2,        -9.5,        -4.7
"Line.L17"              ,   1,         4.7,         2.4,         0.0,         0.0,         0.0,         0.0
"Line.L17"              ,   2,        -4.7,        -2.4
"Line.L18"              ,   1,        18.9,         9.5,         0.0,         0.0,         0.0,         0.0
"Line.L18"              ,   2,       -18.9,        -9.5
"Line.L19"              ,   1,        66.3,        33.2,         0.0,         0.0,         0.0,         0.0
"Line.L19"              ,   2,       -66.3,       -33.2
"Line.L20"              ,   1,         9.5,         4.7,         0.0,         0.0,         0.0,         0.0
"Line.L20"              ,   2,        -9.5,        -4.7
"Line.L21"              ,   1,         9.5,         4.7,         0.0,         0.0,         0.0,         0.0
"Line.L21"              ,   2,        -9.5,        -4.7
"Line.L22"              ,   1,        56.8,        28.4,         0.0,         0.0,         0.0,         0.0
"Line.L22"              ,   2,       -56.8,       -28.4
"Line.L23"              ,   1,         9.5,         4.7,         0.0,         0.0,         0.0,         0.0
"Line.L23"              ,   2,        -9.5,        -4.7
"Line.L24"              ,   1,        47.4,        23.7,         0.0,         0.0,         0.0,         0.0
"Line.L24"              ,   2,       -47.3,       -23.7
"Line.L25"              ,   1,        18.9,         9.5,         0.0,         0.0,         0.0,         0.0
"Line.L25"              ,   2,       -18.9,        -9.5
"Line.L26"              ,   1,        28.4,        14.2,         0.0,         0.0,         0.0,         0.0
"Line.L26"              ,   2,       -28.4,       -14.2
"Line.L27"              ,   1,         9.5,         4.7,         0.0,         0.0,         0.0,         0.0
"Line.L27"              ,   2,        -9.5,        -4.7
"Line.L28"              ,   1,         9.5,         4.7,         0.0,         0.0,         0.0,         0.0
"Line.L28"              ,   2,        -9.5,        -4.7
"Line.L29"              ,   1,         9.5,         4.7,         0.0,         0.0,         0.0,         0.0
"Line.L29"              ,   2,        -9.5,        -4.7
"Line.L30"              ,   1,        18.9,         9.5,         0.0,         0.0,         0.0,         0.0
"Line.L30"              ,   2,       -18.9,        -9.5
"Line.L31"              ,   1,         9.5,         4.7,         0.0,         0.0,         0.0,         0.0
"Line.L31"              ,   2,        -9.5,        -4.7
"Line.L32"              ,   1,         0.0,        -0.0,         0.0,         0.0,         0.0,         0.0
"Line.L32"              ,   2,        -0.0,         0.0
"Line.L33"              ,   1,         4.7,         2.4,         0.0,         0.0,         0.0,         0.0
"Line.L33"              ,   2,        -4.7,        -2.4
"Line.L34"              ,   1,        14.2,         7.1,         0.0,         0.0,         0.0,         0.0
"Line.L34"              ,   2,       -14.2,        -7.1
"Line.L35"              ,   1,        18.9,         9.5,         0.0,         0.0,         0.0,         0.0
"Line.L35"              ,   2,       -18.9,        -9.5
"Line.L36"              ,   1,       150.6,        97.6,         0.0,         0.0,         0.0,         0.0
"Line.L36"              ,   2,      -150.5,       -97.4
"Line.L37"              ,   1,         9.5,         4.7,         0.0,         0.0,         0.0,         0.0
"Line.L37"              ,   2,        -9.5,        -4.7
"Line.L38"              ,   1,         9.5,         4.7,         0.0,         0.0,         0.0,         0.0
"Line.L38"              ,   2,        -9.5,        -4.7
"Line.L39"              ,   1,         4.7,         2.4,         0.0,         0.0,         0.0,         0.0
"Line.L39"              ,   2,        -4.7,        -2.4
"Line.L40"              ,   1,         4.7,         2.4,         0.0,         0.0,         0.0,         0.0
"Line.L40"              ,   2,        -4.7,        -2.4
"Line.L41"              ,   1,       145.8,        95.1,         0.0,         0.0,         0.0,         0.0
"Line.L41"              ,   2,      -145.7,       -94.9
"Line.L42"              ,   1,         9.5,         4.7,         0.0,         0.0,         0.0,         0.0
"Line.L42"              ,   2,        -9.5,        -4.7
"Line.L43"              ,   1,       131.5,        87.8,         0.0,         0.0,         0.0,         0.0
"Line.L43"              ,   2,      -131.4,       -87.7
"Line.L44"              ,   1,         9.5,         4.7,         0.0,         0.0,         0.0,         0.0
"Line.L44"              ,   2,        -9.5,        -4.7
"Line.L45"              ,   1,       122.0,        83.0,         0.0,         0.0,         0.0,         0.0
"Line.L45"              ,   2,      -121.9,       -82.9
"Line.L46"              ,   1,         4.7,         2.4,         0.0,         0.0,         0.0,         0.0
"Line.L46"              ,   2,        -4.7,        -2.4
"Line.L47"              ,   1,        49.7,        35.5,         0.0,         0.0,         0.0,         0.0
"Line.L47"              ,   2,       -49.7,       -35.5
"Line.L48"              ,   1,        47.3,        29.6,         0.0,         0.0,         0.0,         0.0
"Line.L48"              ,   2,       -47.3,       -29.6
"Line.L49"              ,   1,        14.2,         7.1,         0.0,         0.0,         0.0,         0.0
"Line.L49"              ,   2,       -14.2,        -7.1
"Line.L50"              ,   1,         4.7,         2.4,         0.0,         0.0,         0.0,         0.0
"Line.L50"              ,   2,        -4.7,        -2.4
"Line.L51"              ,   1,         0.0,        -0.0,         0.0,         0.0,         0.0,         0.0
"Line.L51"              ,   2,         0.0,         0.0
"Line.L52"              ,   1,       462.8,         7.6,         0.0,         0.0,         0.0,         0.0
"Line.L52"              ,   2,      -462.3,        -6.7
"Line.L53"              ,   1,       452.9,         1.9,         0.0,         0.0,         0.0,         0.0
"Line.L53"              ,   2,      -452.6,        -1.4
"Line.L54"              ,   1,         9.5,         4.7,         0.0,         0.0,         0.0,         0.0
"Line.L54"              ,   2,        -9.5,        -4.7
"Line.L55"              ,   1,       443.1,        -3.4,         0.0,         0.0,         0.0,         0.0
"Line.L55"              ,   2,      -442.4,         4.8
"Line.L56"              ,   1,         4.7,         2.4,         0.0,         0.0,         0.0,         0.0
"Line.L56"              ,   2,        -4.7,        -2.4
"Line.L57"              ,   1,         9.5,         4.7,         0.0,         0.0,         0.0,         0.0
"Line.L57"              ,   2,        -9.5,        -4.7
"Line.L58"              ,   1,       432.9,        -9.5,         0.0,         0.0,         0.0,         0.0
"Line.L58"              ,   2,      -431.5,        12.5
"Line.L59"              ,   1,         4.7,         2.4,         0.0,         0.0,         0.0,         0.0
"Line.L59"              ,   2,        -4.7,        -2.4
"Line.L60"              ,   1,         0.0,        -0.0,         0.0,         0.0,         0.0,         0.0
"Line.L60"              ,   2,        -0.0,         0.0
"Line.L61"              ,   1,        87.8,        49.7,         0.0,         0.0,         0.0,         0.0
"Line.L61"              ,   2,       -87.8,       -49.7
"Line.L62"              ,   1,        78.3,        45.0,         0.0,         0.0,         0.0,         0.0
"Line.L62"              ,   2,       -78.2,       -45.0
"Line.L63"              ,   1,        68.8,        40.2,         0.0,         0.0,         0.0,         0.0
"Line.L63"              ,   2,       -68.7,       -40.2
"Line.L64"              ,   1,        50.9,        31.9,         0.0,         0.0,         0.0,         0.0
"Line.L64"              ,   2,       -50.9,       -31.9
"Line.L65"              ,   1,        17.8,         8.3,         0.0,         0.0,         0.0,         0.0
"Line.L65"              ,   2,       -17.8,        -8.3
"Line.L66"              ,   1,        28.4,        14.2,         0.0,         0.0,         0.0,         0.0
"Line.L66"              ,   2,       -28.4,       -14.2
"Line.L67"              ,   1,       205.7,      -132.0,         0.0,         0.0,         0.0,         0.0
"Line.L67"              ,   2,      -205.6,       132.4
"Line.L68"              ,   1,       104.3,        52.3,         0.0,         0.0,         0.0,         0.0
"Line.L68"              ,   2,      -104.3,       -52.2
"Line.L69"              ,   1,        23.7,        11.8,         0.0,         0.0,         0.0,         0.0
"Line.L69"              ,   2,       -23.7,       -11.8
"Line.L70"              ,   1,        14.2,         7.1,         0.0,         0.0,         0.0,         0.0
"Line.L70"              ,   2,       -14.2,        -7.1
"Line.L71"              ,   1,         9.5,         4.7,         0.0,         0.0,         0.0,         0.0
"Line.L71"              ,   2,        -9.5,        -4.7
"Line.L72"              ,   1,        28.4,        14.2,         0.0,         0.0,         0.0,         0.0
"Line.L72"              ,   2,       -28.4,       -14.2
"Line.L73"              ,   1,       177.1,      -146.6,         0.0,         0.0,         0.0,         0.0
"Line.L73"              ,   2,      -177.0,       146.8
"Line.L74"              ,   1,        18.9,         9.5,         0.0,         0.0,         0.0,         0.0
"Line.L74"              ,   2,       -18.9,        -9.5
"Line.L75"              ,   1,         9.5,         4.7,         0.0,         0.0,         0.0,         0.0
"Line.L75"              ,   2,        -9.5,        -4.7
"Line.L76"              ,   1,        57.4,      -170.3,         0.0,         0.0,         0.0,         0.0
"Line.L76"              ,   2,       -57.3,       170.6
"Line.L77"              ,   1,        61.6,       -19.1,         0.0,         0.0,         0.0,         0.0
"Line.L77"              ,   2,       -61.6,        19.2
"Line.L78"              ,   1,        47.8,      -175.3,         0.0,         0.0,         0.0,         0.0
"Line.L78"              ,   2,       -47.8,       175.4
"Line.L79"              ,   1,         9.5,         4.7,         0.0,         0.0,         0.0,         0.0
"Line.L79"              ,   2,        -9.5,        -4.7
"Line.L80"              ,   1,        38.3,      -180.2,         0.0,         0.0,         0.0,         0.0
"Line.L80"              ,   2,       -38.2,       180.5
"Line.L81"              ,   1,        28.7,      -185.2,         0.0,         0.0,         0.0,         0.0
"Line.L81"              ,   2,       -28.6,       185.4
"Line.L82"              ,   1,        14.4,      -192.5,         0.0,         0.0,         0.0,         0.0
"Line.L82"              ,   2,       -14.3,       192.7
"Line.L83"              ,   1,        14.2,         7.1,         0.0,         0.0,         0.0,         0.0
"Line.L83"              ,   2,       -14.2,        -7.1
"Line.L84"              ,   1,         4.8,      -197.4,         0.0,         0.0,         0.0,         0.0
"Line.L84"              ,   2,        -4.7,       197.6
"Line.L85"              ,   1,         9.5,         4.7,         0.0,         0.0,         0.0,         0.0
"Line.L85"              ,   2,        -9.5,        -4.7
"Line.L86"              ,   1,        56.8,       -21.6,         0.0,         0.0,         0.0,         0.0
"Line.L86"              ,   2,       -56.8,        21.6
"Line.L87"              ,   1,         9.5,       -11.9,         0.0,         0.0,         0.0,         0.0
"Line.L87"              ,   2,        -9.5,        11.9
"Line.L88"              ,   1,        37.9,       -14.4,         0.0,         0.0,         0.0,         0.0
"Line.L88"              ,   2,       -37.9,        14.4
"Line.L89"              ,   1,         9.5,       -11.9,         0.0,         0.0,         0.0,         0.0
"Line.L89"              ,   2,        -9.5,        11.9
"Line.L90"              ,   1,        28.4,        -2.5,         0.0,         0.0,         0.0,         0.0
"Line.L90"              ,   2,       -28.4,         2.5
"Line.L91"              ,   1,         9.5,       -11.9,         0.0,         0.0,         0.0,         0.0
"Line.L91"              ,   2,        -9.5,        11.9
"Line.L92"              ,   1,        18.9,         9.5,         0.0,         0.0,         0.0,         0.0
"Line.L92"              ,   2,       -18.9,        -9.5
"Line.L93"              ,   1,         9.5,         4.7,         0.0,         0.0,         0.0,         0.0
"Line.L93"              ,   2,        -9.5,        -4.7
"Line.L94"              ,   1,         9.5,         4.7,         0.0,         0.0,         0.0,         0.0
"Line.L94"              ,   2,        -9.5,        -4.7
"Line.L95"              ,   1,         4.7,         2.4,         0.0,         0.0,         0.0,         0.0
"Line.L95"              ,   2,        -4.7,        -2.4
"Line.L96"              ,   1,        28.4,        14.2,         0.0,         0.0,         0.0,         0.0
"Line.L96"              ,   2,       -28.4,       -14.2
"Line.L97"              ,   1,        18.9,         9.5,         0.0,         0.0,         0.0,         0.0
"Line.L97"              ,   2,       -18.9,        -9.5
"Line.L98"              ,   1,         9.5,         4.7,         0.0,         0.0,         0.0,         0.0
"Line.L98"              ,   2,        -9.5,        -4.7
"Line.L99"              ,   1,         0.0,        -0.0,         0.0,         0.0,         0.0,         0.0
"Line.L99"              ,   2,         0.0,         0.0
"Line.L118"             ,   1,        75.8,        38.0,         0.0,         0.0,         0.0,         0.0
"Line.L118"             ,   2,       -75.8,       -37.9
"Line.L100"             ,   1,        23.7,        11.8,         0.0,         0.0,         0.0,         0.0
"Line.L100"             ,   2,       -23.7,       -11.8
"Line.L101"             ,   1,        52.1,        26.1,         0.0,         0.0,         0.0,         0.0
"Line.L101"             ,   2,       -52.1,       -26.1
"Line.L102"             ,   1,        18.9,         9.5,         0.0,         0.0,         0.0,         0.0
"Line.L102"             ,   2,       -18.9,        -9.5
"Line.L103"             ,   1,         9.5,         4.7,         0.0,         0.0,         0.0,         0.0
"Line.L103"             ,   2,        -9.5,        -4.7
"Line.L104"             ,   1,        18.9,         9.5,         0.0,         0.0,         0.0,         0.0
"Line.L104"             ,   2,       -18.9,        -9.5
"Line.L105"             ,   1,        33.2,        16.6,         0.0,         0.0,         0.0,         0.0
"Line.L105"             ,   2,       -33.2,       -16.6
"Line.L106"             ,   1,         9.5,         4.7,         0.0,         0.0,         0.0,         0.0
"Line.L106"             ,   2,        -9.5,        -4.7
"Line.L107"             ,   1,        33.2,        16.6,         0.0,         0.0,         0.0,         0.0
"Line.L107"             ,   2,       -33.2,       -16.6
"Line.L108"             ,   1,         0.0,        -0.0,         0.0,         0.0,         0.0,         0.0
"Line.L108"             ,   2,         0.0,         0.0
"Line.L109"             ,   1,        23.7,        11.8,         0.0,         0.0,         0.0,         0.0
"Line.L109"             ,   2,       -23.7,       -11.8
"Line.L110"             ,   1,         4.7,         2.4,         0.0,         0.0,         0.0,         0.0
"Line.L110"             ,   2,        -4.7,        -2.4
"Line.L111"             ,   1,        18.9,         9.5,         0.0,         0.0,         0.0,         0.0
"Line.L111"             ,   2,       -18.9,        -9.5
"Line.L112"             ,   1,        14.2,         7.1,         0.0,         0.0,         0.0,         0.0
"Line.L112"             ,   2,       -14.2,        -7.1
"Line.L113"             ,   1,         4.7,         2.4,         0.0,         0.0,         0.0,         0.0
"Line.L113"             ,   2,        -4.7,        -2.4
"Line.L114"             ,   1,       179.2,       112.2,         0.0,         0.0,         0.0,         0.0
"Line.L114"             ,   2,      -179.0,      -111.8
"Line.L116"             ,   1,       473.1,        14.2,         0.0,         0.0,         0.0,         0.0
"Line.L116"             ,   2,      -472.2,       -12.3
"Line.L117"             ,   1,       338.9,       -64.6,         0.0,         0.0,         0.0,         0.0
"Line.L117"             ,   2,      -338.5,        65.5
"Line.SW1"              ,   1,       841.4,       235.1,         0.0,         0.0,         0.0,         0.0
"Line.SW1"              ,   2,      -841.4,      -235.1
"Line.SW2"              ,   1,       473.1,        14.2,         0.0,         0.0,         0.0,         0.0
"Line.SW2"              ,   2,      -473.1,       -14.2
"Line.SW3"              ,   1,       179.2,       112.2,         0.0,         0.0,         0.0,         0.0
"Line.SW3"              ,   2,      -179.2,      -112.2
