Bus, BasekV, Node1, Magnitude1, Angle1, pu1
"150", 4.16, 1,       2400,    0.0,   0.99926
"149", 4.16, 1,       2415,    0.0,    1.0055
"1", 4.16, 1,    2407.22,   -0.2,    1.0023
"2", 4.16, 1,    2407.11,   -0.2,    1.0022
"3", 4.16, 1,    2406.41,   -0.2,    1.0019
"7", 4.16, 1,    2401.89,   -0.3,         1
"4", 4.16, 1,    2406.15,   -0.2,    1.0018
"5", 4.16, 1,    2405.78,   -0.2,    1.0017
"6", 4.16, 1,    2405.45,   -0.2,    1.0015
"8", 4.16, 1,    2398.38,   -0.4,   0.99858
"12", 4.16, 1,    2398.23,   -0.4,   0.99852
"9", 4.16, 1,    2397.96,   -0.4,   0.99841
"13", 4.16, 1,    2393.39,   -0.5,   0.99651
"9R", 4.16, 1,    2323.02,   -0.4,   0.96721
"14", 4.16, 1,    2322.16,   -0.4,   0.96685
"34", 4.16, 1,     2392.9,   -0.5,    0.9963
"18", 4.16, 1,    2384.93,   -0.6,   0.99299
"11", 4.16, 1,    2321.83,   -0.4,   0.96671
"10", 4.16, 1,    2321.99,   -0.4,   0.96678
"15", 4.16, 1,     2392.7,   -0.5,   0.99622
"16", 4.16, 1,    2392.21,   -0.5,   0.99602
"17", 4.16, 1,    2392.47,   -0.5,   0.99613
"19", 4.16, 1,    2384.27,   -0.6,   0.99271
"21", 4.16, 1,    2384.18,   -0.6,   0.99267
"20", 4.16, 1,    2383.85,   -0.6,   0.99254
"22", 4.16, 1,    2383.49,   -0.6,   0.99238
"23", 4.16, 1,    2383.65,   -0.6,   0.99245
"24", 4.16, 1,    2382.93,   -0.6,   0.99215
"25", 4.16, 1,    2383.18,   -0.6,   0.99226
"25R", 4.16, 1,    2442.76,   -0.6,    1.0171
"26", 4.16, 1,    2442.47,   -0.6,    1.0169
"28", 4.16, 1,       2383,   -0.6,   0.99218
"27", 4.16, 1,    2442.35,   -0.6,    1.0169
"31", 4.16, 1,    2442.18,   -0.6,    1.0168
"33", 4.16, 1,    2441.71,   -0.6,    1.0166
"29", 4.16, 1,    2382.76,   -0.6,   0.99208
"30", 4.16, 1,    2382.62,   -0.6,   0.99202
"250", 4.16, 1,    2382.62,   -0.6,   0.99202
"32", 4.16, 1,    2441.99,   -0.6,    1.0167
"35", 4.16, 1,    2382.34,   -0.6,   0.99191
"36", 4.16, 1,    2381.78,   -0.6,   0.99168
"40", 4.16, 1,    2380.91,   -0.6,   0.99131
"37", 4.16, 1,    2381.39,   -0.6,   0.99151
"38", 4.16, 1,    2381.45,   -0.6,   0.99154
"39", 4.16, 1,    2381.24,   -0.6,   0.99145
"41", 4.16, 1,     2380.7,   -0.6,   0.99122
"42", 4.16, 1,    2379.54,   -0.6,   0.99074
"43", 4.16, 1,    2378.88,   -0.6,   0.99047
"44", 4.16, 1,    2378.56,   -0.6,   0.99033
"45", 4.16, 1,     2378.3,   -0.6,   0.99022
"47", 4.16, 1,    2377.44,   -0.6,   0.98987
"46", 4.16, 1,     2378.1,   -0.6,   0.99014
"48", 4.16, 1,     2377.3,   -0.6,   0.98981
"49", 4.16, 1,    2376.86,   -0.6,   0.98963
"50", 4.16, 1,    2376.71,   -0.6,   0.98956
"51", 4.16, 1,    2376.66,   -0.6,   0.98954
"151", 4.16, 1,    2376.66,   -0.6,   0.98954
"52", 4.16, 1,    2391.25,   -0.6,   0.99562
"53", 4.16, 1,    2390.27,   -0.7,   0.99521
"54", 4.16, 1,     2389.7,   -0.7,   0.99497
"55", 4.16, 1,    2389.59,   -0.7,   0.99493
"57", 4.16, 1,    2388.28,   -0.8,   0.99438
"56", 4.16, 1,    2389.54,   -0.7,    0.9949
"58", 4.16, 1,    2388.12,   -0.8,   0.99432
"60", 4.16, 1,    2385.42,   -1.0,   0.99319
"59", 4.16, 1,    2387.96,   -0.8,   0.99425
"61", 4.16, 1,    2385.42,   -1.0,   0.99319
"62", 4.16, 1,    2384.41,   -1.0,   0.99277
"63", 4.16, 1,    2383.85,   -1.0,   0.99253
"64", 4.16, 1,    2383.01,   -1.0,   0.99218
"65", 4.16, 1,    2382.63,   -1.0,   0.99203
"66", 4.16, 1,    2382.14,   -1.0,   0.99182
"67", 4.16, 1,    2325.54,   -1.1,   0.96826
"68", 4.16, 1,    2324.73,   -1.1,   0.96792
"72", 4.16, 1,    2326.86,   -1.2,   0.96881
"97", 4.16, 1,    2324.48,   -1.2,   0.96782
"69", 4.16, 1,    2323.81,   -1.2,   0.96754
"70", 4.16, 1,    2323.15,   -1.2,   0.96726
"71", 4.16, 1,    2322.78,   -1.2,   0.96711
"73", 4.16, 1,    2325.75,   -1.2,   0.96834
"76", 4.16, 1,    2328.07,   -1.2,   0.96931
"74", 4.16, 1,    2324.81,   -1.2,   0.96795
"75", 4.16, 1,    2324.27,   -1.2,   0.96773
"77", 4.16, 1,    2330.92,   -1.3,    0.9705
"86", 4.16, 1,    2328.08,   -1.3,   0.96932
"78", 4.16, 1,    2331.68,   -1.3,   0.97081
"79", 4.16, 1,    2331.58,   -1.3,   0.97077
"80", 4.16, 1,    2335.46,   -1.4,   0.97239
"81", 4.16, 1,    2336.93,   -1.4,     0.973
"82", 4.16, 1,    2339.19,   -1.4,   0.97394
"84", 4.16, 1,    2335.58,   -1.4,   0.97244
"83", 4.16, 1,    2341.55,   -1.5,   0.97492
"85", 4.16, 1,    2334.94,   -1.4,   0.97217
"87", 4.16, 1,    2328.19,   -1.3,   0.96936
"88", 4.16, 1,    2328.26,   -1.3,   0.96939
"89", 4.16, 1,    2328.17,   -1.3,   0.96935
"90", 4.16, 1,    2328.27,   -1.3,   0.96939
"91", 4.16, 1,    2328.07,   -1.3,   0.96931
"92", 4.16, 1,    2328.18,   -1.3,   0.96936
"93", 4.16, 1,    2327.89,   -1.3,   0.96923
"94", 4.16, 1,    2327.52,   -1.3,   0.96908
"95", 4.16, 1,    2327.76,   -1.3,   0.96918
"96", 4.16, 1,    2327.63,   -1.3,   0.96913
"98", 4.16, 1,    2324.23,   -1.2,   0.96771
"99", 4.16, 1,    2323.95,   -1.2,    0.9676
"100", 4.16, 1,    2323.93,   -1.2,   0.96759
"450", 4.16, 1,    2323.93,   -1.2,   0.96759
"197", 4.16, 1,    2324.48,   -1.2,   0.96782
"101", 4.16, 1,    2323.64,   -1.2,   0.96747
"102", 4.16, 1,    2322.89,   -1.2,   0.96715
"105", 4.16, 1,    2323.01,   -1.2,   0.96721
"103", 4.16, 1,    2322.01,   -1.2,   0.96679
"104", 4.16, 1,    2321.07,   -1.2,    0.9664
"106", 4.16, 1,    2322.41,   -1.2,   0.96695
"108", 4.16, 1,    2322.54,   -1.2,   0.96701
"107", 4.16, 1,    2321.63,   -1.2,   0.96663
"109", 4.16, 1,    2320.42,   -1.2,   0.96613
"300", 4.16, 1,    2322.54,   -1.2,   0.96701
"110", 4.16, 1,    2319.41,   -1.2,    0.9657
"111", 4.16, 1,    2319.02,   -1.2,   0.96554
"112", 4.16, 1,    2319.07,   -1.2,   0.96556
"113", 4.16, 1,    2318.01,   -1.2,   0.96512
"114", 4.16, 1,    2317.79,   -1.2,   0.96503
"135", 4.16, 1,    2384.93,   -0.6,   0.99299
"152", 4.16, 1,    2393.39,   -0.5,   0.99651
"160R", 4.16, 1,    2325.79,   -1.0,   0.96836
"150R", 4.16, 1,       2415,    0.0,    1.0055
"160", 4.16, 1,    2385.42,   -1.0,   0.99319
"610", 4.16, 1,    2385.42,   -1.0,   0.99319
