Bus, BasekV, Node1, Magnitude1, Angle1, pu1
"150", 4.16, 1,       2400,    0.0,   0.99926
"149", 4.16, 1,       2415,    0.0,    1.0055
"1", 4.16, 1,    2403.35,   -0.2,    1.0007
"2", 4.16, 1,    2403.21,   -0.2,    1.0006
"3", 4.16, 1,    2402.32,   -0.3,    1.0002
"7", 4.16, 1,    2395.26,   -0.4,   0.99728
"4", 4.16, 1,    2401.99,   -0.3,    1.0001
"5", 4.16, 1,    2401.52,   -0.3,   0.99989
"6", 4.16, 1,    2401.11,   -0.3,   0.99972
"8", 4.16, 1,    2389.92,   -0.5,   0.99506
"12", 4.16, 1,    2389.74,   -0.5,   0.99499
"9", 4.16, 1,    2389.31,   -0.5,   0.99481
"13", 4.16, 1,    2382.31,   -0.7,   0.99189
"9R", 4.16, 1,    2314.64,   -0.5,   0.96372
"14", 4.16, 1,    2313.55,   -0.6,   0.96327
"34", 4.16, 1,    2381.68,   -0.7,   0.99163
"18", 4.16, 1,    2371.08,   -0.8,   0.98722
"11", 4.16, 1,    2313.12,   -0.6,   0.96309
"10", 4.16, 1,    2313.34,   -0.6,   0.96318
"15", 4.16, 1,    2381.43,   -0.7,   0.99153
"16", 4.16, 1,    2380.81,   -0.7,   0.99127
"17", 4.16, 1,    2381.14,   -0.7,   0.99141
"19", 4.16, 1,    2370.25,   -0.8,   0.98687
"21", 4.16, 1,     2370.1,   -0.9,   0.98681
"20", 4.16, 1,    2369.71,   -0.9,   0.98665
"22", 4.16, 1,    2369.22,   -0.9,   0.98644
"23", 4.16, 1,     2369.4,   -0.9,   0.98652
"24", 4.16, 1,    2368.48,   -0.9,   0.98614
"25", 4.16, 1,    2368.78,   -0.9,   0.98626
"25R", 4.16, 1,       2428,   -0.9,    1.0109
"26", 4.16, 1,    2427.63,   -0.9,    1.0108
"28", 4.16, 1,    2368.54,   -0.9,   0.98616
"27", 4.16, 1,    2427.49,   -0.9,    1.0107
"31", 4.16, 1,    2427.26,   -0.9,    1.0106
"33", 4.16, 1,    2426.67,   -0.9,    1.0104
"29", 4.16, 1,    2368.23,   -0.9,   0.98603
"30", 4.16, 1,    2368.05,   -0.9,   0.98596
"250", 4.16, 1,    2368.05,   -0.9,   0.98596
"32", 4.16, 1,    2427.02,   -0.9,    1.0105
"35", 4.16, 1,    2367.61,   -0.9,   0.98577
"36", 4.16, 1,     2366.9,   -0.9,   0.98548
"40", 4.16, 1,    2365.67,   -0.9,   0.98497
"37", 4.16, 1,     2366.4,   -0.9,   0.98527
"38", 4.16, 1,    2366.48,   -0.9,   0.98531
"39", 4.16, 1,    2366.21,   -0.9,   0.98519
"41", 4.16, 1,     2365.4,   -0.9,   0.98486
"42", 4.16, 1,    2363.81,   -0.9,   0.98419
"43", 4.16, 1,    2362.97,   -0.9,   0.98384
"44", 4.16, 1,    2362.47,   -0.9,   0.98363
"45", 4.16, 1,    2362.14,   -0.9,    0.9835
"47", 4.16, 1,    2360.93,   -0.9,   0.98299
"46", 4.16, 1,    2361.89,   -0.9,   0.98339
"48", 4.16, 1,    2360.69,   -0.9,   0.98289
"49", 4.16, 1,     2360.2,   -0.9,   0.98269
"50", 4.16, 1,    2360.01,   -0.9,   0.98261
"51", 4.16, 1,    2359.94,   -0.9,   0.98258
"151", 4.16, 1,    2359.94,   -0.9,   0.98258
"52", 4.16, 1,    2378.13,   -0.9,   0.99016
"53", 4.16, 1,    2376.16,   -1.0,   0.98933
"54", 4.16, 1,    2374.99,   -1.0,   0.98885
"55", 4.16, 1,    2374.85,   -1.0,   0.98879
"57", 4.16, 1,     2371.9,   -1.1,   0.98756
"56", 4.16, 1,    2374.78,   -1.0,   0.98876
"58", 4.16, 1,    2371.66,   -1.1,   0.98746
"60", 4.16, 1,     2365.6,   -1.4,   0.98494
"59", 4.16, 1,    2371.46,   -1.1,   0.98738
"61", 4.16, 1,     2365.6,   -1.4,   0.98494
"62", 4.16, 1,    2364.06,   -1.4,    0.9843
"63", 4.16, 1,    2363.17,   -1.4,   0.98392
"64", 4.16, 1,    2361.74,   -1.4,   0.98333
"65", 4.16, 1,    2360.84,   -1.4,   0.98295
"66", 4.16, 1,    2360.21,   -1.4,   0.98269
"67", 4.16, 1,    2304.99,   -1.6,    0.9597
"68", 4.16, 1,    2303.96,   -1.6,   0.95927
"72", 4.16, 1,    2305.79,   -1.6,   0.96004
"97", 4.16, 1,    2303.61,   -1.6,   0.95913
"69", 4.16, 1,    2302.78,   -1.6,   0.95878
"70", 4.16, 1,    2301.94,   -1.6,   0.95843
"71", 4.16, 1,    2301.47,   -1.6,   0.95824
"73", 4.16, 1,    2304.38,   -1.6,   0.95945
"76", 4.16, 1,     2306.7,   -1.7,   0.96041
"74", 4.16, 1,    2303.18,   -1.6,   0.95895
"75", 4.16, 1,    2302.49,   -1.7,   0.95866
"77", 4.16, 1,    2309.51,   -1.7,   0.96159
"86", 4.16, 1,    2306.32,   -1.7,   0.96025
"78", 4.16, 1,    2310.27,   -1.8,    0.9619
"79", 4.16, 1,    2310.15,   -1.8,   0.96185
"80", 4.16, 1,    2314.12,   -1.8,    0.9635
"81", 4.16, 1,    2315.63,   -1.9,   0.96413
"82", 4.16, 1,    2317.99,   -1.9,   0.96512
"84", 4.16, 1,     2313.9,   -1.9,   0.96341
"83", 4.16, 1,    2320.49,   -1.9,   0.96615
"85", 4.16, 1,    2313.09,   -1.9,   0.96308
"87", 4.16, 1,    2306.19,   -1.8,    0.9602
"88", 4.16, 1,    2306.22,   -1.8,   0.96021
"89", 4.16, 1,    2306.08,   -1.8,   0.96016
"90", 4.16, 1,    2306.11,   -1.8,   0.96017
"91", 4.16, 1,    2305.92,   -1.8,   0.96009
"92", 4.16, 1,    2305.96,   -1.8,    0.9601
"93", 4.16, 1,    2305.68,   -1.8,   0.95999
"94", 4.16, 1,    2305.21,   -1.8,   0.95979
"95", 4.16, 1,    2305.52,   -1.8,   0.95992
"96", 4.16, 1,    2305.35,   -1.8,   0.95985
"98", 4.16, 1,    2303.27,   -1.6,   0.95898
"99", 4.16, 1,    2302.87,   -1.6,   0.95882
"100", 4.16, 1,    2302.81,   -1.6,   0.95879
"450", 4.16, 1,    2302.81,   -1.6,   0.95879
"197", 4.16, 1,    2303.61,   -1.6,   0.95913
"101", 4.16, 1,    2302.55,   -1.6,   0.95869
"102", 4.16, 1,    2301.58,   -1.6,   0.95828
"105", 4.16, 1,    2301.74,   -1.6,   0.95835
"103", 4.16, 1,    2300.46,   -1.6,   0.95782
"104", 4.16, 1,    2299.26,   -1.6,   0.95732
"106", 4.16, 1,    2300.97,   -1.6,   0.95803
"108", 4.16, 1,    2301.14,   -1.6,    0.9581
"107", 4.16, 1,    2299.98,   -1.6,   0.95762
"109", 4.16, 1,    2298.42,   -1.7,   0.95697
"300", 4.16, 1,    2301.14,   -1.6,    0.9581
"110", 4.16, 1,    2297.13,   -1.7,   0.95643
"111", 4.16, 1,    2296.64,   -1.7,   0.95622
"112", 4.16, 1,     2296.7,   -1.7,   0.95625
"113", 4.16, 1,    2295.34,   -1.7,   0.95569
"114", 4.16, 1,    2295.06,   -1.7,   0.95557
"135", 4.16, 1,    2371.08,   -0.8,   0.98722
"152", 4.16, 1,    2382.31,   -0.7,   0.99189
"160R", 4.16, 1,    2306.47,   -1.4,   0.96032
"150R", 4.16, 1,       2415,    0.0,    1.0055
"160", 4.16, 1,     2365.6,   -1.4,   0.98494
"610", 4.16, 1,     2365.6,   -1.4,   0.98494
