Bus, BasekV, Node1, Magnitude1, Angle1, pu1
"150", 4.16, 1,       2400,    0.0,   0.99926
"149", 4.16, 1,       2415,    0.0,    1.0055
"1", 4.16, 1,    2403.15,   -0.3,    1.0006
"2", 4.16, 1,    2403.01,   -0.3,    1.0005
"3", 4.16, 1,    2402.16,   -0.3,    1.0002
"7", 4.16, 1,    2394.89,   -0.5,   0.99713
"4", 4.16, 1,    2401.85,   -0.3,         1
"5", 4.16, 1,    2401.39,   -0.3,   0.99984
"6", 4.16, 1,       2401,   -0.3,   0.99968
"8", 4.16, 1,    2389.44,   -0.6,   0.99487
"12", 4.16, 1,    2389.27,   -0.6,   0.99479
"9", 4.16, 1,    2388.75,   -0.6,   0.99458
"13", 4.16, 1,    2381.68,   -0.8,   0.99163
"9R", 4.16, 1,     2314.1,   -0.6,    0.9635
"14", 4.16, 1,    2313.06,   -0.6,   0.96306
"34", 4.16, 1,    2381.09,   -0.8,   0.99139
"18", 4.16, 1,    2370.37,   -1.0,   0.98692
"11", 4.16, 1,    2312.65,   -0.6,   0.96289
"10", 4.16, 1,    2312.85,   -0.6,   0.96298
"15", 4.16, 1,    2380.85,   -0.8,   0.99129
"16", 4.16, 1,    2380.25,   -0.8,   0.99104
"17", 4.16, 1,    2380.57,   -0.8,   0.99117
"19", 4.16, 1,    2369.57,   -1.0,   0.98659
"21", 4.16, 1,    2369.39,   -1.0,   0.98652
"20", 4.16, 1,    2369.05,   -1.0,   0.98637
"22", 4.16, 1,    2368.55,   -1.0,   0.98617
"23", 4.16, 1,     2368.7,   -1.0,   0.98623
"24", 4.16, 1,    2367.82,   -1.0,   0.98586
"25", 4.16, 1,    2368.08,   -1.0,   0.98597
"25R", 4.16, 1,    2427.28,   -1.0,    1.0106
"26", 4.16, 1,    2426.92,   -1.0,    1.0105
"28", 4.16, 1,    2367.82,   -1.0,   0.98586
"27", 4.16, 1,    2426.79,   -1.0,    1.0104
"31", 4.16, 1,    2426.57,   -1.0,    1.0103
"33", 4.16, 1,       2426,   -1.0,    1.0101
"29", 4.16, 1,    2367.53,   -1.0,   0.98574
"30", 4.16, 1,    2367.35,   -1.0,   0.98567
"250", 4.16, 1,    2367.35,   -1.0,   0.98567
"32", 4.16, 1,    2426.34,   -1.0,    1.0102
"35", 4.16, 1,    2366.83,   -1.0,   0.98545
"36", 4.16, 1,    2366.15,   -1.0,   0.98517
"40", 4.16, 1,    2364.84,   -1.0,   0.98462
"37", 4.16, 1,    2365.67,   -1.0,   0.98497
"38", 4.16, 1,    2365.75,   -1.0,     0.985
"39", 4.16, 1,    2365.49,   -1.0,   0.98489
"41", 4.16, 1,    2364.58,   -1.0,   0.98451
"42", 4.16, 1,    2362.91,   -1.0,   0.98382
"43", 4.16, 1,    2362.11,   -1.0,   0.98348
"44", 4.16, 1,    2361.52,   -1.0,   0.98324
"45", 4.16, 1,     2361.2,   -1.0,    0.9831
"47", 4.16, 1,     2359.9,   -1.1,   0.98256
"46", 4.16, 1,    2360.96,   -1.0,     0.983
"48", 4.16, 1,    2359.59,   -1.1,   0.98244
"49", 4.16, 1,     2359.2,   -1.1,   0.98227
"50", 4.16, 1,    2359.01,   -1.1,    0.9822
"51", 4.16, 1,    2358.95,   -1.1,   0.98217
"151", 4.16, 1,    2358.95,   -1.1,   0.98217
"52", 4.16, 1,    2377.35,   -1.0,   0.98983
"53", 4.16, 1,    2375.29,   -1.1,   0.98897
"54", 4.16, 1,    2374.06,   -1.1,   0.98846
"55", 4.16, 1,    2373.93,   -1.1,   0.98841
"57", 4.16, 1,    2370.83,   -1.3,   0.98711
"56", 4.16, 1,    2373.86,   -1.1,   0.98838
"58", 4.16, 1,    2370.54,   -1.3,   0.98699
"60", 4.16, 1,    2364.23,   -1.6,   0.98437
"59", 4.16, 1,    2370.34,   -1.3,   0.98691
"61", 4.16, 1,    2364.23,   -1.6,   0.98437
"62", 4.16, 1,    2362.45,   -1.6,   0.98363
"63", 4.16, 1,    2361.38,   -1.6,   0.98318
"64", 4.16, 1,    2359.58,   -1.6,   0.98243
"65", 4.16, 1,     2358.2,   -1.6,   0.98186
"66", 4.16, 1,    2357.59,   -1.6,    0.9816
"67", 4.16, 1,    2303.59,   -1.8,   0.95912
"68", 4.16, 1,     2302.6,   -1.8,   0.95871
"72", 4.16, 1,    2304.29,   -1.8,   0.95941
"97", 4.16, 1,    2302.24,   -1.8,   0.95856
"69", 4.16, 1,    2301.47,   -1.8,   0.95823
"70", 4.16, 1,    2300.66,   -1.8,    0.9579
"71", 4.16, 1,    2300.21,   -1.8,   0.95771
"73", 4.16, 1,    2302.93,   -1.8,   0.95885
"76", 4.16, 1,    2305.11,   -1.9,   0.95975
"74", 4.16, 1,    2301.78,   -1.9,   0.95836
"75", 4.16, 1,    2301.12,   -1.9,   0.95809
"77", 4.16, 1,    2307.98,   -2.0,   0.96095
"86", 4.16, 1,    2304.74,   -1.9,    0.9596
"78", 4.16, 1,    2308.75,   -2.0,   0.96127
"79", 4.16, 1,    2308.63,   -2.0,   0.96122
"80", 4.16, 1,    2312.64,   -2.1,   0.96289
"81", 4.16, 1,    2314.17,   -2.1,   0.96352
"82", 4.16, 1,    2316.54,   -2.1,   0.96451
"84", 4.16, 1,    2312.51,   -2.1,   0.96283
"83", 4.16, 1,    2319.04,   -2.1,   0.96555
"85", 4.16, 1,    2311.73,   -2.1,   0.96251
"87", 4.16, 1,    2304.62,   -2.0,   0.95955
"88", 4.16, 1,    2304.66,   -2.0,   0.95956
"89", 4.16, 1,    2304.54,   -2.0,   0.95951
"90", 4.16, 1,    2304.59,   -2.0,   0.95953
"91", 4.16, 1,    2304.39,   -2.0,   0.95945
"92", 4.16, 1,    2304.45,   -2.0,   0.95948
"93", 4.16, 1,    2304.16,   -2.0,   0.95936
"94", 4.16, 1,     2303.7,   -2.0,   0.95917
"95", 4.16, 1,       2304,   -2.0,   0.95929
"96", 4.16, 1,    2303.84,   -2.0,   0.95922
"98", 4.16, 1,    2301.88,   -1.8,   0.95841
"99", 4.16, 1,    2301.44,   -1.8,   0.95822
"100", 4.16, 1,    2301.35,   -1.8,   0.95818
"450", 4.16, 1,    2301.35,   -1.8,   0.95818
"197", 4.16, 1,    2302.24,   -1.8,   0.95856
"101", 4.16, 1,    2301.22,   -1.8,   0.95813
"102", 4.16, 1,    2300.29,   -1.8,   0.95774
"105", 4.16, 1,    2300.44,   -1.8,   0.95781
"103", 4.16, 1,    2299.22,   -1.8,    0.9573
"104", 4.16, 1,    2298.06,   -1.8,   0.95682
"106", 4.16, 1,     2299.7,   -1.8,    0.9575
"108", 4.16, 1,    2299.86,   -1.8,   0.95757
"107", 4.16, 1,    2298.75,   -1.8,    0.9571
"109", 4.16, 1,    2297.26,   -1.8,   0.95648
"300", 4.16, 1,    2299.86,   -1.8,   0.95757
"110", 4.16, 1,    2296.02,   -1.9,   0.95597
"111", 4.16, 1,    2295.54,   -1.9,   0.95577
"112", 4.16, 1,    2295.61,   -1.9,   0.95579
"113", 4.16, 1,     2294.3,   -1.9,   0.95525
"114", 4.16, 1,    2294.04,   -1.9,   0.95514
"135", 4.16, 1,    2370.37,   -1.0,   0.98692
"152", 4.16, 1,    2381.68,   -0.8,   0.99163
"160R", 4.16, 1,    2305.13,   -1.6,   0.95976
"150R", 4.16, 1,       2415,    0.0,    1.0055
"160", 4.16, 1,    2364.23,   -1.6,   0.98437
"610", 4.16, 1,    2364.23,   -1.6,   0.98437
