Bus, BasekV, Node1, Magnitude1, Angle1, pu1
"150", 4.16, 1,       2400,    0.0,   0.99926
"149", 4.16, 1,       2415,    0.0,    1.0055
"1", 4.16, 1,    2402.34,   -0.3,    1.0002
"2", 4.16, 1,    2402.21,   -0.3,    1.0002
"3", 4.16, 1,     2401.4,   -0.3,   0.99984
"7", 4.16, 1,    2393.45,   -0.6,   0.99653
"4", 4.16, 1,     2401.1,   -0.4,   0.99972
"5", 4.16, 1,    2400.67,   -0.4,   0.99954
"6", 4.16, 1,     2400.3,   -0.4,   0.99938
"8", 4.16, 1,     2387.6,   -0.8,    0.9941
"12", 4.16, 1,    2387.43,   -0.8,   0.99403
"9", 4.16, 1,    2386.75,   -0.8,   0.99374
"13", 4.16, 1,    2379.28,   -1.0,   0.99063
"9R", 4.16, 1,    2312.17,   -0.8,   0.96269
"14", 4.16, 1,    2311.17,   -0.8,   0.96228
"34", 4.16, 1,    2378.71,   -1.0,    0.9904
"18", 4.16, 1,    2367.51,   -1.2,   0.98573
"11", 4.16, 1,    2310.79,   -0.8,   0.96212
"10", 4.16, 1,    2310.98,   -0.8,    0.9622
"15", 4.16, 1,    2378.48,   -1.0,    0.9903
"16", 4.16, 1,    2377.92,   -1.0,   0.99007
"17", 4.16, 1,    2378.22,   -1.0,   0.99019
"19", 4.16, 1,    2366.76,   -1.2,   0.98542
"21", 4.16, 1,    2366.53,   -1.2,   0.98532
"20", 4.16, 1,    2366.26,   -1.2,   0.98521
"22", 4.16, 1,    2365.73,   -1.2,   0.98499
"23", 4.16, 1,    2365.82,   -1.2,   0.98503
"24", 4.16, 1,    2364.99,   -1.2,   0.98468
"25", 4.16, 1,    2365.18,   -1.2,   0.98476
"25R", 4.16, 1,    2424.31,   -1.2,    1.0094
"26", 4.16, 1,    2423.97,   -1.2,    1.0092
"28", 4.16, 1,     2364.9,   -1.2,   0.98464
"27", 4.16, 1,    2423.84,   -1.2,    1.0092
"31", 4.16, 1,    2423.64,   -1.2,    1.0091
"33", 4.16, 1,     2423.1,   -1.2,    1.0089
"29", 4.16, 1,    2364.61,   -1.2,   0.98453
"30", 4.16, 1,    2364.45,   -1.2,   0.98446
"250", 4.16, 1,    2364.45,   -1.2,   0.98446
"32", 4.16, 1,    2423.41,   -1.2,     1.009
"35", 4.16, 1,    2363.76,   -1.2,   0.98417
"36", 4.16, 1,    2363.12,   -1.3,    0.9839
"40", 4.16, 1,    2361.61,   -1.3,   0.98328
"37", 4.16, 1,    2362.66,   -1.3,   0.98372
"38", 4.16, 1,    2362.74,   -1.3,   0.98375
"39", 4.16, 1,    2362.49,   -1.3,   0.98364
"41", 4.16, 1,    2361.36,   -1.3,   0.98317
"42", 4.16, 1,    2359.52,   -1.3,   0.98241
"43", 4.16, 1,    2358.76,   -1.3,   0.98209
"44", 4.16, 1,    2357.99,   -1.3,   0.98177
"45", 4.16, 1,    2357.69,   -1.3,   0.98164
"47", 4.16, 1,     2356.2,   -1.3,   0.98102
"46", 4.16, 1,    2357.46,   -1.3,   0.98155
"48", 4.16, 1,    2355.75,   -1.4,   0.98083
"49", 4.16, 1,    2355.53,   -1.4,   0.98075
"50", 4.16, 1,    2355.36,   -1.4,   0.98067
"51", 4.16, 1,     2355.3,   -1.4,   0.98065
"151", 4.16, 1,     2355.3,   -1.4,   0.98065
"52", 4.16, 1,     2374.4,   -1.2,    0.9886
"53", 4.16, 1,    2372.07,   -1.3,   0.98763
"54", 4.16, 1,    2370.68,   -1.4,   0.98705
"55", 4.16, 1,    2370.55,   -1.4,     0.987
"57", 4.16, 1,    2366.95,   -1.6,    0.9855
"56", 4.16, 1,    2370.48,   -1.4,   0.98697
"58", 4.16, 1,    2366.58,   -1.6,   0.98534
"60", 4.16, 1,    2359.42,   -2.0,   0.98236
"59", 4.16, 1,    2366.39,   -1.6,   0.98526
"61", 4.16, 1,    2359.42,   -2.0,   0.98236
"62", 4.16, 1,    2357.15,   -2.0,   0.98142
"63", 4.16, 1,    2355.73,   -2.0,   0.98083
"64", 4.16, 1,    2353.22,   -2.0,   0.97978
"65", 4.16, 1,    2350.92,   -2.0,   0.97883
"66", 4.16, 1,    2350.35,   -2.0,   0.97859
"67", 4.16, 1,    2298.63,   -2.2,   0.95705
"68", 4.16, 1,    2297.69,   -2.2,   0.95666
"72", 4.16, 1,    2299.08,   -2.3,   0.95724
"97", 4.16, 1,     2297.3,   -2.2,    0.9565
"69", 4.16, 1,    2296.62,   -2.2,   0.95622
"70", 4.16, 1,    2295.85,   -2.2,    0.9559
"71", 4.16, 1,    2295.42,   -2.2,   0.95572
"73", 4.16, 1,    2297.79,   -2.3,    0.9567
"76", 4.16, 1,     2299.7,   -2.3,    0.9575
"74", 4.16, 1,     2296.7,   -2.3,   0.95625
"75", 4.16, 1,    2296.07,   -2.3,   0.95599
"77", 4.16, 1,    2302.64,   -2.4,   0.95873
"86", 4.16, 1,    2299.31,   -2.4,   0.95734
"78", 4.16, 1,    2303.43,   -2.4,   0.95905
"79", 4.16, 1,    2303.32,   -2.4,   0.95901
"80", 4.16, 1,    2307.38,   -2.5,    0.9607
"81", 4.16, 1,    2308.93,   -2.5,   0.96134
"82", 4.16, 1,    2311.31,   -2.5,   0.96233
"84", 4.16, 1,    2307.35,   -2.5,   0.96069
"83", 4.16, 1,    2313.82,   -2.6,   0.96338
"85", 4.16, 1,    2306.61,   -2.5,   0.96038
"87", 4.16, 1,    2299.17,   -2.4,   0.95728
"88", 4.16, 1,    2299.22,   -2.4,    0.9573
"89", 4.16, 1,    2299.11,   -2.4,   0.95725
"90", 4.16, 1,    2299.18,   -2.4,   0.95728
"91", 4.16, 1,    2298.98,   -2.4,    0.9572
"92", 4.16, 1,    2299.06,   -2.5,   0.95723
"93", 4.16, 1,    2298.76,   -2.4,   0.95711
"94", 4.16, 1,    2298.33,   -2.5,   0.95693
"95", 4.16, 1,    2298.61,   -2.5,   0.95705
"96", 4.16, 1,    2298.46,   -2.5,   0.95698
"98", 4.16, 1,     2296.9,   -2.2,   0.95633
"99", 4.16, 1,    2296.37,   -2.2,   0.95611
"100", 4.16, 1,    2296.22,   -2.2,   0.95605
"450", 4.16, 1,    2296.22,   -2.2,   0.95605
"197", 4.16, 1,     2297.3,   -2.2,    0.9565
"101", 4.16, 1,    2296.33,   -2.2,    0.9561
"102", 4.16, 1,    2295.45,   -2.2,   0.95573
"105", 4.16, 1,    2295.59,   -2.2,   0.95579
"103", 4.16, 1,    2294.43,   -2.2,    0.9553
"104", 4.16, 1,    2293.33,   -2.2,   0.95485
"106", 4.16, 1,    2294.89,   -2.2,    0.9555
"108", 4.16, 1,    2295.04,   -2.2,   0.95556
"107", 4.16, 1,    2293.99,   -2.2,   0.95512
"109", 4.16, 1,    2292.57,   -2.2,   0.95453
"300", 4.16, 1,    2295.04,   -2.2,   0.95556
"110", 4.16, 1,     2291.4,   -2.3,   0.95404
"111", 4.16, 1,    2290.95,   -2.3,   0.95386
"112", 4.16, 1,    2291.01,   -2.3,   0.95388
"113", 4.16, 1,    2289.77,   -2.3,   0.95337
"114", 4.16, 1,    2289.52,   -2.3,   0.95326
"135", 4.16, 1,    2367.51,   -1.2,   0.98573
"152", 4.16, 1,    2379.28,   -1.0,   0.99063
"160R", 4.16, 1,    2300.44,   -2.0,   0.95781
"150R", 4.16, 1,       2415,    0.0,    1.0055
"160", 4.16, 1,    2359.42,   -2.0,   0.98236
"610", 4.16, 1,    2359.42,   -2.0,   0.98236
