Bus, BasekV, Node1, Magnitude1, Angle1, pu1
"150", 4.16, 1,       2400,    0.0,   0.99926
"149", 4.16, 1,       2415,    0.0,    1.0055
"1", 4.16, 1,    2403.12,   -0.2,    1.0006
"2", 4.16, 1,    2402.98,   -0.2,    1.0005
"3", 4.16, 1,     2402.1,   -0.3,    1.0001
"7", 4.16, 1,    2394.85,   -0.4,   0.99712
"4", 4.16, 1,    2401.77,   -0.3,         1
"5", 4.16, 1,     2401.3,   -0.3,    0.9998
"6", 4.16, 1,    2400.89,   -0.3,   0.99963
"8", 4.16, 1,     2389.4,   -0.5,   0.99485
"12", 4.16, 1,    2389.22,   -0.5,   0.99477
"9", 4.16, 1,    2388.79,   -0.5,   0.99459
"13", 4.16, 1,    2381.61,   -0.7,    0.9916
"9R", 4.16, 1,    2314.14,   -0.5,   0.96351
"14", 4.16, 1,    2313.06,   -0.5,   0.96306
"34", 4.16, 1,    2380.99,   -0.7,   0.99134
"18", 4.16, 1,    2370.46,   -0.8,   0.98696
"11", 4.16, 1,    2312.63,   -0.5,   0.96288
"10", 4.16, 1,    2312.85,   -0.5,   0.96297
"15", 4.16, 1,    2380.74,   -0.7,   0.99124
"16", 4.16, 1,    2380.12,   -0.7,   0.99098
"17", 4.16, 1,    2380.45,   -0.7,   0.99112
"19", 4.16, 1,    2369.63,   -0.8,   0.98662
"21", 4.16, 1,    2369.48,   -0.8,   0.98655
"20", 4.16, 1,    2369.09,   -0.8,   0.98639
"22", 4.16, 1,    2368.61,   -0.8,   0.98619
"23", 4.16, 1,    2368.79,   -0.8,   0.98627
"24", 4.16, 1,    2367.88,   -0.9,   0.98589
"25", 4.16, 1,    2368.18,   -0.9,   0.98601
"25R", 4.16, 1,    2427.38,   -0.9,    1.0107
"26", 4.16, 1,    2427.01,   -0.9,    1.0105
"28", 4.16, 1,    2367.94,   -0.9,   0.98591
"27", 4.16, 1,    2426.87,   -0.9,    1.0104
"31", 4.16, 1,    2426.65,   -0.9,    1.0104
"33", 4.16, 1,    2426.06,   -0.9,    1.0101
"29", 4.16, 1,    2367.63,   -0.9,   0.98578
"30", 4.16, 1,    2367.45,   -0.9,   0.98571
"250", 4.16, 1,    2367.45,   -0.9,   0.98571
"32", 4.16, 1,    2426.41,   -0.9,    1.0103
"35", 4.16, 1,    2367.01,   -0.9,   0.98553
"36", 4.16, 1,    2366.31,   -0.9,   0.98523
"40", 4.16, 1,     2365.1,   -0.9,   0.98473
"37", 4.16, 1,    2365.81,   -0.9,   0.98503
"38", 4.16, 1,     2365.9,   -0.9,   0.98506
"39", 4.16, 1,    2365.63,   -0.9,   0.98495
"41", 4.16, 1,    2364.83,   -0.9,   0.98461
"42", 4.16, 1,    2363.24,   -0.9,   0.98396
"43", 4.16, 1,    2362.41,   -0.9,   0.98361
"44", 4.16, 1,    2361.92,   -0.9,    0.9834
"45", 4.16, 1,    2361.58,   -0.9,   0.98327
"47", 4.16, 1,    2360.39,   -0.9,   0.98277
"46", 4.16, 1,    2361.34,   -0.9,   0.98316
"48", 4.16, 1,    2360.15,   -0.9,   0.98267
"49", 4.16, 1,    2359.66,   -0.9,   0.98247
"50", 4.16, 1,    2359.47,   -0.9,   0.98238
"51", 4.16, 1,    2359.41,   -0.9,   0.98236
"151", 4.16, 1,    2359.41,   -0.9,   0.98236
"52", 4.16, 1,    2377.15,   -0.9,   0.98975
"53", 4.16, 1,    2375.03,   -0.9,   0.98886
"54", 4.16, 1,    2373.77,   -1.0,   0.98834
"55", 4.16, 1,    2373.63,   -1.0,   0.98828
"57", 4.16, 1,    2370.43,   -1.1,   0.98695
"56", 4.16, 1,    2373.56,   -1.0,   0.98825
"58", 4.16, 1,    2370.19,   -1.1,   0.98685
"60", 4.16, 1,    2363.58,   -1.4,    0.9841
"59", 4.16, 1,    2369.99,   -1.1,   0.98676
"61", 4.16, 1,    2363.58,   -1.4,    0.9841
"62", 4.16, 1,    2362.06,   -1.4,   0.98346
"63", 4.16, 1,    2361.17,   -1.4,   0.98309
"64", 4.16, 1,    2359.76,   -1.3,   0.98251
"65", 4.16, 1,    2358.87,   -1.3,   0.98214
"66", 4.16, 1,    2358.24,   -1.3,   0.98187
"67", 4.16, 1,    2302.74,   -1.5,   0.95877
"68", 4.16, 1,    2301.72,   -1.5,   0.95834
"72", 4.16, 1,    2303.32,   -1.6,   0.95901
"97", 4.16, 1,    2301.37,   -1.5,    0.9582
"69", 4.16, 1,    2300.54,   -1.5,   0.95785
"70", 4.16, 1,    2299.71,   -1.5,    0.9575
"71", 4.16, 1,    2299.24,   -1.5,   0.95731
"73", 4.16, 1,    2301.91,   -1.6,   0.95842
"76", 4.16, 1,    2304.05,   -1.6,   0.95931
"74", 4.16, 1,    2300.71,   -1.6,   0.95792
"75", 4.16, 1,    2300.03,   -1.6,   0.95764
"77", 4.16, 1,     2306.6,   -1.7,   0.96037
"86", 4.16, 1,    2303.54,   -1.7,    0.9591
"78", 4.16, 1,    2307.29,   -1.7,   0.96066
"79", 4.16, 1,    2307.17,   -1.7,   0.96061
"80", 4.16, 1,    2310.81,   -1.8,   0.96213
"81", 4.16, 1,     2312.2,   -1.8,   0.96271
"82", 4.16, 1,    2314.39,   -1.8,   0.96362
"84", 4.16, 1,    2310.48,   -1.8,   0.96199
"83", 4.16, 1,    2316.71,   -1.9,   0.96458
"85", 4.16, 1,    2309.67,   -1.8,   0.96165
"87", 4.16, 1,    2303.33,   -1.7,   0.95901
"88", 4.16, 1,    2303.33,   -1.7,   0.95901
"89", 4.16, 1,    2303.19,   -1.7,   0.95895
"90", 4.16, 1,    2303.19,   -1.7,   0.95895
"91", 4.16, 1,    2303.01,   -1.7,   0.95888
"92", 4.16, 1,    2303.01,   -1.7,   0.95888
"93", 4.16, 1,    2302.77,   -1.7,   0.95878
"94", 4.16, 1,     2302.3,   -1.7,   0.95858
"95", 4.16, 1,    2302.61,   -1.7,   0.95871
"96", 4.16, 1,    2302.44,   -1.7,   0.95864
"98", 4.16, 1,    2301.03,   -1.5,   0.95805
"99", 4.16, 1,    2300.63,   -1.5,   0.95789
"100", 4.16, 1,    2300.58,   -1.5,   0.95786
"450", 4.16, 1,    2300.58,   -1.5,   0.95786
"197", 4.16, 1,    2301.37,   -1.5,    0.9582
"101", 4.16, 1,    2300.31,   -1.6,   0.95775
"102", 4.16, 1,    2299.35,   -1.6,   0.95735
"105", 4.16, 1,    2299.51,   -1.6,   0.95742
"103", 4.16, 1,    2298.24,   -1.6,   0.95689
"104", 4.16, 1,    2297.04,   -1.6,   0.95639
"106", 4.16, 1,    2298.74,   -1.6,    0.9571
"108", 4.16, 1,    2298.91,   -1.6,   0.95717
"107", 4.16, 1,    2297.76,   -1.6,   0.95669
"109", 4.16, 1,    2296.21,   -1.6,   0.95605
"300", 4.16, 1,    2298.91,   -1.6,   0.95717
"110", 4.16, 1,    2294.93,   -1.6,   0.95551
"111", 4.16, 1,    2294.43,   -1.6,   0.95531
"112", 4.16, 1,     2294.5,   -1.6,   0.95533
"113", 4.16, 1,    2293.15,   -1.6,   0.95477
"114", 4.16, 1,    2292.87,   -1.6,   0.95466
"135", 4.16, 1,    2370.46,   -0.8,   0.98696
"152", 4.16, 1,    2381.61,   -0.7,    0.9916
"160R", 4.16, 1,     2304.5,   -1.4,    0.9595
"150R", 4.16, 1,       2415,    0.0,    1.0055
"160", 4.16, 1,    2363.58,   -1.4,    0.9841
"610", 4.16, 1,    2363.58,   -1.4,    0.9841
