Bus, BasekV, Node1, Magnitude1, Angle1, pu1
"150", 4.16, 1,       2400,    0.0,   0.99926
"149", 4.16, 1,       2415,    0.0,    1.0055
"1", 4.16, 1,    2402.64,   -0.3,    1.0004
"2", 4.16, 1,     2402.5,   -0.3,    1.0003
"3", 4.16, 1,    2401.65,   -0.3,   0.99995
"7", 4.16, 1,       2394,   -0.5,   0.99676
"4", 4.16, 1,    2401.33,   -0.3,   0.99982
"5", 4.16, 1,    2400.88,   -0.3,   0.99963
"6", 4.16, 1,    2400.48,   -0.3,   0.99946
"8", 4.16, 1,     2388.3,   -0.7,   0.99439
"12", 4.16, 1,    2388.12,   -0.7,   0.99432
"9", 4.16, 1,    2387.55,   -0.7,   0.99408
"13", 4.16, 1,    2380.19,   -0.9,   0.99101
"9R", 4.16, 1,    2312.94,   -0.7,   0.96301
"14", 4.16, 1,     2311.9,   -0.7,   0.96258
"34", 4.16, 1,    2379.59,   -0.9,   0.99076
"18", 4.16, 1,    2368.56,   -1.0,   0.98617
"11", 4.16, 1,    2311.49,   -0.7,   0.96241
"10", 4.16, 1,    2311.69,   -0.7,   0.96249
"15", 4.16, 1,    2379.35,   -0.9,   0.99066
"16", 4.16, 1,    2378.75,   -0.9,   0.99041
"17", 4.16, 1,    2379.07,   -0.9,   0.99055
"19", 4.16, 1,    2367.76,   -1.0,   0.98584
"21", 4.16, 1,    2367.56,   -1.1,   0.98575
"20", 4.16, 1,    2367.24,   -1.0,   0.98562
"22", 4.16, 1,    2366.72,   -1.1,    0.9854
"23", 4.16, 1,    2366.86,   -1.1,   0.98546
"24", 4.16, 1,    2365.98,   -1.1,   0.98509
"25", 4.16, 1,    2366.22,   -1.1,   0.98519
"25R", 4.16, 1,    2425.37,   -1.1,    1.0098
"26", 4.16, 1,    2425.02,   -1.1,    1.0097
"28", 4.16, 1,    2365.95,   -1.1,   0.98508
"27", 4.16, 1,    2424.88,   -1.1,    1.0096
"31", 4.16, 1,    2424.66,   -1.1,    1.0095
"33", 4.16, 1,    2424.09,   -1.1,    1.0093
"29", 4.16, 1,    2365.65,   -1.1,   0.98496
"30", 4.16, 1,    2365.48,   -1.1,   0.98489
"250", 4.16, 1,    2365.48,   -1.1,   0.98489
"32", 4.16, 1,    2424.43,   -1.1,    1.0094
"35", 4.16, 1,     2364.9,   -1.1,   0.98464
"36", 4.16, 1,    2364.22,   -1.1,   0.98436
"40", 4.16, 1,    2362.83,   -1.1,   0.98378
"37", 4.16, 1,    2363.74,   -1.1,   0.98416
"38", 4.16, 1,    2363.82,   -1.1,    0.9842
"39", 4.16, 1,    2363.56,   -1.1,   0.98409
"41", 4.16, 1,    2362.57,   -1.1,   0.98367
"42", 4.16, 1,    2360.82,   -1.1,   0.98295
"43", 4.16, 1,    2360.02,   -1.1,   0.98261
"44", 4.16, 1,    2359.36,   -1.1,   0.98234
"45", 4.16, 1,    2359.04,   -1.1,   0.98221
"47", 4.16, 1,    2357.67,   -1.2,   0.98163
"46", 4.16, 1,     2358.8,   -1.1,   0.98211
"48", 4.16, 1,    2357.31,   -1.2,   0.98149
"49", 4.16, 1,    2356.97,   -1.2,   0.98134
"50", 4.16, 1,    2356.78,   -1.2,   0.98127
"51", 4.16, 1,    2356.72,   -1.2,   0.98124
"151", 4.16, 1,    2356.72,   -1.2,   0.98124
"52", 4.16, 1,    2375.54,   -1.1,   0.98908
"53", 4.16, 1,    2373.33,   -1.2,   0.98816
"54", 4.16, 1,    2372.01,   -1.2,   0.98761
"55", 4.16, 1,    2371.87,   -1.2,   0.98755
"57", 4.16, 1,    2368.51,   -1.4,   0.98615
"56", 4.16, 1,    2371.81,   -1.2,   0.98752
"58", 4.16, 1,    2368.19,   -1.4,   0.98601
"60", 4.16, 1,    2361.38,   -1.7,   0.98318
"59", 4.16, 1,    2367.99,   -1.4,   0.98593
"61", 4.16, 1,    2361.38,   -1.7,   0.98318
"62", 4.16, 1,    2359.42,   -1.7,   0.98236
"63", 4.16, 1,    2358.23,   -1.7,   0.98187
"64", 4.16, 1,    2356.19,   -1.7,   0.98102
"65", 4.16, 1,    2354.51,   -1.7,   0.98032
"66", 4.16, 1,    2353.91,   -1.7,   0.98007
"67", 4.16, 1,    2300.63,   -1.9,   0.95789
"68", 4.16, 1,    2299.64,   -1.9,   0.95747
"72", 4.16, 1,    2301.21,   -2.0,   0.95813
"97", 4.16, 1,    2299.26,   -1.9,   0.95732
"69", 4.16, 1,     2298.5,   -1.9,     0.957
"70", 4.16, 1,     2297.7,   -1.9,   0.95667
"71", 4.16, 1,    2297.24,   -1.9,   0.95648
"73", 4.16, 1,    2299.85,   -2.0,   0.95756
"76", 4.16, 1,    2301.95,   -2.0,   0.95843
"74", 4.16, 1,     2298.7,   -2.0,   0.95708
"75", 4.16, 1,    2298.04,   -2.0,   0.95681
"77", 4.16, 1,    2304.82,   -2.1,   0.95963
"86", 4.16, 1,    2301.54,   -2.1,   0.95826
"78", 4.16, 1,    2305.59,   -2.1,   0.95995
"79", 4.16, 1,    2305.47,   -2.1,    0.9599
"80", 4.16, 1,    2309.49,   -2.2,   0.96158
"81", 4.16, 1,    2311.02,   -2.2,   0.96221
"82", 4.16, 1,    2313.39,   -2.3,    0.9632
"84", 4.16, 1,    2309.35,   -2.2,   0.96152
"83", 4.16, 1,    2315.89,   -2.3,   0.96424
"85", 4.16, 1,    2308.57,   -2.3,   0.96119
"87", 4.16, 1,    2301.39,   -2.1,    0.9582
"88", 4.16, 1,    2301.42,   -2.1,   0.95822
"89", 4.16, 1,     2301.3,   -2.1,   0.95817
"90", 4.16, 1,    2301.35,   -2.2,   0.95819
"91", 4.16, 1,    2301.15,   -2.2,    0.9581
"92", 4.16, 1,    2301.21,   -2.2,   0.95813
"93", 4.16, 1,    2300.92,   -2.2,   0.95801
"94", 4.16, 1,    2300.47,   -2.2,   0.95782
"95", 4.16, 1,    2300.77,   -2.2,   0.95794
"96", 4.16, 1,     2300.6,   -2.2,   0.95788
"98", 4.16, 1,    2298.88,   -1.9,   0.95716
"99", 4.16, 1,    2298.41,   -1.9,   0.95696
"100", 4.16, 1,     2298.3,   -1.9,   0.95692
"450", 4.16, 1,     2298.3,   -1.9,   0.95692
"197", 4.16, 1,    2299.26,   -1.9,   0.95732
"101", 4.16, 1,    2298.24,   -1.9,   0.95689
"102", 4.16, 1,    2297.31,   -1.9,    0.9565
"105", 4.16, 1,    2297.46,   -2.0,   0.95657
"103", 4.16, 1,    2296.23,   -2.0,   0.95606
"104", 4.16, 1,    2295.08,   -2.0,   0.95557
"106", 4.16, 1,    2296.72,   -2.0,   0.95626
"108", 4.16, 1,    2296.88,   -2.0,   0.95633
"107", 4.16, 1,    2295.77,   -2.0,   0.95586
"109", 4.16, 1,    2294.28,   -2.0,   0.95524
"300", 4.16, 1,    2296.88,   -2.0,   0.95633
"110", 4.16, 1,    2293.03,   -2.0,   0.95472
"111", 4.16, 1,    2292.56,   -2.0,   0.95453
"112", 4.16, 1,    2292.62,   -2.0,   0.95455
"113", 4.16, 1,    2291.32,   -2.0,   0.95401
"114", 4.16, 1,    2291.05,   -2.0,    0.9539
"135", 4.16, 1,    2368.56,   -1.0,   0.98617
"152", 4.16, 1,    2380.19,   -0.9,   0.99101
"160R", 4.16, 1,    2302.35,   -1.7,    0.9586
"150R", 4.16, 1,       2415,    0.0,    1.0055
"160", 4.16, 1,    2361.38,   -1.7,   0.98318
"610", 4.16, 1,    2361.38,   -1.7,   0.98318
