Bus, BasekV, Node1, Magnitude1, Angle1, pu1
"150", 4.16, 1,       2400,    0.0,   0.99926
"149", 4.16, 1,       2415,    0.0,    1.0055
"1", 4.16, 1,     2404.6,   -0.2,    1.0012
"2", 4.16, 1,    2404.47,   -0.2,    1.0011
"3", 4.16, 1,    2403.66,   -0.2,    1.0008
"7", 4.16, 1,    2397.39,   -0.4,   0.99817
"4", 4.16, 1,    2403.35,   -0.2,    1.0007
"5", 4.16, 1,    2402.92,   -0.2,    1.0005
"6", 4.16, 1,    2402.54,   -0.2,    1.0003
"8", 4.16, 1,    2392.64,   -0.5,    0.9962
"12", 4.16, 1,    2392.47,   -0.5,   0.99613
"9", 4.16, 1,     2392.1,   -0.5,   0.99597
"13", 4.16, 1,    2385.86,   -0.6,   0.99337
"9R", 4.16, 1,    2317.35,   -0.5,   0.96485
"14", 4.16, 1,    2316.35,   -0.5,   0.96443
"34", 4.16, 1,    2385.29,   -0.6,   0.99313
"18", 4.16, 1,    2375.69,   -0.7,   0.98914
"11", 4.16, 1,    2315.95,   -0.5,   0.96427
"10", 4.16, 1,    2316.15,   -0.5,   0.96435
"15", 4.16, 1,    2385.06,   -0.6,   0.99304
"16", 4.16, 1,    2384.49,   -0.6,    0.9928
"17", 4.16, 1,    2384.79,   -0.6,   0.99293
"19", 4.16, 1,    2374.92,   -0.7,   0.98882
"21", 4.16, 1,    2374.79,   -0.8,   0.98876
"20", 4.16, 1,    2374.42,   -0.7,   0.98861
"22", 4.16, 1,    2373.98,   -0.8,   0.98843
"23", 4.16, 1,    2374.16,   -0.8,    0.9885
"24", 4.16, 1,    2373.31,   -0.8,   0.98815
"25", 4.16, 1,    2373.59,   -0.8,   0.98827
"25R", 4.16, 1,    2432.93,   -0.8,     1.013
"26", 4.16, 1,    2432.59,   -0.8,    1.0128
"28", 4.16, 1,    2373.37,   -0.8,   0.98817
"27", 4.16, 1,    2432.46,   -0.8,    1.0128
"31", 4.16, 1,    2432.25,   -0.8,    1.0127
"33", 4.16, 1,    2431.71,   -0.8,    1.0125
"29", 4.16, 1,    2373.09,   -0.8,   0.98806
"30", 4.16, 1,    2372.92,   -0.8,   0.98799
"250", 4.16, 1,    2372.92,   -0.8,   0.98799
"32", 4.16, 1,    2432.03,   -0.8,    1.0126
"35", 4.16, 1,    2372.54,   -0.8,   0.98783
"36", 4.16, 1,     2371.9,   -0.8,   0.98756
"40", 4.16, 1,     2370.8,   -0.8,    0.9871
"37", 4.16, 1,    2371.43,   -0.8,   0.98737
"38", 4.16, 1,    2371.51,   -0.8,    0.9874
"39", 4.16, 1,    2371.26,   -0.8,   0.98729
"41", 4.16, 1,    2370.55,   -0.8,     0.987
"42", 4.16, 1,    2369.12,   -0.8,    0.9864
"43", 4.16, 1,    2368.35,   -0.8,   0.98608
"44", 4.16, 1,    2367.92,   -0.8,    0.9859
"45", 4.16, 1,    2367.61,   -0.8,   0.98578
"47", 4.16, 1,    2366.54,   -0.8,   0.98533
"46", 4.16, 1,    2367.38,   -0.8,   0.98568
"48", 4.16, 1,    2366.34,   -0.8,   0.98525
"49", 4.16, 1,    2365.87,   -0.8,   0.98505
"50", 4.16, 1,    2365.69,   -0.8,   0.98498
"51", 4.16, 1,    2365.63,   -0.8,   0.98495
"151", 4.16, 1,    2365.63,   -0.8,   0.98495
"52", 4.16, 1,    2382.24,   -0.8,   0.99187
"53", 4.16, 1,    2380.53,   -0.8,   0.99115
"54", 4.16, 1,    2379.52,   -0.9,   0.99074
"55", 4.16, 1,    2379.39,   -0.9,   0.99068
"57", 4.16, 1,    2376.88,   -1.0,   0.98963
"56", 4.16, 1,    2379.33,   -0.9,   0.99065
"58", 4.16, 1,    2376.67,   -1.0,   0.98955
"60", 4.16, 1,    2371.47,   -1.3,   0.98738
"59", 4.16, 1,    2376.48,   -1.0,   0.98947
"61", 4.16, 1,    2371.47,   -1.3,   0.98738
"62", 4.16, 1,    2370.13,   -1.2,   0.98682
"63", 4.16, 1,    2369.36,   -1.2,    0.9865
"64", 4.16, 1,    2368.16,   -1.2,     0.986
"65", 4.16, 1,    2367.45,   -1.2,   0.98571
"66", 4.16, 1,    2366.87,   -1.2,   0.98547
"67", 4.16, 1,    2310.98,   -1.4,   0.96219
"68", 4.16, 1,    2310.03,   -1.4,    0.9618
"72", 4.16, 1,    2311.82,   -1.4,   0.96255
"97", 4.16, 1,    2309.72,   -1.4,   0.96167
"69", 4.16, 1,    2308.95,   -1.4,   0.96135
"70", 4.16, 1,    2308.18,   -1.4,   0.96103
"71", 4.16, 1,    2307.74,   -1.4,   0.96085
"73", 4.16, 1,    2310.52,   -1.4,     0.962
"76", 4.16, 1,    2312.73,   -1.5,   0.96292
"74", 4.16, 1,    2309.41,   -1.5,   0.96154
"75", 4.16, 1,    2308.78,   -1.5,   0.96128
"77", 4.16, 1,    2315.38,   -1.5,   0.96403
"86", 4.16, 1,    2312.41,   -1.5,   0.96279
"78", 4.16, 1,     2316.1,   -1.6,   0.96433
"79", 4.16, 1,    2315.99,   -1.6,   0.96428
"80", 4.16, 1,    2319.72,   -1.6,   0.96583
"81", 4.16, 1,    2321.14,   -1.7,   0.96642
"82", 4.16, 1,    2323.35,   -1.7,   0.96734
"84", 4.16, 1,    2319.55,   -1.7,   0.96576
"83", 4.16, 1,    2325.68,   -1.7,   0.96832
"85", 4.16, 1,     2318.8,   -1.7,   0.96545
"87", 4.16, 1,    2312.31,   -1.6,   0.96275
"88", 4.16, 1,    2312.33,   -1.6,   0.96276
"89", 4.16, 1,    2312.21,   -1.6,   0.96271
"90", 4.16, 1,    2312.24,   -1.6,   0.96272
"91", 4.16, 1,    2312.06,   -1.6,   0.96265
"92", 4.16, 1,     2312.1,   -1.6,   0.96266
"93", 4.16, 1,    2311.84,   -1.6,   0.96255
"94", 4.16, 1,    2311.41,   -1.6,   0.96237
"95", 4.16, 1,     2311.7,   -1.6,   0.96249
"96", 4.16, 1,    2311.54,   -1.6,   0.96243
"98", 4.16, 1,    2309.41,   -1.4,   0.96154
"99", 4.16, 1,    2309.06,   -1.4,   0.96139
"100", 4.16, 1,    2309.01,   -1.4,   0.96138
"450", 4.16, 1,    2309.01,   -1.4,   0.96138
"197", 4.16, 1,    2309.72,   -1.4,   0.96167
"101", 4.16, 1,    2308.74,   -1.4,   0.96126
"102", 4.16, 1,    2307.85,   -1.4,   0.96089
"105", 4.16, 1,       2308,   -1.4,   0.96096
"103", 4.16, 1,    2306.83,   -1.4,   0.96047
"104", 4.16, 1,    2305.72,   -1.4,   0.96001
"106", 4.16, 1,    2307.29,   -1.4,   0.96066
"108", 4.16, 1,    2307.44,   -1.4,   0.96072
"107", 4.16, 1,    2306.38,   -1.4,   0.96028
"109", 4.16, 1,    2304.95,   -1.5,   0.95969
"300", 4.16, 1,    2307.44,   -1.4,   0.96072
"110", 4.16, 1,    2303.77,   -1.5,   0.95919
"111", 4.16, 1,    2303.31,   -1.5,     0.959
"112", 4.16, 1,    2303.37,   -1.5,   0.95903
"113", 4.16, 1,    2302.13,   -1.5,   0.95851
"114", 4.16, 1,    2301.87,   -1.5,    0.9584
"135", 4.16, 1,    2375.69,   -0.7,   0.98914
"152", 4.16, 1,    2385.86,   -0.6,   0.99337
"160R", 4.16, 1,    2312.19,   -1.3,    0.9627
"150R", 4.16, 1,       2415,    0.0,    1.0055
"160", 4.16, 1,    2371.47,   -1.3,   0.98738
"610", 4.16, 1,    2371.47,   -1.3,   0.98738
