Bus, BasekV, Node1, Magnitude1, Angle1, pu1
"150", 4.16, 1,       2400,    0.0,   0.99926
"149", 4.16, 1,       2415,    0.0,    1.0055
"1", 4.16, 1,     2400.6,   -0.4,   0.99951
"2", 4.16, 1,    2400.46,   -0.4,   0.99945
"3", 4.16, 1,    2399.58,   -0.4,   0.99908
"7", 4.16, 1,    2390.47,   -0.6,   0.99529
"4", 4.16, 1,    2399.25,   -0.4,   0.99895
"5", 4.16, 1,    2398.78,   -0.4,   0.99875
"6", 4.16, 1,    2398.37,   -0.4,   0.99858
"8", 4.16, 1,     2383.8,   -0.8,   0.99252
"12", 4.16, 1,    2383.62,   -0.8,   0.99244
"9", 4.16, 1,    2382.87,   -0.8,   0.99213
"13", 4.16, 1,     2374.3,   -1.1,   0.98856
"9R", 4.16, 1,    2308.41,   -0.8,   0.96113
"14", 4.16, 1,    2307.32,   -0.8,   0.96067
"34", 4.16, 1,    2373.68,   -1.1,    0.9883
"18", 4.16, 1,    2361.39,   -1.3,   0.98318
"11", 4.16, 1,     2306.9,   -0.8,    0.9605
"10", 4.16, 1,    2307.11,   -0.8,   0.96058
"15", 4.16, 1,    2373.43,   -1.1,    0.9882
"16", 4.16, 1,    2372.81,   -1.1,   0.98794
"17", 4.16, 1,    2373.14,   -1.1,   0.98808
"19", 4.16, 1,    2360.56,   -1.3,   0.98284
"21", 4.16, 1,    2360.31,   -1.3,   0.98273
"20", 4.16, 1,    2360.01,   -1.3,   0.98261
"22", 4.16, 1,    2359.43,   -1.3,   0.98237
"23", 4.16, 1,    2359.53,   -1.3,   0.98241
"24", 4.16, 1,    2358.62,   -1.3,   0.98203
"25", 4.16, 1,    2358.82,   -1.3,   0.98212
"25R", 4.16, 1,    2417.79,   -1.3,    1.0067
"26", 4.16, 1,    2417.42,   -1.3,    1.0065
"28", 4.16, 1,    2358.51,   -1.3,   0.98199
"27", 4.16, 1,    2417.28,   -1.3,    1.0065
"31", 4.16, 1,    2417.06,   -1.3,    1.0064
"33", 4.16, 1,    2416.47,   -1.3,    1.0061
"29", 4.16, 1,    2358.21,   -1.3,   0.98186
"30", 4.16, 1,    2358.02,   -1.3,   0.98178
"250", 4.16, 1,    2358.02,   -1.3,   0.98178
"32", 4.16, 1,    2416.81,   -1.3,    1.0063
"35", 4.16, 1,    2357.27,   -1.3,   0.98147
"36", 4.16, 1,    2356.56,   -1.4,   0.98118
"40", 4.16, 1,    2354.91,   -1.4,   0.98049
"37", 4.16, 1,    2356.06,   -1.4,   0.98097
"38", 4.16, 1,    2356.15,   -1.4,     0.981
"39", 4.16, 1,    2355.88,   -1.4,   0.98089
"41", 4.16, 1,    2354.64,   -1.4,   0.98037
"42", 4.16, 1,    2352.62,   -1.4,   0.97953
"43", 4.16, 1,    2351.78,   -1.4,   0.97918
"44", 4.16, 1,    2350.94,   -1.4,   0.97883
"45", 4.16, 1,     2350.6,   -1.4,   0.97869
"47", 4.16, 1,    2348.97,   -1.5,   0.97801
"46", 4.16, 1,    2350.35,   -1.4,   0.97859
"48", 4.16, 1,    2348.47,   -1.5,   0.97781
"49", 4.16, 1,    2348.24,   -1.5,   0.97771
"50", 4.16, 1,    2348.04,   -1.5,   0.97763
"51", 4.16, 1,    2347.98,   -1.5,    0.9776
"151", 4.16, 1,    2347.98,   -1.5,    0.9776
"52", 4.16, 1,    2368.46,   -1.3,   0.98613
"53", 4.16, 1,    2365.66,   -1.4,   0.98496
"54", 4.16, 1,    2363.98,   -1.5,   0.98426
"55", 4.16, 1,    2363.83,   -1.5,    0.9842
"57", 4.16, 1,    2359.47,   -1.7,   0.98238
"56", 4.16, 1,    2363.76,   -1.5,   0.98417
"58", 4.16, 1,    2359.05,   -1.7,   0.98221
"60", 4.16, 1,    2350.29,   -2.1,   0.97856
"59", 4.16, 1,    2358.84,   -1.7,   0.98212
"61", 4.16, 1,    2350.29,   -2.1,   0.97856
"62", 4.16, 1,     2347.8,   -2.1,   0.97752
"63", 4.16, 1,    2346.23,   -2.1,   0.97687
"64", 4.16, 1,    2343.48,   -2.1,   0.97573
"65", 4.16, 1,    2340.95,   -2.1,   0.97468
"66", 4.16, 1,    2340.32,   -2.1,   0.97441
"67", 4.16, 1,    2289.12,   -2.3,   0.95309
"68", 4.16, 1,    2288.09,   -2.3,   0.95267
"72", 4.16, 1,    2289.28,   -2.4,   0.95316
"97", 4.16, 1,    2287.66,   -2.4,   0.95249
"69", 4.16, 1,    2286.91,   -2.3,   0.95217
"70", 4.16, 1,    2286.07,   -2.3,   0.95182
"71", 4.16, 1,     2285.6,   -2.4,   0.95163
"73", 4.16, 1,    2287.87,   -2.4,   0.95257
"76", 4.16, 1,    2289.72,   -2.5,   0.95335
"74", 4.16, 1,    2286.66,   -2.4,   0.95207
"75", 4.16, 1,    2285.98,   -2.5,   0.95179
"77", 4.16, 1,    2292.57,   -2.6,   0.95453
"86", 4.16, 1,    2289.12,   -2.6,   0.95309
"78", 4.16, 1,    2293.33,   -2.6,   0.95485
"79", 4.16, 1,    2293.21,   -2.6,    0.9548
"80", 4.16, 1,    2297.22,   -2.7,   0.95647
"81", 4.16, 1,    2298.74,   -2.7,    0.9571
"82", 4.16, 1,    2301.12,   -2.7,   0.95809
"84", 4.16, 1,    2297.01,   -2.7,   0.95638
"83", 4.16, 1,    2303.63,   -2.8,   0.95914
"85", 4.16, 1,     2296.2,   -2.7,   0.95604
"87", 4.16, 1,    2288.85,   -2.6,   0.95298
"88", 4.16, 1,    2288.88,   -2.6,   0.95299
"89", 4.16, 1,    2288.74,   -2.6,   0.95294
"90", 4.16, 1,    2288.78,   -2.6,   0.95295
"91", 4.16, 1,    2288.58,   -2.6,   0.95287
"92", 4.16, 1,    2288.62,   -2.6,   0.95289
"93", 4.16, 1,    2288.34,   -2.6,   0.95277
"94", 4.16, 1,    2287.87,   -2.6,   0.95257
"95", 4.16, 1,    2288.18,   -2.6,    0.9527
"96", 4.16, 1,    2288.01,   -2.6,   0.95263
"98", 4.16, 1,    2287.22,   -2.4,    0.9523
"99", 4.16, 1,    2286.63,   -2.4,   0.95206
"100", 4.16, 1,    2286.47,   -2.4,   0.95199
"450", 4.16, 1,    2286.47,   -2.4,   0.95199
"197", 4.16, 1,    2287.66,   -2.4,   0.95249
"101", 4.16, 1,    2286.59,   -2.4,   0.95204
"102", 4.16, 1,    2285.62,   -2.4,   0.95164
"105", 4.16, 1,    2285.79,   -2.4,   0.95171
"103", 4.16, 1,    2284.51,   -2.4,   0.95117
"104", 4.16, 1,     2283.3,   -2.4,   0.95067
"106", 4.16, 1,    2285.01,   -2.4,   0.95138
"108", 4.16, 1,    2285.18,   -2.4,   0.95145
"107", 4.16, 1,    2284.02,   -2.4,   0.95097
"109", 4.16, 1,    2282.47,   -2.4,   0.95032
"300", 4.16, 1,    2285.18,   -2.4,   0.95145
"110", 4.16, 1,    2281.17,   -2.4,   0.94979
"111", 4.16, 1,    2280.68,   -2.4,   0.94958
"112", 4.16, 1,    2280.74,   -2.4,   0.94961
"113", 4.16, 1,    2279.39,   -2.4,   0.94904
"114", 4.16, 1,     2279.1,   -2.5,   0.94892
"135", 4.16, 1,    2361.39,   -1.3,   0.98318
"152", 4.16, 1,     2374.3,   -1.1,   0.98856
"160R", 4.16, 1,    2291.54,   -2.1,    0.9541
"150R", 4.16, 1,       2415,    0.0,    1.0055
"160", 4.16, 1,    2350.29,   -2.1,   0.97856
"610", 4.16, 1,    2350.29,   -2.1,   0.97856
