Bus, BasekV, Node1, Magnitude1, Angle1, pu1
"1", 4.16, 1,    2473.85,    0.0,      1.03
"3", 4.16, 1,    2463.82,   -0.3,    1.0258
"4", 4.16, 1,    2463.71,   -0.3,    1.0258
"6", 4.16, 1,    2462.79,   -0.3,    1.0254
"7", 4.16, 1,    2462.43,   -0.3,    1.0253
"8", 4.16, 1,    2462.11,   -0.3,    1.0251
"9", 4.16, 1,     2456.8,   -0.5,    1.0229
"11", 4.16, 1,    2451.46,   -0.7,    1.0207
"12", 4.16, 1,    2451.31,   -0.7,    1.0206
"13", 4.16, 1,    2451.15,   -0.7,    1.0206
"14", 4.16, 1,    2452.03,   -0.7,    1.0209
"18", 4.16, 1,    2444.47,   -0.9,    1.0178
"19", 4.16, 1,    2444.72,   -0.9,    1.0179
"21", 4.16, 1,    2434.94,   -1.1,    1.0138
"22", 4.16, 1,    2434.53,   -1.1,    1.0136
"24", 4.16, 1,    2434.11,   -1.1,    1.0135
"26", 4.16, 1,    2433.51,   -1.1,    1.0132
"30", 4.16, 1,    2433.46,   -1.1,    1.0132
"31", 4.16, 1,    2433.23,   -1.1,    1.0131
"32", 4.16, 1,     2433.1,   -1.1,     1.013
"33", 4.16, 1,    2433.13,   -1.1,    1.0131
"34", 4.16, 1,    2432.93,   -1.1,     1.013
"35", 4.16, 1,    2432.67,   -1.1,    1.0129
"36", 4.16, 1,    2445.13,   -0.9,    1.0181
"37", 4.16, 1,    2432.31,   -1.1,    1.0127
"39", 4.16, 1,    2431.42,   -1.1,    1.0123
"40", 4.16, 1,    2431.48,   -1.1,    1.0124
"41", 4.16, 1,    2431.27,   -1.1,    1.0123
"43", 4.16, 1,    2430.21,   -1.2,    1.0118
"44", 4.16, 1,    2428.57,   -1.2,    1.0112
"45", 4.16, 1,    2427.94,   -1.2,    1.0109
"47", 4.16, 1,    2426.95,   -1.2,    1.0105
"48", 4.16, 1,    2426.76,   -1.2,    1.0104
"49", 4.16, 1,     2425.6,   -1.2,    1.0099
"50", 4.16, 1,    2425.19,   -1.2,    1.0097
"51", 4.16, 1,    2425.02,   -1.2,    1.0097
"52", 4.16, 1,    2424.88,   -1.2,    1.0096
"53", 4.16, 1,    2424.83,   -1.2,    1.0096
"54", 4.16, 1,    2442.14,   -1.1,    1.0168
"55", 4.16, 1,    2440.49,   -1.2,    1.0161
"57", 4.16, 1,    2439.42,   -1.3,    1.0157
"58", 4.16, 1,    2439.36,   -1.3,    1.0156
"60", 4.16, 1,    2436.61,   -1.4,    1.0145
"61", 4.16, 1,    2436.45,   -1.4,    1.0144
"62", 4.16, 1,    2431.73,   -1.8,    1.0125
"64", 4.16, 1,    2429.75,   -1.8,    1.0116
"65", 4.16, 1,    2428.51,   -1.8,    1.0111
"66", 4.16, 1,    2426.32,   -1.8,    1.0102
"67", 4.16, 1,     2424.3,   -1.8,    1.0094
"68", 4.16, 1,    2423.81,   -1.8,    1.0092
"70", 4.16, 1,    2430.02,   -2.0,    1.0118
"71", 4.16, 1,    2429.14,   -2.0,    1.0114
"72", 4.16, 1,    2428.52,   -2.0,    1.0111
"73", 4.16, 1,    2428.17,   -2.0,     1.011
"75", 4.16, 1,    2430.47,   -2.0,    1.0119
"76", 4.16, 1,    2429.58,   -2.1,    1.0116
"77", 4.16, 1,    2429.07,   -2.1,    1.0114
"78", 4.16, 1,    2432.28,   -2.1,    1.0127
"79", 4.16, 1,    2434.53,   -2.1,    1.0136
"81", 4.16, 1,    2435.01,   -2.2,    1.0138
"82", 4.16, 1,    2438.48,   -2.2,    1.0153
"84", 4.16, 1,       2442,   -2.3,    1.0167
"85", 4.16, 1,    2444.34,   -2.3,    1.0177
"86", 4.16, 1,    2437.88,   -2.2,     1.015
"87", 4.16, 1,    2436.97,   -2.2,    1.0147
"88", 4.16, 1,    2434.29,   -2.2,    1.0135
"89", 4.16, 1,    2435.74,   -2.2,    1.0141
"90", 4.16, 1,    2436.32,   -2.2,    1.0144
"92", 4.16, 1,    2437.07,   -2.3,    1.0147
"94", 4.16, 1,    2437.41,   -2.3,    1.0148
"96", 4.16, 1,    2435.58,   -2.2,    1.0141
"97", 4.16, 1,    2435.91,   -2.2,    1.0142
"98", 4.16, 1,    2435.71,   -2.2,    1.0141
"100", 4.16, 1,    2429.42,   -2.0,    1.0115
"101", 4.16, 1,       2429,   -2.0,    1.0113
"102", 4.16, 1,    2428.88,   -2.0,    1.0113
"104", 4.16, 1,    2428.25,   -2.0,     1.011
"105", 4.16, 1,    2427.42,   -2.0,    1.0107
"106", 4.16, 1,    2426.53,   -2.0,    1.0103
"108", 4.16, 1,    2427.82,   -2.0,    1.0108
"109", 4.16, 1,    2427.09,   -2.0,    1.0105
"111", 4.16, 1,    2425.95,   -2.0,    1.0101
"113", 4.16, 1,    2424.63,   -2.0,    1.0095
"114", 4.16, 1,    2424.68,   -2.0,    1.0095
"115", 4.16, 1,    2423.67,   -2.1,    1.0091
"116", 4.16, 1,    2423.46,   -2.1,     1.009
"2", 4.16, 1,    2473.85,    0.0,      1.03
"5", 4.16, 1,    2463.04,   -0.3,    1.0255
"10", 4.16, 1,    2452.17,   -0.7,     1.021
"15", 4.16, 1,    2445.61,   -0.9,    1.0182
"126", 4.16, 1,    2451.46,   -0.7,    1.0207
"16", 4.16, 1,    2451.46,   -0.7,    1.0207
"20", 4.16, 1,    2435.58,   -1.1,    1.0141
"17", 4.16, 1,    2444.94,   -0.9,     1.018
"23", 4.16, 1,    2434.78,   -1.1,    1.0137
"25", 4.16, 1,    2434.21,   -1.1,    1.0135
"27", 4.16, 1,    2433.69,   -1.1,    1.0133
"127", 4.16, 1,    2433.69,   -1.1,    1.0133
"28", 4.16, 1,    2433.41,   -1.1,    1.0132
"29", 4.16, 1,     2433.3,   -1.1,    1.0131
"119", 4.16, 1,     2433.1,   -1.1,     1.013
"38", 4.16, 1,     2431.8,   -1.1,    1.0125
"42", 4.16, 1,    2430.42,   -1.1,    1.0119
"46", 4.16, 1,    2427.21,   -1.2,    1.0106
"56", 4.16, 1,    2439.52,   -1.3,    1.0157
"59", 4.16, 1,    2436.93,   -1.4,    1.0146
"63", 4.16, 1,    2431.73,   -1.8,    1.0125
"69", 4.16, 1,    2430.78,   -1.9,    1.0121
"74", 4.16, 1,    2431.52,   -2.0,    1.0124
"99", 4.16, 1,    2429.73,   -2.0,    1.0116
"80", 4.16, 1,    2435.16,   -2.2,    1.0139
"83", 4.16, 1,    2439.82,   -2.2,    1.0158
"91", 4.16, 1,    2436.33,   -2.2,    1.0144
"93", 4.16, 1,    2436.42,   -2.2,    1.0144
"95", 4.16, 1,    2436.11,   -2.2,    1.0143
"123", 4.16, 1,    2428.88,   -2.0,    1.0113
"103", 4.16, 1,    2428.97,   -2.0,    1.0113
"107", 4.16, 1,    2428.39,   -2.0,    1.0111
"110", 4.16, 1,    2427.96,   -2.0,    1.0109
"121", 4.16, 1,    2427.96,   -2.0,    1.0109
"112", 4.16, 1,    2424.99,   -2.0,    1.0097
"118", 4.16, 1,    2435.58,   -1.1,    1.0141
"117", 4.16, 1,    2445.61,   -0.9,    1.0182
"120", 4.16, 1,    2424.83,   -1.2,    1.0096
"125", 4.16, 1,    2431.73,   -1.8,    1.0125
"128", 4.16, 1,    2431.73,   -1.8,    1.0125
"124", 4.16, 1,    2429.73,   -2.0,    1.0116
"122", 4.16, 1,    2431.73,   -1.8,    1.0125
