Element, Terminal, P(kW), Q(kvar),  P_Normal, Q_Normal, P_Emergency, Q_Emergency
"Line.L1"               ,   1,       887.4,       149.6,         0.0,         0.0,         0.0,         0.0
"Line.L1"               ,   2,      -887.4,      -149.6
"Line.L2"               ,   1,       887.4,       149.6,         0.0,         0.0,         0.0,         0.0
"Line.L2"               ,   2,      -884.3,      -143.3
"Line.L3"               ,   1,         5.2,         2.6,         0.0,         0.0,         0.0,         0.0
"Line.L3"               ,   2,        -5.2,        -2.6
"Line.L4"               ,   1,        26.1,        13.0,         0.0,         0.0,         0.0,         0.0
"Line.L4"               ,   2,       -26.1,       -13.0
"Line.L5"               ,   1,       847.3,       128.7,         0.0,         0.0,         0.0,         0.0
"Line.L5"               ,   2,      -845.2,      -124.4
"Line.L6"               ,   1,        10.4,         5.2,         0.0,         0.0,         0.0,         0.0
"Line.L6"               ,   2,       -10.4,        -5.2
"Line.L7"               ,   1,        15.6,         7.8,         0.0,         0.0,         0.0,         0.0
"Line.L7"               ,   2,       -15.6,        -7.8
"Line.L8"               ,   1,        10.4,         5.2,         0.0,         0.0,         0.0,         0.0
"Line.L8"               ,   2,       -10.4,        -5.2
"Line.L9"               ,   1,       840.0,       121.7,         0.0,         0.0,         0.0,         0.0
"Line.L9"               ,   2,      -838.6,      -118.9
"Line.L10"              ,   1,         5.2,         2.6,         0.0,         0.0,         0.0,         0.0
"Line.L10"              ,   2,        -5.2,        -2.6
"Line.L11"              ,   1,        26.1,        13.0,         0.0,         0.0,         0.0,         0.0
"Line.L11"              ,   2,       -26.1,       -13.0
"Line.L12"              ,   1,       807.3,       103.3,         0.0,         0.0,         0.0,         0.0
"Line.L12"              ,   2,      -805.4,       -99.4
"Line.L13"              ,   1,        15.6,         7.8,         0.0,         0.0,         0.0,         0.0
"Line.L13"              ,   2,       -15.6,        -7.8
"Line.L14"              ,   1,        15.6,         7.8,         0.0,         0.0,         0.0,         0.0
"Line.L14"              ,   2,       -15.6,        -7.8
"Line.L15"              ,   1,        20.6,         6.8,         0.0,         0.0,         0.0,         0.0
"Line.L15"              ,   2,       -20.6,        -6.8
"Line.L16"              ,   1,       284.5,       162.8,         0.0,         0.0,         0.0,         0.0
"Line.L16"              ,   2,      -283.6,      -161.1
"Line.L17"              ,   1,        10.4,         5.2,         0.0,         0.0,         0.0,         0.0
"Line.L17"              ,   2,       -10.4,        -5.2
"Line.L18"              ,   1,         5.2,         2.6,         0.0,         0.0,         0.0,         0.0
"Line.L18"              ,   2,        -5.2,        -2.6
"Line.L19"              ,   1,         4.9,        -1.0,         0.0,         0.0,         0.0,         0.0
"Line.L19"              ,   2,        -4.9,         1.0
"Line.L20"              ,   1,         5.2,         2.6,         0.0,         0.0,         0.0,         0.0
"Line.L20"              ,   2,        -5.2,        -2.6
"Line.L21"              ,   1,        20.9,        10.4,         0.0,         0.0,         0.0,         0.0
"Line.L21"              ,   2,       -20.9,       -10.4
"Line.L22"              ,   1,        67.8,        30.3,         0.0,         0.0,         0.0,         0.0
"Line.L22"              ,   2,       -67.7,       -30.3
"Line.L23"              ,   1,        10.4,         5.2,         0.0,         0.0,         0.0,         0.0
"Line.L23"              ,   2,       -10.4,        -5.2
"Line.L24"              ,   1,        10.4,         5.2,         0.0,         0.0,         0.0,         0.0
"Line.L24"              ,   2,       -10.4,        -5.2
"Line.L25"              ,   1,        57.3,        25.0,         0.0,         0.0,         0.0,         0.0
"Line.L25"              ,   2,       -57.3,       -25.0
"Line.L26"              ,   1,        10.4,         5.2,         0.0,         0.0,         0.0,         0.0
"Line.L26"              ,   2,       -10.4,        -5.2
"Line.L27"              ,   1,        46.9,        19.8,         0.0,         0.0,         0.0,         0.0
"Line.L27"              ,   2,       -46.9,       -19.8
"Line.L28"              ,   1,        15.6,         4.2,         0.0,         0.0,         0.0,         0.0
"Line.L28"              ,   2,       -15.6,        -4.2
"Line.L29"              ,   1,        15.6,         4.2,         0.0,         0.0,         0.0,         0.0
"Line.L29"              ,   2,       -15.6,        -4.2
"Line.L30"              ,   1,        31.3,        15.6,         0.0,         0.0,         0.0,         0.0
"Line.L30"              ,   2,       -31.3,       -15.6
"Line.L31"              ,   1,         5.2,        -1.0,         0.0,         0.0,         0.0,         0.0
"Line.L31"              ,   2,        -5.2,         1.0
"Line.L32"              ,   1,        10.4,         5.2,         0.0,         0.0,         0.0,         0.0
"Line.L32"              ,   2,       -10.4,        -5.2
"Line.L33"              ,   1,         5.2,        -1.0,         0.0,         0.0,         0.0,         0.0
"Line.L33"              ,   2,        -5.2,         1.0
"Line.L34"              ,   1,        20.9,        10.4,         0.0,         0.0,         0.0,         0.0
"Line.L34"              ,   2,       -20.8,       -10.4
"Line.L35"              ,   1,        10.4,         5.2,         0.0,         0.0,         0.0,         0.0
"Line.L35"              ,   2,       -10.4,        -5.2
"Line.L36"              ,   1,         0.0,        -0.0,         0.0,         0.0,         0.0,         0.0
"Line.L36"              ,   2,         0.0,         0.0
"Line.L37"              ,   1,         5.2,         2.6,         0.0,         0.0,         0.0,         0.0
"Line.L37"              ,   2,        -5.2,        -2.6
"Line.L38"              ,   1,        10.1,         1.6,         0.0,         0.0,         0.0,         0.0
"Line.L38"              ,   2,       -10.1,        -1.6
"Line.L39"              ,   1,        20.9,        10.4,         0.0,         0.0,         0.0,         0.0
"Line.L39"              ,   2,       -20.9,       -10.4
"Line.L40"              ,   1,       163.5,       104.3,         0.0,         0.0,         0.0,         0.0
"Line.L40"              ,   2,      -163.4,      -104.2
"Line.L41"              ,   1,        10.4,         5.2,         0.0,         0.0,         0.0,         0.0
"Line.L41"              ,   2,       -10.4,        -5.2
"Line.L42"              ,   1,        10.4,         5.2,         0.0,         0.0,         0.0,         0.0
"Line.L42"              ,   2,       -10.4,        -5.2
"Line.L43"              ,   1,         5.2,         2.6,         0.0,         0.0,         0.0,         0.0
"Line.L43"              ,   2,        -5.2,        -2.6
"Line.L44"              ,   1,         5.2,         2.6,         0.0,         0.0,         0.0,         0.0
"Line.L44"              ,   2,        -5.2,        -2.6
"Line.L45"              ,   1,       158.2,       101.6,         0.0,         0.0,         0.0,         0.0
"Line.L45"              ,   2,      -158.1,      -101.4
"Line.L46"              ,   1,        10.4,         5.2,         0.0,         0.0,         0.0,         0.0
"Line.L46"              ,   2,       -10.4,        -5.2
"Line.L47"              ,   1,       142.5,        93.6,         0.0,         0.0,         0.0,         0.0
"Line.L47"              ,   2,      -142.4,       -93.5
"Line.L48"              ,   1,         8.1,         2.1,         0.0,         0.0,         0.0,         0.0
"Line.L48"              ,   2,        -8.1,        -2.1
"Line.L49"              ,   1,       134.3,        91.4,         0.0,         0.0,         0.0,         0.0
"Line.L49"              ,   2,      -134.3,       -91.2
"Line.L50"              ,   1,         2.9,        -0.5,         0.0,         0.0,         0.0,         0.0
"Line.L50"              ,   2,        -2.9,         0.5
"Line.L51"              ,   1,        54.8,        39.1,         0.0,         0.0,         0.0,         0.0
"Line.L51"              ,   2,       -54.7,       -39.1
"Line.L52"              ,   1,        52.1,        32.6,         0.0,         0.0,         0.0,         0.0
"Line.L52"              ,   2,       -52.1,       -32.6
"Line.L53"              ,   1,        15.6,         7.8,         0.0,         0.0,         0.0,         0.0
"Line.L53"              ,   2,       -15.6,        -7.8
"Line.L54"              ,   1,         5.2,         2.6,         0.0,         0.0,         0.0,         0.0
"Line.L54"              ,   2,        -5.2,        -2.6
"Line.L55"              ,   1,       488.9,       -77.5,         0.0,         0.0,         0.0,         0.0
"Line.L55"              ,   2,      -488.5,        78.4
"Line.L56"              ,   1,       478.0,       -83.7,         0.0,         0.0,         0.0,         0.0
"Line.L56"              ,   2,      -477.7,        84.2
"Line.L57"              ,   1,        10.4,         5.2,         0.0,         0.0,         0.0,         0.0
"Line.L57"              ,   2,       -10.4,        -5.2
"Line.L58"              ,   1,       467.3,       -89.4,         0.0,         0.0,         0.0,         0.0
"Line.L58"              ,   2,      -466.5,        91.0
"Line.L59"              ,   1,         5.2,         2.6,         0.0,         0.0,         0.0,         0.0
"Line.L59"              ,   2,        -5.2,        -2.6
"Line.L60"              ,   1,         7.8,         2.1,         0.0,         0.0,         0.0,         0.0
"Line.L60"              ,   2,        -7.8,        -2.1
"Line.L61"              ,   1,       458.7,       -93.1,         0.0,         0.0,         0.0,         0.0
"Line.L61"              ,   2,      -457.1,        96.4
"Line.L62"              ,   1,         2.6,        -0.5,         0.0,         0.0,         0.0,         0.0
"Line.L62"              ,   2,        -2.6,         0.5
"Line.L63"              ,   1,         0.0,        -0.0,         0.0,         0.0,         0.0,         0.0
"Line.L63"              ,   2,        -0.0,         0.0
"Line.L64"              ,   1,        96.8,        54.9,         0.0,         0.0,         0.0,         0.0
"Line.L64"              ,   2,       -96.7,       -54.8
"Line.L65"              ,   1,        86.2,        49.6,         0.0,         0.0,         0.0,         0.0
"Line.L65"              ,   2,       -86.2,       -49.6
"Line.L66"              ,   1,        75.8,        44.4,         0.0,         0.0,         0.0,         0.0
"Line.L66"              ,   2,       -75.7,       -44.3
"Line.L67"              ,   1,        56.1,        35.2,         0.0,         0.0,         0.0,         0.0
"Line.L67"              ,   2,       -56.1,       -35.2
"Line.L68"              ,   1,        19.6,         9.1,         0.0,         0.0,         0.0,         0.0
"Line.L68"              ,   2,       -19.6,        -9.1
"Line.L69"              ,   1,        25.8,         9.6,         0.0,         0.0,         0.0,         0.0
"Line.L69"              ,   2,       -25.8,        -9.6
"Line.L70"              ,   1,       221.3,      -213.7,         0.0,         0.0,         0.0,         0.0
"Line.L70"              ,   2,      -221.0,       214.3
"Line.L71"              ,   1,       107.5,        49.3,         0.0,         0.0,         0.0,         0.0
"Line.L71"              ,   2,      -107.5,       -49.2
"Line.L72"              ,   1,        20.6,         6.9,         0.0,         0.0,         0.0,         0.0
"Line.L72"              ,   2,       -20.6,        -6.9
"Line.L73"              ,   1,        10.2,         1.7,         0.0,         0.0,         0.0,         0.0
"Line.L73"              ,   2,       -10.2,        -1.7
"Line.L74"              ,   1,         5.0,        -0.9,         0.0,         0.0,         0.0,         0.0
"Line.L74"              ,   2,        -5.0,         0.9
"Line.L75"              ,   1,        31.3,        15.6,         0.0,         0.0,         0.0,         0.0
"Line.L75"              ,   2,       -31.3,       -15.6
"Line.L76"              ,   1,       189.7,      -229.9,         0.0,         0.0,         0.0,         0.0
"Line.L76"              ,   2,      -189.6,       230.3
"Line.L77"              ,   1,        20.9,        10.4,         0.0,         0.0,         0.0,         0.0
"Line.L77"              ,   2,       -20.9,       -10.4
"Line.L78"              ,   1,        10.4,         5.2,         0.0,         0.0,         0.0,         0.0
"Line.L78"              ,   2,       -10.4,        -5.2
"Line.L79"              ,   1,        57.6,      -161.5,         0.0,         0.0,         0.0,         0.0
"Line.L79"              ,   2,       -57.5,       161.7
"Line.L80"              ,   1,        68.1,      -115.7,         0.0,         0.0,         0.0,         0.0
"Line.L80"              ,   2,       -67.9,       115.9
"Line.L81"              ,   1,        47.1,      -167.0,         0.0,         0.0,         0.0,         0.0
"Line.L81"              ,   2,       -47.1,       167.0
"Line.L82"              ,   1,        10.4,         5.2,         0.0,         0.0,         0.0,         0.0
"Line.L82"              ,   2,       -10.4,        -5.2
"Line.L83"              ,   1,        36.6,      -172.2,         0.0,         0.0,         0.0,         0.0
"Line.L83"              ,   2,       -36.5,       172.5
"Line.L84"              ,   1,        26.1,      -177.7,         0.0,         0.0,         0.0,         0.0
"Line.L84"              ,   2,       -26.0,       177.8
"Line.L85"              ,   1,        15.8,      -191.8,         0.0,         0.0,         0.0,         0.0
"Line.L85"              ,   2,       -15.7,       192.0
"Line.L86"              ,   1,        10.2,        14.0,         0.0,         0.0,         0.0,         0.0
"Line.L86"              ,   2,       -10.2,       -14.0
"Line.L87"              ,   1,         5.3,      -197.2,         0.0,         0.0,         0.0,         0.0
"Line.L87"              ,   2,        -5.2,       197.4
"Line.L88"              ,   1,         5.0,        11.4,         0.0,         0.0,         0.0,         0.0
"Line.L88"              ,   2,        -5.0,       -11.4
"Line.L89"              ,   1,        62.7,      -118.5,         0.0,         0.0,         0.0,         0.0
"Line.L89"              ,   2,       -62.6,       118.7
"Line.L90"              ,   1,        10.4,       -44.8,         0.0,         0.0,         0.0,         0.0
"Line.L90"              ,   2,       -10.4,        44.8
"Line.L91"              ,   1,        41.8,       -79.1,         0.0,         0.0,         0.0,         0.0
"Line.L91"              ,   2,       -41.8,        79.1
"Line.L92"              ,   1,        10.4,       -44.8,         0.0,         0.0,         0.0,         0.0
"Line.L92"              ,   2,       -10.4,        44.8
"Line.L93"              ,   1,        31.3,       -34.4,         0.0,         0.0,         0.0,         0.0
"Line.L93"              ,   2,       -31.3,        34.4
"Line.L94"              ,   1,        10.5,       -44.8,         0.0,         0.0,         0.0,         0.0
"Line.L94"              ,   2,       -10.4,        44.8
"Line.L95"              ,   1,        20.9,        10.4,         0.0,         0.0,         0.0,         0.0
"Line.L95"              ,   2,       -20.9,       -10.4
"Line.L96"              ,   1,        10.4,         5.2,         0.0,         0.0,         0.0,         0.0
"Line.L96"              ,   2,       -10.4,        -5.2
"Line.L97"              ,   1,        10.4,         5.2,         0.0,         0.0,         0.0,         0.0
"Line.L97"              ,   2,       -10.4,        -5.2
"Line.L98"              ,   1,         5.2,         2.6,         0.0,         0.0,         0.0,         0.0
"Line.L98"              ,   2,        -5.2,        -2.6
"Line.L99"              ,   1,        26.6,        10.6,         0.0,         0.0,         0.0,         0.0
"Line.L99"              ,   2,       -26.6,       -10.6
"Line.L100"             ,   1,        16.2,         5.4,         0.0,         0.0,         0.0,         0.0
"Line.L100"             ,   2,       -16.2,        -5.4
"Line.L101"             ,   1,        10.4,         5.2,         0.0,         0.0,         0.0,         0.0
"Line.L101"             ,   2,       -10.4,        -5.2
"Line.L102"             ,   1,         0.0,        -0.0,         0.0,         0.0,         0.0,         0.0
"Line.L102"             ,   2,         0.0,         0.0
"Line.L103"             ,   1,        26.1,        13.0,         0.0,         0.0,         0.0,         0.0
"Line.L103"             ,   2,       -26.1,       -13.0
"Line.L104"             ,   1,        54.8,        25.6,         0.0,         0.0,         0.0,         0.0
"Line.L104"             ,   2,       -54.7,       -25.6
"Line.L105"             ,   1,        20.9,        10.4,         0.0,         0.0,         0.0,         0.0
"Line.L105"             ,   2,       -20.9,       -10.4
"Line.L106"             ,   1,        10.4,         5.2,         0.0,         0.0,         0.0,         0.0
"Line.L106"             ,   2,       -10.4,        -5.2
"Line.L107"             ,   1,        20.9,        10.4,         0.0,         0.0,         0.0,         0.0
"Line.L107"             ,   2,       -20.9,       -10.4
"Line.L108"             ,   1,        33.9,        15.1,         0.0,         0.0,         0.0,         0.0
"Line.L108"             ,   2,       -33.9,       -15.1
"Line.L109"             ,   1,        10.4,         5.2,         0.0,         0.0,         0.0,         0.0
"Line.L109"             ,   2,       -10.4,        -5.2
"Line.L110"             ,   1,        33.9,        15.1,         0.0,         0.0,         0.0,         0.0
"Line.L110"             ,   2,       -33.9,       -15.1
"Line.L111"             ,   1,         0.0,        -0.0,         0.0,         0.0,         0.0,         0.0
"Line.L111"             ,   2,         0.0,        -0.0
"Line.L112"             ,   1,        23.4,         9.9,         0.0,         0.0,         0.0,         0.0
"Line.L112"             ,   2,       -23.4,        -9.9
"Line.L113"             ,   1,         5.2,         2.6,         0.0,         0.0,         0.0,         0.0
"Line.L113"             ,   2,        -5.2,        -2.6
"Line.L114"             ,   1,        18.2,         7.3,         0.0,         0.0,         0.0,         0.0
"Line.L114"             ,   2,       -18.2,        -7.3
"Line.L115"             ,   1,        13.0,         4.7,         0.0,         0.0,         0.0,         0.0
"Line.L115"             ,   2,       -13.0,        -4.7
"Line.L116"             ,   1,         2.6,        -0.5,         0.0,         0.0,         0.0,         0.0
"Line.L116"             ,   2,        -2.6,         0.5
"Line.L117"             ,   1,       195.0,       120.4,         0.0,         0.0,         0.0,         0.0
"Line.L117"             ,   2,      -194.8,      -120.0
"Line.L118"             ,   1,       500.4,       -70.2,         0.0,         0.0,         0.0,         0.0
"Line.L118"             ,   2,      -499.4,        72.3
"Line.L119"             ,   1,         0.0,        -0.0,         0.0,         0.0,         0.0,         0.0
"Line.L119"             ,   2,         0.0,         0.0
"Line.L120"             ,   1,       355.1,      -153.8,         0.0,         0.0,         0.0,         0.0
"Line.L120"             ,   2,      -355.1,       153.8
"Line.L121"             ,   1,       355.1,      -153.8,         0.0,         0.0,         0.0,         0.0
"Line.L121"             ,   2,      -354.6,       154.9
