Element, Terminal, P(kW), Q(kvar),  P_Normal, Q_Normal, P_Emergency, Q_Emergency
"Line.L1"               ,   1,       888.8,       152.9,         0.0,         0.0,         0.0,         0.0
"Line.L1"               ,   2,      -888.8,      -152.9
"Line.L2"               ,   1,       888.8,       152.9,         0.0,         0.0,         0.0,         0.0
"Line.L2"               ,   2,      -885.7,      -146.6
"Line.L3"               ,   1,         5.3,         2.6,         0.0,         0.0,         0.0,         0.0
"Line.L3"               ,   2,        -5.3,        -2.6
"Line.L4"               ,   1,        26.3,        13.1,         0.0,         0.0,         0.0,         0.0
"Line.L4"               ,   2,       -26.3,       -13.1
"Line.L5"               ,   1,       849.1,       131.8,         0.0,         0.0,         0.0,         0.0
"Line.L5"               ,   2,      -846.9,      -127.4
"Line.L6"               ,   1,        10.5,         5.3,         0.0,         0.0,         0.0,         0.0
"Line.L6"               ,   2,       -10.5,        -5.3
"Line.L7"               ,   1,        15.8,         7.9,         0.0,         0.0,         0.0,         0.0
"Line.L7"               ,   2,       -15.8,        -7.9
"Line.L8"               ,   1,        10.5,         5.3,         0.0,         0.0,         0.0,         0.0
"Line.L8"               ,   2,       -10.5,        -5.3
"Line.L9"               ,   1,       841.7,       124.8,         0.0,         0.0,         0.0,         0.0
"Line.L9"               ,   2,      -840.3,      -121.9
"Line.L10"              ,   1,         5.3,         2.6,         0.0,         0.0,         0.0,         0.0
"Line.L10"              ,   2,        -5.3,        -2.6
"Line.L11"              ,   1,        26.3,        13.1,         0.0,         0.0,         0.0,         0.0
"Line.L11"              ,   2,       -26.3,       -13.1
"Line.L12"              ,   1,       808.7,       106.2,         0.0,         0.0,         0.0,         0.0
"Line.L12"              ,   2,      -806.8,      -102.3
"Line.L13"              ,   1,        15.8,         7.9,         0.0,         0.0,         0.0,         0.0
"Line.L13"              ,   2,       -15.8,        -7.9
"Line.L14"              ,   1,        15.8,         7.9,         0.0,         0.0,         0.0,         0.0
"Line.L14"              ,   2,       -15.8,        -7.9
"Line.L15"              ,   1,        20.8,         6.9,         0.0,         0.0,         0.0,         0.0
"Line.L15"              ,   2,       -20.7,        -6.9
"Line.L16"              ,   1,       285.0,       164.3,         0.0,         0.0,         0.0,         0.0
"Line.L16"              ,   2,      -284.1,      -162.6
"Line.L17"              ,   1,        10.5,         5.3,         0.0,         0.0,         0.0,         0.0
"Line.L17"              ,   2,       -10.5,        -5.3
"Line.L18"              ,   1,         5.3,         2.6,         0.0,         0.0,         0.0,         0.0
"Line.L18"              ,   2,        -5.3,        -2.6
"Line.L19"              ,   1,         5.0,        -0.9,         0.0,         0.0,         0.0,         0.0
"Line.L19"              ,   2,        -5.0,         0.9
"Line.L20"              ,   1,         5.3,         2.6,         0.0,         0.0,         0.0,         0.0
"Line.L20"              ,   2,        -5.3,        -2.6
"Line.L21"              ,   1,        21.0,        10.5,         0.0,         0.0,         0.0,         0.0
"Line.L21"              ,   2,       -21.0,       -10.5
"Line.L22"              ,   1,        67.5,        30.6,         0.0,         0.0,         0.0,         0.0
"Line.L22"              ,   2,       -67.4,       -30.6
"Line.L23"              ,   1,        10.5,         5.3,         0.0,         0.0,         0.0,         0.0
"Line.L23"              ,   2,       -10.5,        -5.3
"Line.L24"              ,   1,        10.5,         5.3,         0.0,         0.0,         0.0,         0.0
"Line.L24"              ,   2,       -10.5,        -5.3
"Line.L25"              ,   1,        56.9,        25.3,         0.0,         0.0,         0.0,         0.0
"Line.L25"              ,   2,       -56.9,       -25.3
"Line.L26"              ,   1,        10.5,         5.3,         0.0,         0.0,         0.0,         0.0
"Line.L26"              ,   2,       -10.5,        -5.3
"Line.L27"              ,   1,        46.4,        20.1,         0.0,         0.0,         0.0,         0.0
"Line.L27"              ,   2,       -46.4,       -20.0
"Line.L28"              ,   1,        14.8,         4.3,         0.0,         0.0,         0.0,         0.0
"Line.L28"              ,   2,       -14.8,        -4.3
"Line.L29"              ,   1,        14.8,         4.3,         0.0,         0.0,         0.0,         0.0
"Line.L29"              ,   2,       -14.8,        -4.3
"Line.L30"              ,   1,        31.6,        15.8,         0.0,         0.0,         0.0,         0.0
"Line.L30"              ,   2,       -31.6,       -15.8
"Line.L31"              ,   1,         4.3,        -0.9,         0.0,         0.0,         0.0,         0.0
"Line.L31"              ,   2,        -4.3,         0.9
"Line.L32"              ,   1,        10.5,         5.2,         0.0,         0.0,         0.0,         0.0
"Line.L32"              ,   2,       -10.5,        -5.3
"Line.L33"              ,   1,         4.3,        -0.9,         0.0,         0.0,         0.0,         0.0
"Line.L33"              ,   2,        -4.3,         0.9
"Line.L34"              ,   1,        21.0,        10.5,         0.0,         0.0,         0.0,         0.0
"Line.L34"              ,   2,       -21.0,       -10.5
"Line.L35"              ,   1,        10.5,         5.2,         0.0,         0.0,         0.0,         0.0
"Line.L35"              ,   2,       -10.5,        -5.3
"Line.L36"              ,   1,         0.0,        -0.0,         0.0,         0.0,         0.0,         0.0
"Line.L36"              ,   2,         0.0,         0.0
"Line.L37"              ,   1,         5.3,         2.6,         0.0,         0.0,         0.0,         0.0
"Line.L37"              ,   2,        -5.3,        -2.6
"Line.L38"              ,   1,        10.2,         1.7,         0.0,         0.0,         0.0,         0.0
"Line.L38"              ,   2,       -10.2,        -1.7
"Line.L39"              ,   1,        21.0,        10.5,         0.0,         0.0,         0.0,         0.0
"Line.L39"              ,   2,       -21.0,       -10.5
"Line.L40"              ,   1,       163.9,       105.3,         0.0,         0.0,         0.0,         0.0
"Line.L40"              ,   2,      -163.8,      -105.1
"Line.L41"              ,   1,        10.5,         5.3,         0.0,         0.0,         0.0,         0.0
"Line.L41"              ,   2,       -10.5,        -5.3
"Line.L42"              ,   1,        10.5,         5.2,         0.0,         0.0,         0.0,         0.0
"Line.L42"              ,   2,       -10.5,        -5.3
"Line.L43"              ,   1,         5.3,         2.6,         0.0,         0.0,         0.0,         0.0
"Line.L43"              ,   2,        -5.3,        -2.6
"Line.L44"              ,   1,         5.3,         2.6,         0.0,         0.0,         0.0,         0.0
"Line.L44"              ,   2,        -5.3,        -2.6
"Line.L45"              ,   1,       158.5,       102.5,         0.0,         0.0,         0.0,         0.0
"Line.L45"              ,   2,      -158.4,      -102.3
"Line.L46"              ,   1,        10.5,         5.3,         0.0,         0.0,         0.0,         0.0
"Line.L46"              ,   2,       -10.5,        -5.3
"Line.L47"              ,   1,       142.6,        94.4,         0.0,         0.0,         0.0,         0.0
"Line.L47"              ,   2,      -142.6,       -94.3
"Line.L48"              ,   1,         7.1,         2.1,         0.0,         0.0,         0.0,         0.0
"Line.L48"              ,   2,        -7.1,        -2.2
"Line.L49"              ,   1,       135.5,        92.2,         0.0,         0.0,         0.0,         0.0
"Line.L49"              ,   2,      -135.5,       -92.1
"Line.L50"              ,   1,         1.8,        -0.5,         0.0,         0.0,         0.0,         0.0
"Line.L50"              ,   2,        -1.8,         0.5
"Line.L51"              ,   1,        55.2,        39.5,         0.0,         0.0,         0.0,         0.0
"Line.L51"              ,   2,       -55.2,       -39.5
"Line.L52"              ,   1,        52.6,        32.9,         0.0,         0.0,         0.0,         0.0
"Line.L52"              ,   2,       -52.6,       -32.9
"Line.L53"              ,   1,        15.8,         7.9,         0.0,         0.0,         0.0,         0.0
"Line.L53"              ,   2,       -15.8,        -7.9
"Line.L54"              ,   1,         5.3,         2.6,         0.0,         0.0,         0.0,         0.0
"Line.L54"              ,   2,        -5.3,        -2.6
"Line.L55"              ,   1,       489.5,       -76.3,         0.0,         0.0,         0.0,         0.0
"Line.L55"              ,   2,      -489.1,        77.3
"Line.L56"              ,   1,       478.5,       -82.5,         0.0,         0.0,         0.0,         0.0
"Line.L56"              ,   2,      -478.3,        83.1
"Line.L57"              ,   1,        10.5,         5.2,         0.0,         0.0,         0.0,         0.0
"Line.L57"              ,   2,       -10.5,        -5.3
"Line.L58"              ,   1,       467.7,       -88.4,         0.0,         0.0,         0.0,         0.0
"Line.L58"              ,   2,      -467.0,        89.9
"Line.L59"              ,   1,         5.3,         2.6,         0.0,         0.0,         0.0,         0.0
"Line.L59"              ,   2,        -5.3,        -2.6
"Line.L60"              ,   1,         7.2,         2.1,         0.0,         0.0,         0.0,         0.0
"Line.L60"              ,   2,        -7.2,        -2.2
"Line.L61"              ,   1,       459.8,       -92.1,         0.0,         0.0,         0.0,         0.0
"Line.L61"              ,   2,      -458.2,        95.4
"Line.L62"              ,   1,         1.9,        -0.5,         0.0,         0.0,         0.0,         0.0
"Line.L62"              ,   2,        -1.9,         0.5
"Line.L63"              ,   1,         0.0,        -0.0,         0.0,         0.0,         0.0,         0.0
"Line.L63"              ,   2,        -0.0,         0.0
"Line.L64"              ,   1,        97.6,        55.3,         0.0,         0.0,         0.0,         0.0
"Line.L64"              ,   2,       -97.5,       -55.3
"Line.L65"              ,   1,        87.0,        50.0,         0.0,         0.0,         0.0,         0.0
"Line.L65"              ,   2,       -86.9,       -50.0
"Line.L66"              ,   1,        76.4,        44.8,         0.0,         0.0,         0.0,         0.0
"Line.L66"              ,   2,       -76.3,       -44.7
"Line.L67"              ,   1,        56.6,        35.5,         0.0,         0.0,         0.0,         0.0
"Line.L67"              ,   2,       -56.6,       -35.5
"Line.L68"              ,   1,        19.7,         9.2,         0.0,         0.0,         0.0,         0.0
"Line.L68"              ,   2,       -19.7,        -9.2
"Line.L69"              ,   1,        25.9,         9.6,         0.0,         0.0,         0.0,         0.0
"Line.L69"              ,   2,       -25.8,        -9.6
"Line.L70"              ,   1,       223.0,      -212.6,         0.0,         0.0,         0.0,         0.0
"Line.L70"              ,   2,      -222.8,       213.1
"Line.L71"              ,   1,       105.9,        48.6,         0.0,         0.0,         0.0,         0.0
"Line.L71"              ,   2,      -105.8,       -48.6
"Line.L72"              ,   1,        20.6,         6.9,         0.0,         0.0,         0.0,         0.0
"Line.L72"              ,   2,       -20.6,        -6.9
"Line.L73"              ,   1,        10.1,         1.7,         0.0,         0.0,         0.0,         0.0
"Line.L73"              ,   2,       -10.1,        -1.7
"Line.L74"              ,   1,         4.8,        -0.9,         0.0,         0.0,         0.0,         0.0
"Line.L74"              ,   2,        -4.8,         0.9
"Line.L75"              ,   1,        31.6,        15.8,         0.0,         0.0,         0.0,         0.0
"Line.L75"              ,   2,       -31.6,       -15.8
"Line.L76"              ,   1,       191.2,      -228.9,         0.0,         0.0,         0.0,         0.0
"Line.L76"              ,   2,      -191.0,       229.2
"Line.L77"              ,   1,        21.0,        10.5,         0.0,         0.0,         0.0,         0.0
"Line.L77"              ,   2,       -21.0,       -10.5
"Line.L78"              ,   1,        10.5,         5.3,         0.0,         0.0,         0.0,         0.0
"Line.L78"              ,   2,       -10.5,        -5.3
"Line.L79"              ,   1,        57.9,      -161.2,         0.0,         0.0,         0.0,         0.0
"Line.L79"              ,   2,       -57.8,       161.5
"Line.L80"              ,   1,        68.7,      -115.4,         0.0,         0.0,         0.0,         0.0
"Line.L80"              ,   2,       -68.5,       115.6
"Line.L81"              ,   1,        47.3,      -166.7,         0.0,         0.0,         0.0,         0.0
"Line.L81"              ,   2,       -47.3,       166.8
"Line.L82"              ,   1,        10.5,         5.3,         0.0,         0.0,         0.0,         0.0
"Line.L82"              ,   2,       -10.5,        -5.3
"Line.L83"              ,   1,        36.8,      -172.0,         0.0,         0.0,         0.0,         0.0
"Line.L83"              ,   2,       -36.6,       172.3
"Line.L84"              ,   1,        26.1,      -177.6,         0.0,         0.0,         0.0,         0.0
"Line.L84"              ,   2,       -26.0,       177.7
"Line.L85"              ,   1,        16.0,      -191.7,         0.0,         0.0,         0.0,         0.0
"Line.L85"              ,   2,       -15.9,       191.9
"Line.L86"              ,   1,        10.1,        14.1,         0.0,         0.0,         0.0,         0.0
"Line.L86"              ,   2,       -10.1,       -14.1
"Line.L87"              ,   1,         5.4,      -197.2,         0.0,         0.0,         0.0,         0.0
"Line.L87"              ,   2,        -5.3,       197.4
"Line.L88"              ,   1,         4.8,        11.4,         0.0,         0.0,         0.0,         0.0
"Line.L88"              ,   2,        -4.8,       -11.4
"Line.L89"              ,   1,        63.3,      -118.2,         0.0,         0.0,         0.0,         0.0
"Line.L89"              ,   2,       -63.2,       118.4
"Line.L90"              ,   1,        10.5,       -44.7,         0.0,         0.0,         0.0,         0.0
"Line.L90"              ,   2,       -10.5,        44.7
"Line.L91"              ,   1,        42.1,       -78.9,         0.0,         0.0,         0.0,         0.0
"Line.L91"              ,   2,       -42.1,        79.0
"Line.L92"              ,   1,        10.5,       -44.7,         0.0,         0.0,         0.0,         0.0
"Line.L92"              ,   2,       -10.5,        44.7
"Line.L93"              ,   1,        31.6,       -34.2,         0.0,         0.0,         0.0,         0.0
"Line.L93"              ,   2,       -31.6,        34.2
"Line.L94"              ,   1,        10.5,       -44.7,         0.0,         0.0,         0.0,         0.0
"Line.L94"              ,   2,       -10.5,        44.7
"Line.L95"              ,   1,        21.0,        10.5,         0.0,         0.0,         0.0,         0.0
"Line.L95"              ,   2,       -21.0,       -10.5
"Line.L96"              ,   1,        10.5,         5.3,         0.0,         0.0,         0.0,         0.0
"Line.L96"              ,   2,       -10.5,        -5.3
"Line.L97"              ,   1,        10.5,         5.2,         0.0,         0.0,         0.0,         0.0
"Line.L97"              ,   2,       -10.5,        -5.3
"Line.L98"              ,   1,         5.3,         2.6,         0.0,         0.0,         0.0,         0.0
"Line.L98"              ,   2,        -5.3,        -2.6
"Line.L99"              ,   1,        24.6,         9.6,         0.0,         0.0,         0.0,         0.0
"Line.L99"              ,   2,       -24.6,        -9.6
"Line.L100"             ,   1,        14.1,         4.3,         0.0,         0.0,         0.0,         0.0
"Line.L100"             ,   2,       -14.1,        -4.3
"Line.L101"             ,   1,        10.5,         5.2,         0.0,         0.0,         0.0,         0.0
"Line.L101"             ,   2,       -10.5,        -5.3
"Line.L102"             ,   1,         0.0,        -0.0,         0.0,         0.0,         0.0,         0.0
"Line.L102"             ,   2,        -0.0,        -0.0
"Line.L103"             ,   1,        26.3,        13.1,         0.0,         0.0,         0.0,         0.0
"Line.L103"             ,   2,       -26.3,       -13.1
"Line.L104"             ,   1,        54.9,        25.8,         0.0,         0.0,         0.0,         0.0
"Line.L104"             ,   2,       -54.9,       -25.8
"Line.L105"             ,   1,        21.0,        10.5,         0.0,         0.0,         0.0,         0.0
"Line.L105"             ,   2,       -21.0,       -10.5
"Line.L106"             ,   1,        10.5,         5.3,         0.0,         0.0,         0.0,         0.0
"Line.L106"             ,   2,       -10.5,        -5.3
"Line.L107"             ,   1,        21.0,        10.5,         0.0,         0.0,         0.0,         0.0
"Line.L107"             ,   2,       -21.0,       -10.5
"Line.L108"             ,   1,        33.8,        15.3,         0.0,         0.0,         0.0,         0.0
"Line.L108"             ,   2,       -33.8,       -15.3
"Line.L109"             ,   1,        10.5,         5.3,         0.0,         0.0,         0.0,         0.0
"Line.L109"             ,   2,       -10.5,        -5.3
"Line.L110"             ,   1,        33.8,        15.3,         0.0,         0.0,         0.0,         0.0
"Line.L110"             ,   2,       -33.8,       -15.3
"Line.L111"             ,   1,         0.0,        -0.0,         0.0,         0.0,         0.0,         0.0
"Line.L111"             ,   2,        -0.0,        -0.0
"Line.L112"             ,   1,        23.3,        10.0,         0.0,         0.0,         0.0,         0.0
"Line.L112"             ,   2,       -23.2,       -10.0
"Line.L113"             ,   1,         5.3,         2.6,         0.0,         0.0,         0.0,         0.0
"Line.L113"             ,   2,        -5.3,        -2.6
"Line.L114"             ,   1,        18.0,         7.4,         0.0,         0.0,         0.0,         0.0
"Line.L114"             ,   2,       -18.0,        -7.4
"Line.L115"             ,   1,        12.7,         4.8,         0.0,         0.0,         0.0,         0.0
"Line.L115"             ,   2,       -12.7,        -4.8
"Line.L116"             ,   1,         2.2,        -0.5,         0.0,         0.0,         0.0,         0.0
"Line.L116"             ,   2,        -2.2,         0.5
"Line.L117"             ,   1,       195.6,       121.5,         0.0,         0.0,         0.0,         0.0
"Line.L117"             ,   2,      -195.4,      -121.1
"Line.L118"             ,   1,       501.0,       -69.0,         0.0,         0.0,         0.0,         0.0
"Line.L118"             ,   2,      -500.1,        71.0
"Line.L119"             ,   1,         0.0,        -0.0,         0.0,         0.0,         0.0,         0.0
"Line.L119"             ,   2,         0.0,         0.0
"Line.L120"             ,   1,       355.3,      -153.3,         0.0,         0.0,         0.0,         0.0
"Line.L120"             ,   2,      -355.3,       153.3
"Line.L121"             ,   1,       355.3,      -153.3,         0.0,         0.0,         0.0,         0.0
"Line.L121"             ,   2,      -354.8,       154.4
