Element, Terminal, P(kW), Q(kvar),  P_Normal, Q_Normal, P_Emergency, Q_Emergency
"Line.L1"               ,   1,       886.4,       157.3,         0.0,         0.0,         0.0,         0.0
"Line.L1"               ,   2,      -886.4,      -157.3
"Line.L2"               ,   1,       886.4,       157.3,         0.0,         0.0,         0.0,         0.0
"Line.L2"               ,   2,      -883.3,      -151.0
"Line.L3"               ,   1,         5.3,         2.6,         0.0,         0.0,         0.0,         0.0
"Line.L3"               ,   2,        -5.3,        -2.7
"Line.L4"               ,   1,        26.5,        13.3,         0.0,         0.0,         0.0,         0.0
"Line.L4"               ,   2,       -26.5,       -13.3
"Line.L5"               ,   1,       847.8,       136.0,         0.0,         0.0,         0.0,         0.0
"Line.L5"               ,   2,      -845.7,      -131.7
"Line.L6"               ,   1,        10.6,         5.3,         0.0,         0.0,         0.0,         0.0
"Line.L6"               ,   2,       -10.6,        -5.3
"Line.L7"               ,   1,        15.9,         8.0,         0.0,         0.0,         0.0,         0.0
"Line.L7"               ,   2,       -15.9,        -8.0
"Line.L8"               ,   1,        10.6,         5.3,         0.0,         0.0,         0.0,         0.0
"Line.L8"               ,   2,       -10.6,        -5.3
"Line.L9"               ,   1,       840.4,       129.0,         0.0,         0.0,         0.0,         0.0
"Line.L9"               ,   2,      -839.0,      -126.2
"Line.L10"              ,   1,         5.3,         2.6,         0.0,         0.0,         0.0,         0.0
"Line.L10"              ,   2,        -5.3,        -2.7
"Line.L11"              ,   1,        26.5,        13.2,         0.0,         0.0,         0.0,         0.0
"Line.L11"              ,   2,       -26.5,       -13.2
"Line.L12"              ,   1,       807.2,       110.3,         0.0,         0.0,         0.0,         0.0
"Line.L12"              ,   2,      -805.2,      -106.4
"Line.L13"              ,   1,        15.9,         7.9,         0.0,         0.0,         0.0,         0.0
"Line.L13"              ,   2,       -15.9,        -7.9
"Line.L14"              ,   1,        15.9,         7.9,         0.0,         0.0,         0.0,         0.0
"Line.L14"              ,   2,       -15.9,        -7.9
"Line.L15"              ,   1,        19.7,         7.1,         0.0,         0.0,         0.0,         0.0
"Line.L15"              ,   2,       -19.7,        -7.1
"Line.L16"              ,   1,       285.4,       165.9,         0.0,         0.0,         0.0,         0.0
"Line.L16"              ,   2,      -284.6,      -164.1
"Line.L17"              ,   1,        10.6,         5.3,         0.0,         0.0,         0.0,         0.0
"Line.L17"              ,   2,       -10.6,        -5.3
"Line.L18"              ,   1,         5.3,         2.6,         0.0,         0.0,         0.0,         0.0
"Line.L18"              ,   2,        -5.3,        -2.7
"Line.L19"              ,   1,         3.8,        -0.9,         0.0,         0.0,         0.0,         0.0
"Line.L19"              ,   2,        -3.8,         0.9
"Line.L20"              ,   1,         5.3,         2.6,         0.0,         0.0,         0.0,         0.0
"Line.L20"              ,   2,        -5.3,        -2.7
"Line.L21"              ,   1,        21.2,        10.6,         0.0,         0.0,         0.0,         0.0
"Line.L21"              ,   2,       -21.2,       -10.6
"Line.L22"              ,   1,        66.8,        30.9,         0.0,         0.0,         0.0,         0.0
"Line.L22"              ,   2,       -66.8,       -30.9
"Line.L23"              ,   1,        10.6,         5.3,         0.0,         0.0,         0.0,         0.0
"Line.L23"              ,   2,       -10.6,        -5.3
"Line.L24"              ,   1,        10.6,         5.3,         0.0,         0.0,         0.0,         0.0
"Line.L24"              ,   2,       -10.6,        -5.3
"Line.L25"              ,   1,        56.2,        25.6,         0.0,         0.0,         0.0,         0.0
"Line.L25"              ,   2,       -56.1,       -25.6
"Line.L26"              ,   1,        10.6,         5.3,         0.0,         0.0,         0.0,         0.0
"Line.L26"              ,   2,       -10.6,        -5.3
"Line.L27"              ,   1,        45.5,        20.3,         0.0,         0.0,         0.0,         0.0
"Line.L27"              ,   2,       -45.5,       -20.3
"Line.L28"              ,   1,        13.7,         4.4,         0.0,         0.0,         0.0,         0.0
"Line.L28"              ,   2,       -13.7,        -4.4
"Line.L29"              ,   1,        13.7,         4.4,         0.0,         0.0,         0.0,         0.0
"Line.L29"              ,   2,       -13.7,        -4.4
"Line.L30"              ,   1,        31.8,        15.9,         0.0,         0.0,         0.0,         0.0
"Line.L30"              ,   2,       -31.8,       -15.9
"Line.L31"              ,   1,         3.1,        -0.9,         0.0,         0.0,         0.0,         0.0
"Line.L31"              ,   2,        -3.1,         0.9
"Line.L32"              ,   1,        10.6,         5.3,         0.0,         0.0,         0.0,         0.0
"Line.L32"              ,   2,       -10.6,        -5.3
"Line.L33"              ,   1,         3.1,        -0.9,         0.0,         0.0,         0.0,         0.0
"Line.L33"              ,   2,        -3.1,         0.9
"Line.L34"              ,   1,        21.2,        10.6,         0.0,         0.0,         0.0,         0.0
"Line.L34"              ,   2,       -21.2,       -10.6
"Line.L35"              ,   1,        10.6,         5.3,         0.0,         0.0,         0.0,         0.0
"Line.L35"              ,   2,       -10.6,        -5.3
"Line.L36"              ,   1,         0.0,        -0.0,         0.0,         0.0,         0.0,         0.0
"Line.L36"              ,   2,        -0.0,         0.0
"Line.L37"              ,   1,         5.3,         2.6,         0.0,         0.0,         0.0,         0.0
"Line.L37"              ,   2,        -5.3,        -2.7
"Line.L38"              ,   1,         9.1,         1.7,         0.0,         0.0,         0.0,         0.0
"Line.L38"              ,   2,        -9.1,        -1.8
"Line.L39"              ,   1,        21.2,        10.6,         0.0,         0.0,         0.0,         0.0
"Line.L39"              ,   2,       -21.2,       -10.6
"Line.L40"              ,   1,       164.5,       106.3,         0.0,         0.0,         0.0,         0.0
"Line.L40"              ,   2,      -164.4,      -106.1
"Line.L41"              ,   1,        10.6,         5.3,         0.0,         0.0,         0.0,         0.0
"Line.L41"              ,   2,       -10.6,        -5.3
"Line.L42"              ,   1,        10.6,         5.3,         0.0,         0.0,         0.0,         0.0
"Line.L42"              ,   2,       -10.6,        -5.3
"Line.L43"              ,   1,         5.3,         2.6,         0.0,         0.0,         0.0,         0.0
"Line.L43"              ,   2,        -5.3,        -2.7
"Line.L44"              ,   1,         5.3,         2.6,         0.0,         0.0,         0.0,         0.0
"Line.L44"              ,   2,        -5.3,        -2.7
"Line.L45"              ,   1,       159.1,       103.4,         0.0,         0.0,         0.0,         0.0
"Line.L45"              ,   2,      -159.0,      -103.3
"Line.L46"              ,   1,        10.6,         5.3,         0.0,         0.0,         0.0,         0.0
"Line.L46"              ,   2,       -10.6,        -5.3
"Line.L47"              ,   1,       143.1,        95.3,         0.0,         0.0,         0.0,         0.0
"Line.L47"              ,   2,      -143.0,       -95.2
"Line.L48"              ,   1,         6.3,         2.2,         0.0,         0.0,         0.0,         0.0
"Line.L48"              ,   2,        -6.3,        -2.2
"Line.L49"              ,   1,       136.7,        93.0,         0.0,         0.0,         0.0,         0.0
"Line.L49"              ,   2,      -136.7,       -92.9
"Line.L50"              ,   1,         1.0,        -0.5,         0.0,         0.0,         0.0,         0.0
"Line.L50"              ,   2,        -1.0,         0.4
"Line.L51"              ,   1,        55.7,        39.8,         0.0,         0.0,         0.0,         0.0
"Line.L51"              ,   2,       -55.7,       -39.8
"Line.L52"              ,   1,        53.1,        33.2,         0.0,         0.0,         0.0,         0.0
"Line.L52"              ,   2,       -53.1,       -33.1
"Line.L53"              ,   1,        15.9,         7.9,         0.0,         0.0,         0.0,         0.0
"Line.L53"              ,   2,       -15.9,        -7.9
"Line.L54"              ,   1,         5.3,         2.6,         0.0,         0.0,         0.0,         0.0
"Line.L54"              ,   2,        -5.3,        -2.6
"Line.L55"              ,   1,       488.5,       -73.9,         0.0,         0.0,         0.0,         0.0
"Line.L55"              ,   2,      -488.0,        74.9
"Line.L56"              ,   1,       477.4,       -80.2,         0.0,         0.0,         0.0,         0.0
"Line.L56"              ,   2,      -477.1,        80.7
"Line.L57"              ,   1,        10.6,         5.3,         0.0,         0.0,         0.0,         0.0
"Line.L57"              ,   2,       -10.6,        -5.3
"Line.L58"              ,   1,       466.5,       -86.0,         0.0,         0.0,         0.0,         0.0
"Line.L58"              ,   2,      -465.7,        87.6
"Line.L59"              ,   1,         5.3,         2.6,         0.0,         0.0,         0.0,         0.0
"Line.L59"              ,   2,        -5.3,        -2.7
"Line.L60"              ,   1,         6.6,         2.2,         0.0,         0.0,         0.0,         0.0
"Line.L60"              ,   2,        -6.6,        -2.2
"Line.L61"              ,   1,       459.1,       -89.8,         0.0,         0.0,         0.0,         0.0
"Line.L61"              ,   2,      -457.5,        93.1
"Line.L62"              ,   1,         1.3,        -0.5,         0.0,         0.0,         0.0,         0.0
"Line.L62"              ,   2,        -1.3,         0.4
"Line.L63"              ,   1,         0.0,        -0.0,         0.0,         0.0,         0.0,         0.0
"Line.L63"              ,   2,        -0.0,         0.0
"Line.L64"              ,   1,        98.5,        55.8,         0.0,         0.0,         0.0,         0.0
"Line.L64"              ,   2,       -98.4,       -55.8
"Line.L65"              ,   1,        87.8,        50.5,         0.0,         0.0,         0.0,         0.0
"Line.L65"              ,   2,       -87.7,       -50.5
"Line.L66"              ,   1,        77.1,        45.2,         0.0,         0.0,         0.0,         0.0
"Line.L66"              ,   2,       -77.0,       -45.1
"Line.L67"              ,   1,        57.1,        35.8,         0.0,         0.0,         0.0,         0.0
"Line.L67"              ,   2,       -57.1,       -35.8
"Line.L68"              ,   1,        19.9,         9.3,         0.0,         0.0,         0.0,         0.0
"Line.L68"              ,   2,       -19.9,        -9.3
"Line.L69"              ,   1,        24.9,         9.7,         0.0,         0.0,         0.0,         0.0
"Line.L69"              ,   2,       -24.9,        -9.7
"Line.L70"              ,   1,       223.8,      -211.4,         0.0,         0.0,         0.0,         0.0
"Line.L70"              ,   2,      -223.5,       212.0
"Line.L71"              ,   1,       104.5,        49.1,         0.0,         0.0,         0.0,         0.0
"Line.L71"              ,   2,      -104.5,       -49.1
"Line.L72"              ,   1,        19.6,         7.1,         0.0,         0.0,         0.0,         0.0
"Line.L72"              ,   2,       -19.6,        -7.1
"Line.L73"              ,   1,         9.0,         1.8,         0.0,         0.0,         0.0,         0.0
"Line.L73"              ,   2,        -9.0,        -1.8
"Line.L74"              ,   1,         3.6,        -0.9,         0.0,         0.0,         0.0,         0.0
"Line.L74"              ,   2,        -3.6,         0.9
"Line.L75"              ,   1,        31.9,        15.9,         0.0,         0.0,         0.0,         0.0
"Line.L75"              ,   2,       -31.8,       -15.9
"Line.L76"              ,   1,       191.6,      -227.9,         0.0,         0.0,         0.0,         0.0
"Line.L76"              ,   2,      -191.5,       228.2
"Line.L77"              ,   1,        21.2,        10.6,         0.0,         0.0,         0.0,         0.0
"Line.L77"              ,   2,       -21.2,       -10.6
"Line.L78"              ,   1,        10.6,         5.3,         0.0,         0.0,         0.0,         0.0
"Line.L78"              ,   2,       -10.6,        -5.3
"Line.L79"              ,   1,        57.2,      -160.9,         0.0,         0.0,         0.0,         0.0
"Line.L79"              ,   2,       -57.1,       161.2
"Line.L80"              ,   1,        69.3,      -115.1,         0.0,         0.0,         0.0,         0.0
"Line.L80"              ,   2,       -69.1,       115.3
"Line.L81"              ,   1,        46.5,      -166.5,         0.0,         0.0,         0.0,         0.0
"Line.L81"              ,   2,       -46.4,       166.5
"Line.L82"              ,   1,        10.6,         5.3,         0.0,         0.0,         0.0,         0.0
"Line.L82"              ,   2,       -10.6,        -5.3
"Line.L83"              ,   1,        35.8,      -171.8,         0.0,         0.0,         0.0,         0.0
"Line.L83"              ,   2,       -35.7,       172.1
"Line.L84"              ,   1,        25.1,      -177.4,         0.0,         0.0,         0.0,         0.0
"Line.L84"              ,   2,       -25.0,       177.5
"Line.L85"              ,   1,        16.1,      -191.7,         0.0,         0.0,         0.0,         0.0
"Line.L85"              ,   2,       -16.0,       191.9
"Line.L86"              ,   1,         8.9,        14.1,         0.0,         0.0,         0.0,         0.0
"Line.L86"              ,   2,        -8.9,       -14.1
"Line.L87"              ,   1,         5.4,      -197.2,         0.0,         0.0,         0.0,         0.0
"Line.L87"              ,   2,        -5.3,       197.3
"Line.L88"              ,   1,         3.6,        11.5,         0.0,         0.0,         0.0,         0.0
"Line.L88"              ,   2,        -3.6,       -11.5
"Line.L89"              ,   1,        63.8,      -118.0,         0.0,         0.0,         0.0,         0.0
"Line.L89"              ,   2,       -63.8,       118.1
"Line.L90"              ,   1,        10.6,       -44.7,         0.0,         0.0,         0.0,         0.0
"Line.L90"              ,   2,       -10.6,        44.7
"Line.L91"              ,   1,        42.5,       -78.7,         0.0,         0.0,         0.0,         0.0
"Line.L91"              ,   2,       -42.5,        78.8
"Line.L92"              ,   1,        10.6,       -44.7,         0.0,         0.0,         0.0,         0.0
"Line.L92"              ,   2,       -10.6,        44.7
"Line.L93"              ,   1,        31.9,       -34.1,         0.0,         0.0,         0.0,         0.0
"Line.L93"              ,   2,       -31.9,        34.1
"Line.L94"              ,   1,        10.6,       -44.7,         0.0,         0.0,         0.0,         0.0
"Line.L94"              ,   2,       -10.6,        44.7
"Line.L95"              ,   1,        21.2,        10.6,         0.0,         0.0,         0.0,         0.0
"Line.L95"              ,   2,       -21.2,       -10.6
"Line.L96"              ,   1,        10.6,         5.3,         0.0,         0.0,         0.0,         0.0
"Line.L96"              ,   2,       -10.6,        -5.3
"Line.L97"              ,   1,        10.6,         5.3,         0.0,         0.0,         0.0,         0.0
"Line.L97"              ,   2,       -10.6,        -5.3
"Line.L98"              ,   1,         5.3,         2.6,         0.0,         0.0,         0.0,         0.0
"Line.L98"              ,   2,        -5.3,        -2.7
"Line.L99"              ,   1,        23.2,         9.7,         0.0,         0.0,         0.0,         0.0
"Line.L99"              ,   2,       -23.2,        -9.7
"Line.L100"             ,   1,        12.5,         4.4,         0.0,         0.0,         0.0,         0.0
"Line.L100"             ,   2,       -12.5,        -4.4
"Line.L101"             ,   1,        10.6,         5.3,         0.0,         0.0,         0.0,         0.0
"Line.L101"             ,   2,       -10.6,        -5.3
"Line.L102"             ,   1,         0.0,        -0.0,         0.0,         0.0,         0.0,         0.0
"Line.L102"             ,   2,        -0.0,        -0.0
"Line.L103"             ,   1,        26.5,        13.3,         0.0,         0.0,         0.0,         0.0
"Line.L103"             ,   2,       -26.5,       -13.3
"Line.L104"             ,   1,        54.8,        26.1,         0.0,         0.0,         0.0,         0.0
"Line.L104"             ,   2,       -54.8,       -26.1
"Line.L105"             ,   1,        21.2,        10.6,         0.0,         0.0,         0.0,         0.0
"Line.L105"             ,   2,       -21.2,       -10.6
"Line.L106"             ,   1,        10.6,         5.3,         0.0,         0.0,         0.0,         0.0
"Line.L106"             ,   2,       -10.6,        -5.3
"Line.L107"             ,   1,        21.2,        10.6,         0.0,         0.0,         0.0,         0.0
"Line.L107"             ,   2,       -21.2,       -10.6
"Line.L108"             ,   1,        33.5,        15.5,         0.0,         0.0,         0.0,         0.0
"Line.L108"             ,   2,       -33.5,       -15.5
"Line.L109"             ,   1,        10.6,         5.3,         0.0,         0.0,         0.0,         0.0
"Line.L109"             ,   2,       -10.6,        -5.3
"Line.L110"             ,   1,        33.5,        15.5,         0.0,         0.0,         0.0,         0.0
"Line.L110"             ,   2,       -33.5,       -15.5
"Line.L111"             ,   1,         0.0,        -0.0,         0.0,         0.0,         0.0,         0.0
"Line.L111"             ,   2,         0.0,         0.0
"Line.L112"             ,   1,        22.9,        10.1,         0.0,         0.0,         0.0,         0.0
"Line.L112"             ,   2,       -22.9,       -10.1
"Line.L113"             ,   1,         5.3,         2.6,         0.0,         0.0,         0.0,         0.0
"Line.L113"             ,   2,        -5.3,        -2.7
"Line.L114"             ,   1,        17.6,         7.5,         0.0,         0.0,         0.0,         0.0
"Line.L114"             ,   2,       -17.6,        -7.5
"Line.L115"             ,   1,        12.3,         4.9,         0.0,         0.0,         0.0,         0.0
"Line.L115"             ,   2,       -12.3,        -4.9
"Line.L116"             ,   1,         1.7,        -0.4,         0.0,         0.0,         0.0,         0.0
"Line.L116"             ,   2,        -1.7,         0.4
"Line.L117"             ,   1,       196.6,       122.6,         0.0,         0.0,         0.0,         0.0
"Line.L117"             ,   2,      -196.4,      -122.2
"Line.L118"             ,   1,       500.1,       -66.6,         0.0,         0.0,         0.0,         0.0
"Line.L118"             ,   2,      -499.1,        68.6
"Line.L119"             ,   1,         0.0,        -0.0,         0.0,         0.0,         0.0,         0.0
"Line.L119"             ,   2,         0.0,        -0.0
"Line.L120"             ,   1,       353.7,      -151.6,         0.0,         0.0,         0.0,         0.0
"Line.L120"             ,   2,      -353.7,       151.6
"Line.L121"             ,   1,       353.7,      -151.6,         0.0,         0.0,         0.0,         0.0
"Line.L121"             ,   2,      -353.2,       152.6
