Element, Terminal, P(kW), Q(kvar),  P_Normal, Q_Normal, P_Emergency, Q_Emergency
"Line.L1"               ,   1,       834.5,       125.6,         0.0,         0.0,         0.0,         0.0
"Line.L1"               ,   2,      -834.5,      -125.6
"Line.L2"               ,   1,       834.5,       125.6,         0.0,         0.0,         0.0,         0.0
"Line.L2"               ,   2,      -831.8,      -120.1
"Line.L3"               ,   1,         5.3,         2.6,         0.0,         0.0,         0.0,         0.0
"Line.L3"               ,   2,        -5.3,        -2.7
"Line.L4"               ,   1,        25.0,        11.7,         0.0,         0.0,         0.0,         0.0
"Line.L4"               ,   2,       -25.0,       -11.7
"Line.L5"               ,   1,       796.6,       107.2,         0.0,         0.0,         0.0,         0.0
"Line.L5"               ,   2,      -794.7,      -103.5
"Line.L6"               ,   1,        10.6,         5.3,         0.0,         0.0,         0.0,         0.0
"Line.L6"               ,   2,       -10.6,        -5.3
"Line.L7"               ,   1,        14.3,         6.4,         0.0,         0.0,         0.0,         0.0
"Line.L7"               ,   2,       -14.3,        -6.4
"Line.L8"               ,   1,        10.6,         5.3,         0.0,         0.0,         0.0,         0.0
"Line.L8"               ,   2,       -10.6,        -5.3
"Line.L9"               ,   1,       789.4,       100.8,         0.0,         0.0,         0.0,         0.0
"Line.L9"               ,   2,      -788.2,       -98.3
"Line.L10"              ,   1,         5.3,         2.6,         0.0,         0.0,         0.0,         0.0
"Line.L10"              ,   2,        -5.3,        -2.7
"Line.L11"              ,   1,        23.5,        10.1,         0.0,         0.0,         0.0,         0.0
"Line.L11"              ,   2,       -23.5,       -10.1
"Line.L12"              ,   1,       759.4,        85.5,         0.0,         0.0,         0.0,         0.0
"Line.L12"              ,   2,      -757.7,       -82.1
"Line.L13"              ,   1,        15.9,         7.9,         0.0,         0.0,         0.0,         0.0
"Line.L13"              ,   2,       -15.9,        -7.9
"Line.L14"              ,   1,        15.9,         7.9,         0.0,         0.0,         0.0,         0.0
"Line.L14"              ,   2,       -15.9,        -7.9
"Line.L15"              ,   1,        19.6,         6.4,         0.0,         0.0,         0.0,         0.0
"Line.L15"              ,   2,       -19.6,        -6.4
"Line.L16"              ,   1,       268.8,       137.4,         0.0,         0.0,         0.0,         0.0
"Line.L16"              ,   2,      -268.0,      -135.9
"Line.L17"              ,   1,        10.6,         5.3,         0.0,         0.0,         0.0,         0.0
"Line.L17"              ,   2,       -10.6,        -5.3
"Line.L18"              ,   1,         5.3,         2.6,         0.0,         0.0,         0.0,         0.0
"Line.L18"              ,   2,        -5.3,        -2.7
"Line.L19"              ,   1,         3.7,        -1.5,         0.0,         0.0,         0.0,         0.0
"Line.L19"              ,   2,        -3.7,         1.5
"Line.L20"              ,   1,         5.3,         2.6,         0.0,         0.0,         0.0,         0.0
"Line.L20"              ,   2,        -5.3,        -2.7
"Line.L21"              ,   1,        18.2,         7.5,         0.0,         0.0,         0.0,         0.0
"Line.L21"              ,   2,       -18.2,        -7.5
"Line.L22"              ,   1,        65.7,        28.8,         0.0,         0.0,         0.0,         0.0
"Line.L22"              ,   2,       -65.7,       -28.7
"Line.L23"              ,   1,         7.6,         2.2,         0.0,         0.0,         0.0,         0.0
"Line.L23"              ,   2,        -7.6,        -2.2
"Line.L24"              ,   1,        10.6,         5.3,         0.0,         0.0,         0.0,         0.0
"Line.L24"              ,   2,       -10.6,        -5.3
"Line.L25"              ,   1,        55.0,        23.4,         0.0,         0.0,         0.0,         0.0
"Line.L25"              ,   2,       -55.0,       -23.4
"Line.L26"              ,   1,        10.6,         5.3,         0.0,         0.0,         0.0,         0.0
"Line.L26"              ,   2,       -10.6,        -5.3
"Line.L27"              ,   1,        44.4,        18.1,         0.0,         0.0,         0.0,         0.0
"Line.L27"              ,   2,       -44.4,       -18.1
"Line.L28"              ,   1,        15.7,         5.3,         0.0,         0.0,         0.0,         0.0
"Line.L28"              ,   2,       -15.7,        -5.3
"Line.L29"              ,   1,        15.7,         5.3,         0.0,         0.0,         0.0,         0.0
"Line.L29"              ,   2,       -15.7,        -5.3
"Line.L30"              ,   1,        28.8,        12.8,         0.0,         0.0,         0.0,         0.0
"Line.L30"              ,   2,       -28.8,       -12.8
"Line.L31"              ,   1,         6.4,         1.6,         0.0,         0.0,         0.0,         0.0
"Line.L31"              ,   2,        -6.4,        -1.6
"Line.L32"              ,   1,         9.2,         3.7,         0.0,         0.0,         0.0,         0.0
"Line.L32"              ,   2,        -9.2,        -3.8
"Line.L33"              ,   1,         6.4,         1.6,         0.0,         0.0,         0.0,         0.0
"Line.L33"              ,   2,        -6.4,        -1.6
"Line.L34"              ,   1,        21.2,        10.6,         0.0,         0.0,         0.0,         0.0
"Line.L34"              ,   2,       -21.2,       -10.6
"Line.L35"              ,   1,        10.6,         5.3,         0.0,         0.0,         0.0,         0.0
"Line.L35"              ,   2,       -10.6,        -5.3
"Line.L36"              ,   1,         0.0,        -0.0,         0.0,         0.0,         0.0,         0.0
"Line.L36"              ,   2,         0.0,        -0.0
"Line.L37"              ,   1,         3.9,         1.1,         0.0,         0.0,         0.0,         0.0
"Line.L37"              ,   2,        -3.9,        -1.1
"Line.L38"              ,   1,         9.0,         1.1,         0.0,         0.0,         0.0,         0.0
"Line.L38"              ,   2,        -9.0,        -1.1
"Line.L39"              ,   1,        19.7,         9.0,         0.0,         0.0,         0.0,         0.0
"Line.L39"              ,   2,       -19.7,        -9.0
"Line.L40"              ,   1,       156.8,        88.0,         0.0,         0.0,         0.0,         0.0
"Line.L40"              ,   2,      -156.7,       -87.9
"Line.L41"              ,   1,        10.6,         5.3,         0.0,         0.0,         0.0,         0.0
"Line.L41"              ,   2,       -10.6,        -5.3
"Line.L42"              ,   1,         9.1,         3.7,         0.0,         0.0,         0.0,         0.0
"Line.L42"              ,   2,        -9.1,        -3.8
"Line.L43"              ,   1,         3.8,         1.1,         0.0,         0.0,         0.0,         0.0
"Line.L43"              ,   2,        -3.8,        -1.1
"Line.L44"              ,   1,         5.3,         2.6,         0.0,         0.0,         0.0,         0.0
"Line.L44"              ,   2,        -5.3,        -2.7
"Line.L45"              ,   1,       151.4,        85.2,         0.0,         0.0,         0.0,         0.0
"Line.L45"              ,   2,      -151.3,       -85.1
"Line.L46"              ,   1,        10.6,         5.3,         0.0,         0.0,         0.0,         0.0
"Line.L46"              ,   2,       -10.6,        -5.3
"Line.L47"              ,   1,       135.4,        77.1,         0.0,         0.0,         0.0,         0.0
"Line.L47"              ,   2,      -135.4,       -77.1
"Line.L48"              ,   1,         7.1,         1.9,         0.0,         0.0,         0.0,         0.0
"Line.L48"              ,   2,        -7.1,        -1.9
"Line.L49"              ,   1,       128.3,        75.2,         0.0,         0.0,         0.0,         0.0
"Line.L49"              ,   2,      -128.2,       -75.1
"Line.L50"              ,   1,         3.2,         0.8,         0.0,         0.0,         0.0,         0.0
"Line.L50"              ,   2,        -3.2,        -0.8
"Line.L51"              ,   1,        48.9,        23.6,         0.0,         0.0,         0.0,         0.0
"Line.L51"              ,   2,       -48.9,       -23.5
"Line.L52"              ,   1,        51.5,        31.6,         0.0,         0.0,         0.0,         0.0
"Line.L52"              ,   2,       -51.5,       -31.6
"Line.L53"              ,   1,        14.3,         6.4,         0.0,         0.0,         0.0,         0.0
"Line.L53"              ,   2,       -14.3,        -6.4
"Line.L54"              ,   1,         3.7,         1.1,         0.0,         0.0,         0.0,         0.0
"Line.L54"              ,   2,        -3.7,        -1.1
"Line.L55"              ,   1,       457.9,       -68.8,         0.0,         0.0,         0.0,         0.0
"Line.L55"              ,   2,      -457.5,        69.7
"Line.L56"              ,   1,       446.9,       -75.0,         0.0,         0.0,         0.0,         0.0
"Line.L56"              ,   2,      -446.6,        75.5
"Line.L57"              ,   1,         9.0,         3.7,         0.0,         0.0,         0.0,         0.0
"Line.L57"              ,   2,        -9.0,        -3.8
"Line.L58"              ,   1,       437.6,       -79.2,         0.0,         0.0,         0.0,         0.0
"Line.L58"              ,   2,      -436.9,        80.6
"Line.L59"              ,   1,         3.7,         1.1,         0.0,         0.0,         0.0,         0.0
"Line.L59"              ,   2,        -3.7,        -1.1
"Line.L60"              ,   1,         8.5,         3.4,         0.0,         0.0,         0.0,         0.0
"Line.L60"              ,   2,        -8.5,        -3.4
"Line.L61"              ,   1,       428.4,       -84.0,         0.0,         0.0,         0.0,         0.0
"Line.L61"              ,   2,      -427.0,        86.9
"Line.L62"              ,   1,         3.2,         0.8,         0.0,         0.0,         0.0,         0.0
"Line.L62"              ,   2,        -3.2,        -0.8
"Line.L63"              ,   1,         0.0,        -0.0,         0.0,         0.0,         0.0,         0.0
"Line.L63"              ,   2,        -0.0,         0.0
"Line.L64"              ,   1,        88.8,        45.0,         0.0,         0.0,         0.0,         0.0
"Line.L64"              ,   2,       -88.7,       -44.9
"Line.L65"              ,   1,        78.1,        39.6,         0.0,         0.0,         0.0,         0.0
"Line.L65"              ,   2,       -78.1,       -39.6
"Line.L66"              ,   1,        67.5,        34.3,         0.0,         0.0,         0.0,         0.0
"Line.L66"              ,   2,       -67.4,       -34.3
"Line.L67"              ,   1,        47.5,        25.0,         0.0,         0.0,         0.0,         0.0
"Line.L67"              ,   2,       -47.5,       -25.0
"Line.L68"              ,   1,        19.9,         9.3,         0.0,         0.0,         0.0,         0.0
"Line.L68"              ,   2,       -19.9,        -9.3
"Line.L69"              ,   1,        24.8,        13.1,         0.0,         0.0,         0.0,         0.0
"Line.L69"              ,   2,       -24.8,       -13.1
"Line.L70"              ,   1,       209.6,      -197.1,         0.0,         0.0,         0.0,         0.0
"Line.L70"              ,   2,      -209.4,       197.6
"Line.L71"              ,   1,        99.7,        50.2,         0.0,         0.0,         0.0,         0.0
"Line.L71"              ,   2,       -99.7,       -50.1
"Line.L72"              ,   1,        19.5,        10.5,         0.0,         0.0,         0.0,         0.0
"Line.L72"              ,   2,       -19.5,       -10.5
"Line.L73"              ,   1,        11.7,         4.2,         0.0,         0.0,         0.0,         0.0
"Line.L73"              ,   2,       -11.7,        -4.2
"Line.L74"              ,   1,         6.4,         1.6,         0.0,         0.0,         0.0,         0.0
"Line.L74"              ,   2,        -6.4,        -1.6
"Line.L75"              ,   1,        28.7,        19.0,         0.0,         0.0,         0.0,         0.0
"Line.L75"              ,   2,       -28.7,       -19.0
"Line.L76"              ,   1,       180.6,      -216.6,         0.0,         0.0,         0.0,         0.0
"Line.L76"              ,   2,      -180.5,       216.9
"Line.L77"              ,   1,        21.2,        10.6,         0.0,         0.0,         0.0,         0.0
"Line.L77"              ,   2,       -21.2,       -10.6
"Line.L78"              ,   1,        10.6,         5.3,         0.0,         0.0,         0.0,         0.0
"Line.L78"              ,   2,       -10.6,        -5.3
"Line.L79"              ,   1,        50.9,      -154.2,         0.0,         0.0,         0.0,         0.0
"Line.L79"              ,   2,       -50.8,       154.4
"Line.L80"              ,   1,        64.5,      -110.5,         0.0,         0.0,         0.0,         0.0
"Line.L80"              ,   2,       -64.4,       110.7
"Line.L81"              ,   1,        43.5,      -162.8,         0.0,         0.0,         0.0,         0.0
"Line.L81"              ,   2,       -43.4,       162.9
"Line.L82"              ,   1,        10.6,         5.3,         0.0,         0.0,         0.0,         0.0
"Line.L82"              ,   2,       -10.6,        -5.3
"Line.L83"              ,   1,        32.8,      -168.2,         0.0,         0.0,         0.0,         0.0
"Line.L83"              ,   2,       -32.7,       168.4
"Line.L84"              ,   1,        22.1,      -173.7,         0.0,         0.0,         0.0,         0.0
"Line.L84"              ,   2,       -22.0,       173.8
"Line.L85"              ,   1,        13.0,      -188.6,         0.0,         0.0,         0.0,         0.0
"Line.L85"              ,   2,       -12.9,       188.8
"Line.L86"              ,   1,         9.0,        14.8,         0.0,         0.0,         0.0,         0.0
"Line.L86"              ,   2,        -9.0,       -14.8
"Line.L87"              ,   1,         5.4,      -197.2,         0.0,         0.0,         0.0,         0.0
"Line.L87"              ,   2,        -5.3,       197.3
"Line.L88"              ,   1,         3.7,        12.1,         0.0,         0.0,         0.0,         0.0
"Line.L88"              ,   2,        -3.7,       -12.1
"Line.L89"              ,   1,        59.1,      -113.3,         0.0,         0.0,         0.0,         0.0
"Line.L89"              ,   2,       -59.0,       113.5
"Line.L90"              ,   1,        10.6,       -44.7,         0.0,         0.0,         0.0,         0.0
"Line.L90"              ,   2,       -10.6,        44.7
"Line.L91"              ,   1,        37.8,       -74.1,         0.0,         0.0,         0.0,         0.0
"Line.L91"              ,   2,       -37.8,        74.1
"Line.L92"              ,   1,         7.6,       -41.6,         0.0,         0.0,         0.0,         0.0
"Line.L92"              ,   2,        -7.6,        41.6
"Line.L93"              ,   1,        30.2,       -32.5,         0.0,         0.0,         0.0,         0.0
"Line.L93"              ,   2,       -30.2,        32.5
"Line.L94"              ,   1,        10.6,       -44.7,         0.0,         0.0,         0.0,         0.0
"Line.L94"              ,   2,       -10.6,        44.7
"Line.L95"              ,   1,        19.6,        12.1,         0.0,         0.0,         0.0,         0.0
"Line.L95"              ,   2,       -19.5,       -12.1
"Line.L96"              ,   1,        10.6,         5.3,         0.0,         0.0,         0.0,         0.0
"Line.L96"              ,   2,       -10.6,        -5.3
"Line.L97"              ,   1,         8.9,         6.8,         0.0,         0.0,         0.0,         0.0
"Line.L97"              ,   2,        -8.9,        -6.8
"Line.L98"              ,   1,         5.3,         2.6,         0.0,         0.0,         0.0,         0.0
"Line.L98"              ,   2,        -5.3,        -2.7
"Line.L99"              ,   1,        24.3,        17.2,         0.0,         0.0,         0.0,         0.0
"Line.L99"              ,   2,       -24.3,       -17.2
"Line.L100"             ,   1,        13.6,        11.9,         0.0,         0.0,         0.0,         0.0
"Line.L100"             ,   2,       -13.6,       -11.9
"Line.L101"             ,   1,        10.6,         5.3,         0.0,         0.0,         0.0,         0.0
"Line.L101"             ,   2,       -10.6,        -5.3
"Line.L102"             ,   1,         0.0,        -0.0,         0.0,         0.0,         0.0,         0.0
"Line.L102"             ,   2,        -0.0,        -0.0
"Line.L103"             ,   1,        23.5,        10.2,         0.0,         0.0,         0.0,         0.0
"Line.L103"             ,   2,       -23.5,       -10.2
"Line.L104"             ,   1,        51.8,        22.7,         0.0,         0.0,         0.0,         0.0
"Line.L104"             ,   2,       -51.8,       -22.7
"Line.L105"             ,   1,        18.2,         7.5,         0.0,         0.0,         0.0,         0.0
"Line.L105"             ,   2,       -18.2,        -7.5
"Line.L106"             ,   1,         7.6,         2.2,         0.0,         0.0,         0.0,         0.0
"Line.L106"             ,   2,        -7.6,        -2.2
"Line.L107"             ,   1,        21.2,        10.6,         0.0,         0.0,         0.0,         0.0
"Line.L107"             ,   2,       -21.2,       -10.6
"Line.L108"             ,   1,        30.6,        12.1,         0.0,         0.0,         0.0,         0.0
"Line.L108"             ,   2,       -30.6,       -12.1
"Line.L109"             ,   1,        10.6,         5.3,         0.0,         0.0,         0.0,         0.0
"Line.L109"             ,   2,       -10.6,        -5.3
"Line.L110"             ,   1,        30.6,        12.1,         0.0,         0.0,         0.0,         0.0
"Line.L110"             ,   2,       -30.6,       -12.1
"Line.L111"             ,   1,         0.0,        -0.0,         0.0,         0.0,         0.0,         0.0
"Line.L111"             ,   2,         0.0,         0.0
"Line.L112"             ,   1,        23.0,         9.8,         0.0,         0.0,         0.0,         0.0
"Line.L112"             ,   2,       -23.0,        -9.8
"Line.L113"             ,   1,         5.3,         2.6,         0.0,         0.0,         0.0,         0.0
"Line.L113"             ,   2,        -5.3,        -2.7
"Line.L114"             ,   1,        17.7,         7.2,         0.0,         0.0,         0.0,         0.0
"Line.L114"             ,   2,       -17.7,        -7.2
"Line.L115"             ,   1,        12.4,         4.5,         0.0,         0.0,         0.0,         0.0
"Line.L115"             ,   2,       -12.4,        -4.6
"Line.L116"             ,   1,         1.8,        -0.8,         0.0,         0.0,         0.0,         0.0
"Line.L116"             ,   2,        -1.8,         0.7
"Line.L117"             ,   1,       184.1,        99.6,         0.0,         0.0,         0.0,         0.0
"Line.L117"             ,   2,      -184.0,       -99.3
"Line.L118"             ,   1,       469.4,       -61.7,         0.0,         0.0,         0.0,         0.0
"Line.L118"             ,   2,      -468.5,        63.5
"Line.L119"             ,   1,         0.0,        -0.0,         0.0,         0.0,         0.0,         0.0
"Line.L119"             ,   2,         0.0,         0.0
"Line.L120"             ,   1,       334.5,      -132.9,         0.0,         0.0,         0.0,         0.0
"Line.L120"             ,   2,      -334.5,       132.9
"Line.L121"             ,   1,       334.5,      -132.9,         0.0,         0.0,         0.0,         0.0
"Line.L121"             ,   2,      -334.1,       133.8
