Element, Terminal, P(kW), Q(kvar),  P_Normal, Q_Normal, P_Emergency, Q_Emergency
"Line.L1"               ,   1,       680.4,        63.1,         0.0,         0.0,         0.0,         0.0
"Line.L1"               ,   2,      -680.4,       -63.1
"Line.L2"               ,   1,       680.4,        63.1,         0.0,         0.0,         0.0,         0.0
"Line.L2"               ,   2,      -678.7,       -59.5
"Line.L3"               ,   1,         5.2,         2.6,         0.0,         0.0,         0.0,         0.0
"Line.L3"               ,   2,        -5.2,        -2.6
"Line.L4"               ,   1,        16.7,         0.6,         0.0,         0.0,         0.0,         0.0
"Line.L4"               ,   2,       -16.7,        -0.6
"Line.L5"               ,   1,       651.0,        57.3,         0.0,         0.0,         0.0,         0.0
"Line.L5"               ,   2,      -649.7,       -54.8
"Line.L6"               ,   1,         5.8,        -1.0,         0.0,         0.0,         0.0,         0.0
"Line.L6"               ,   2,        -5.8,         1.0
"Line.L7"               ,   1,        11.0,         1.6,         0.0,         0.0,         0.0,         0.0
"Line.L7"               ,   2,       -11.0,        -1.6
"Line.L8"               ,   1,         5.8,        -1.0,         0.0,         0.0,         0.0,         0.0
"Line.L8"               ,   2,        -5.8,         1.0
"Line.L9"               ,   1,       644.5,        52.2,         0.0,         0.0,         0.0,         0.0
"Line.L9"               ,   2,      -643.7,       -50.5
"Line.L10"              ,   1,         5.2,         2.6,         0.0,         0.0,         0.0,         0.0
"Line.L10"              ,   2,        -5.2,        -2.6
"Line.L11"              ,   1,        16.0,         0.6,         0.0,         0.0,         0.0,         0.0
"Line.L11"              ,   2,       -16.0,        -0.6
"Line.L12"              ,   1,       622.5,        47.3,         0.0,         0.0,         0.0,         0.0
"Line.L12"              ,   2,      -621.4,       -45.0
"Line.L13"              ,   1,        10.6,         1.6,         0.0,         0.0,         0.0,         0.0
"Line.L13"              ,   2,       -10.6,        -1.6
"Line.L14"              ,   1,        10.6,         1.6,         0.0,         0.0,         0.0,         0.0
"Line.L14"              ,   2,       -10.6,        -1.6
"Line.L15"              ,   1,        15.8,         0.6,         0.0,         0.0,         0.0,         0.0
"Line.L15"              ,   2,       -15.8,        -0.6
"Line.L16"              ,   1,       224.0,        86.4,         0.0,         0.0,         0.0,         0.0
"Line.L16"              ,   2,      -223.5,       -85.4
"Line.L17"              ,   1,         5.4,        -1.0,         0.0,         0.0,         0.0,         0.0
"Line.L17"              ,   2,        -5.4,         1.0
"Line.L18"              ,   1,         5.2,         2.6,         0.0,         0.0,         0.0,         0.0
"Line.L18"              ,   2,        -5.2,        -2.6
"Line.L19"              ,   1,         5.3,        -1.0,         0.0,         0.0,         0.0,         0.0
"Line.L19"              ,   2,        -5.3,         1.0
"Line.L20"              ,   1,         5.2,         2.6,         0.0,         0.0,         0.0,         0.0
"Line.L20"              ,   2,        -5.2,        -2.6
"Line.L21"              ,   1,        15.7,         4.2,         0.0,         0.0,         0.0,         0.0
"Line.L21"              ,   2,       -15.7,        -4.2
"Line.L22"              ,   1,        54.9,        14.8,         0.0,         0.0,         0.0,         0.0
"Line.L22"              ,   2,       -54.9,       -14.8
"Line.L23"              ,   1,        10.4,         5.2,         0.0,         0.0,         0.0,         0.0
"Line.L23"              ,   2,       -10.4,        -5.2
"Line.L24"              ,   1,         5.3,        -1.0,         0.0,         0.0,         0.0,         0.0
"Line.L24"              ,   2,        -5.3,         1.0
"Line.L25"              ,   1,        49.6,        15.7,         0.0,         0.0,         0.0,         0.0
"Line.L25"              ,   2,       -49.6,       -15.7
"Line.L26"              ,   1,        10.4,         5.2,         0.0,         0.0,         0.0,         0.0
"Line.L26"              ,   2,       -10.4,        -5.2
"Line.L27"              ,   1,        39.2,        10.5,         0.0,         0.0,         0.0,         0.0
"Line.L27"              ,   2,       -39.2,       -10.5
"Line.L28"              ,   1,        18.3,         7.3,         0.0,         0.0,         0.0,         0.0
"Line.L28"              ,   2,       -18.3,        -7.3
"Line.L29"              ,   1,        18.3,         7.3,         0.0,         0.0,         0.0,         0.0
"Line.L29"              ,   2,       -18.3,        -7.3
"Line.L30"              ,   1,        20.9,         3.2,         0.0,         0.0,         0.0,         0.0
"Line.L30"              ,   2,       -20.9,        -3.2
"Line.L31"              ,   1,        10.4,         5.2,         0.0,         0.0,         0.0,         0.0
"Line.L31"              ,   2,       -10.4,        -5.2
"Line.L32"              ,   1,         7.8,         2.1,         0.0,         0.0,         0.0,         0.0
"Line.L32"              ,   2,        -7.8,        -2.1
"Line.L33"              ,   1,        10.4,         5.2,         0.0,         0.0,         0.0,         0.0
"Line.L33"              ,   2,       -10.4,        -5.2
"Line.L34"              ,   1,        15.7,         4.2,         0.0,         0.0,         0.0,         0.0
"Line.L34"              ,   2,       -15.7,        -4.2
"Line.L35"              ,   1,         5.3,        -1.0,         0.0,         0.0,         0.0,         0.0
"Line.L35"              ,   2,        -5.3,         1.0
"Line.L36"              ,   1,         0.0,        -0.0,         0.0,         0.0,         0.0,         0.0
"Line.L36"              ,   2,        -0.0,        -0.0
"Line.L37"              ,   1,         2.6,        -0.5,         0.0,         0.0,         0.0,         0.0
"Line.L37"              ,   2,        -2.6,         0.5
"Line.L38"              ,   1,        10.5,         1.6,         0.0,         0.0,         0.0,         0.0
"Line.L38"              ,   2,       -10.5,        -1.6
"Line.L39"              ,   1,        13.1,         1.1,         0.0,         0.0,         0.0,         0.0
"Line.L39"              ,   2,       -13.1,        -1.1
"Line.L40"              ,   1,       129.2,        59.9,         0.0,         0.0,         0.0,         0.0
"Line.L40"              ,   2,      -129.2,       -59.8
"Line.L41"              ,   1,         5.3,        -1.0,         0.0,         0.0,         0.0,         0.0
"Line.L41"              ,   2,        -5.3,         1.0
"Line.L42"              ,   1,         7.8,         2.1,         0.0,         0.0,         0.0,         0.0
"Line.L42"              ,   2,        -7.8,        -2.1
"Line.L43"              ,   1,         2.6,        -0.5,         0.0,         0.0,         0.0,         0.0
"Line.L43"              ,   2,        -2.6,         0.5
"Line.L44"              ,   1,         5.2,         2.6,         0.0,         0.0,         0.0,         0.0
"Line.L44"              ,   2,        -5.2,        -2.6
"Line.L45"              ,   1,       124.0,        57.2,         0.0,         0.0,         0.0,         0.0
"Line.L45"              ,   2,      -123.9,       -57.1
"Line.L46"              ,   1,        10.4,         5.2,         0.0,         0.0,         0.0,         0.0
"Line.L46"              ,   2,       -10.4,        -5.2
"Line.L47"              ,   1,       110.9,        52.4,         0.0,         0.0,         0.0,         0.0
"Line.L47"              ,   2,      -110.9,       -52.4
"Line.L48"              ,   1,         7.8,         2.1,         0.0,         0.0,         0.0,         0.0
"Line.L48"              ,   2,        -7.8,        -2.1
"Line.L49"              ,   1,       103.0,        50.3,         0.0,         0.0,         0.0,         0.0
"Line.L49"              ,   2,      -103.0,       -50.2
"Line.L50"              ,   1,         5.2,         2.6,         0.0,         0.0,         0.0,         0.0
"Line.L50"              ,   2,        -5.2,        -2.6
"Line.L51"              ,   1,        54.7,        39.1,         0.0,         0.0,         0.0,         0.0
"Line.L51"              ,   2,       -54.7,       -39.1
"Line.L52"              ,   1,        33.3,         7.8,         0.0,         0.0,         0.0,         0.0
"Line.L52"              ,   2,       -33.3,        -7.8
"Line.L53"              ,   1,        13.2,         4.7,         0.0,         0.0,         0.0,         0.0
"Line.L53"              ,   2,       -13.2,        -4.7
"Line.L54"              ,   1,         2.7,        -0.5,         0.0,         0.0,         0.0,         0.0
"Line.L54"              ,   2,        -2.7,         0.5
"Line.L55"              ,   1,       370.6,       -48.3,         0.0,         0.0,         0.0,         0.0
"Line.L55"              ,   2,      -370.3,        48.9
"Line.L56"              ,   1,       365.0,       -47.9,         0.0,         0.0,         0.0,         0.0
"Line.L56"              ,   2,      -364.8,        48.2
"Line.L57"              ,   1,         7.9,         2.1,         0.0,         0.0,         0.0,         0.0
"Line.L57"              ,   2,        -7.9,        -2.1
"Line.L58"              ,   1,       357.0,       -50.3,         0.0,         0.0,         0.0,         0.0
"Line.L58"              ,   2,      -356.5,        51.2
"Line.L59"              ,   1,         2.7,        -0.5,         0.0,         0.0,         0.0,         0.0
"Line.L59"              ,   2,        -2.7,         0.5
"Line.L60"              ,   1,         7.9,         2.1,         0.0,         0.0,         0.0,         0.0
"Line.L60"              ,   2,        -7.9,        -2.1
"Line.L61"              ,   1,       348.7,       -53.3,         0.0,         0.0,         0.0,         0.0
"Line.L61"              ,   2,      -347.8,        55.2
"Line.L62"              ,   1,         2.6,        -0.5,         0.0,         0.0,         0.0,         0.0
"Line.L62"              ,   2,        -2.6,         0.5
"Line.L63"              ,   1,         0.0,        -0.0,         0.0,         0.0,         0.0,         0.0
"Line.L63"              ,   2,        -0.0,         0.0
"Line.L64"              ,   1,        72.1,        25.4,         0.0,         0.0,         0.0,         0.0
"Line.L64"              ,   2,       -72.1,       -25.4
"Line.L65"              ,   1,        66.7,        26.3,         0.0,         0.0,         0.0,         0.0
"Line.L65"              ,   2,       -66.7,       -26.3
"Line.L66"              ,   1,        56.3,        21.1,         0.0,         0.0,         0.0,         0.0
"Line.L66"              ,   2,       -56.2,       -21.1
"Line.L67"              ,   1,        46.4,        23.6,         0.0,         0.0,         0.0,         0.0
"Line.L67"              ,   2,       -46.3,       -23.6
"Line.L68"              ,   1,         9.8,        -2.5,         0.0,         0.0,         0.0,         0.0
"Line.L68"              ,   2,        -9.8,         2.5
"Line.L69"              ,   1,        21.0,        14.6,         0.0,         0.0,         0.0,         0.0
"Line.L69"              ,   2,       -21.0,       -14.6
"Line.L70"              ,   1,       165.1,      -142.4,         0.0,         0.0,         0.0,         0.0
"Line.L70"              ,   2,      -164.9,       142.7
"Line.L71"              ,   1,        84.1,        44.2,         0.0,         0.0,         0.0,         0.0
"Line.L71"              ,   2,       -84.0,       -44.1
"Line.L72"              ,   1,        15.8,        12.0,         0.0,         0.0,         0.0,         0.0
"Line.L72"              ,   2,       -15.8,       -12.0
"Line.L73"              ,   1,        10.5,         1.6,         0.0,         0.0,         0.0,         0.0
"Line.L73"              ,   2,       -10.5,        -1.6
"Line.L74"              ,   1,         5.3,        -1.0,         0.0,         0.0,         0.0,         0.0
"Line.L74"              ,   2,        -5.3,         1.0
"Line.L75"              ,   1,        26.2,        21.8,         0.0,         0.0,         0.0,         0.0
"Line.L75"              ,   2,       -26.1,       -21.8
"Line.L76"              ,   1,       138.8,      -164.5,         0.0,         0.0,         0.0,         0.0
"Line.L76"              ,   2,      -138.7,       164.7
"Line.L77"              ,   1,        15.7,        16.6,         0.0,         0.0,         0.0,         0.0
"Line.L77"              ,   2,       -15.7,       -16.6
"Line.L78"              ,   1,        10.4,         5.2,         0.0,         0.0,         0.0,         0.0
"Line.L78"              ,   2,       -10.4,        -5.2
"Line.L79"              ,   1,        50.6,      -152.3,         0.0,         0.0,         0.0,         0.0
"Line.L79"              ,   2,       -50.5,       152.5
"Line.L80"              ,   1,        52.8,       -97.2,         0.0,         0.0,         0.0,         0.0
"Line.L80"              ,   2,       -52.7,        97.4
"Line.L81"              ,   1,        40.1,      -157.7,         0.0,         0.0,         0.0,         0.0
"Line.L81"              ,   2,       -40.1,       157.7
"Line.L82"              ,   1,         5.7,        11.4,         0.0,         0.0,         0.0,         0.0
"Line.L82"              ,   2,        -5.7,       -11.4
"Line.L83"              ,   1,        34.3,      -169.1,         0.0,         0.0,         0.0,         0.0
"Line.L83"              ,   2,       -34.2,       169.4
"Line.L84"              ,   1,        23.8,      -174.6,         0.0,         0.0,         0.0,         0.0
"Line.L84"              ,   2,       -23.7,       174.7
"Line.L85"              ,   1,        10.7,      -185.6,         0.0,         0.0,         0.0,         0.0
"Line.L85"              ,   2,       -10.6,       185.8
"Line.L86"              ,   1,        13.0,        10.9,         0.0,         0.0,         0.0,         0.0
"Line.L86"              ,   2,       -13.0,       -10.9
"Line.L87"              ,   1,         5.3,      -197.2,         0.0,         0.0,         0.0,         0.0
"Line.L87"              ,   2,        -5.2,       197.4
"Line.L88"              ,   1,        10.4,         5.2,         0.0,         0.0,         0.0,         0.0
"Line.L88"              ,   2,       -10.4,        -5.2
"Line.L89"              ,   1,        49.8,      -103.1,         0.0,         0.0,         0.0,         0.0
"Line.L89"              ,   2,       -49.8,       103.2
"Line.L90"              ,   1,         5.3,       -38.6,         0.0,         0.0,         0.0,         0.0
"Line.L90"              ,   2,        -5.3,        38.6
"Line.L91"              ,   1,        34.0,       -69.8,         0.0,         0.0,         0.0,         0.0
"Line.L91"              ,   2,       -34.0,        69.9
"Line.L92"              ,   1,        10.4,       -44.8,         0.0,         0.0,         0.0,         0.0
"Line.L92"              ,   2,       -10.4,        44.8
"Line.L93"              ,   1,        23.5,       -25.1,         0.0,         0.0,         0.0,         0.0
"Line.L93"              ,   2,       -23.5,        25.1
"Line.L94"              ,   1,         5.3,       -38.6,         0.0,         0.0,         0.0,         0.0
"Line.L94"              ,   2,        -5.3,        38.6
"Line.L95"              ,   1,        18.2,        13.5,         0.0,         0.0,         0.0,         0.0
"Line.L95"              ,   2,       -18.2,       -13.5
"Line.L96"              ,   1,        10.4,         5.2,         0.0,         0.0,         0.0,         0.0
"Line.L96"              ,   2,       -10.4,        -5.2
"Line.L97"              ,   1,         7.8,         8.3,         0.0,         0.0,         0.0,         0.0
"Line.L97"              ,   2,        -7.8,        -8.3
"Line.L98"              ,   1,         5.2,         2.6,         0.0,         0.0,         0.0,         0.0
"Line.L98"              ,   2,        -5.2,        -2.6
"Line.L99"              ,   1,        21.2,        24.1,         0.0,         0.0,         0.0,         0.0
"Line.L99"              ,   2,       -21.2,       -24.1
"Line.L100"             ,   1,        15.7,        12.7,         0.0,         0.0,         0.0,         0.0
"Line.L100"             ,   2,       -15.7,       -12.7
"Line.L101"             ,   1,         5.3,         7.5,         0.0,         0.0,         0.0,         0.0
"Line.L101"             ,   2,        -5.3,        -7.5
"Line.L102"             ,   1,         0.0,        -0.0,         0.0,         0.0,         0.0,         0.0
"Line.L102"             ,   2,        -0.0,        -0.0
"Line.L103"             ,   1,        20.9,         6.8,         0.0,         0.0,         0.0,         0.0
"Line.L103"             ,   2,       -20.9,        -6.8
"Line.L104"             ,   1,        41.9,        13.2,         0.0,         0.0,         0.0,         0.0
"Line.L104"             ,   2,       -41.9,       -13.2
"Line.L105"             ,   1,        15.7,         4.2,         0.0,         0.0,         0.0,         0.0
"Line.L105"             ,   2,       -15.7,        -4.2
"Line.L106"             ,   1,        10.4,         5.2,         0.0,         0.0,         0.0,         0.0
"Line.L106"             ,   2,       -10.4,        -5.2
"Line.L107"             ,   1,        15.7,         7.3,         0.0,         0.0,         0.0,         0.0
"Line.L107"             ,   2,       -15.7,        -7.3
"Line.L108"             ,   1,        26.2,         5.8,         0.0,         0.0,         0.0,         0.0
"Line.L108"             ,   2,       -26.2,        -5.8
"Line.L109"             ,   1,        10.4,         5.2,         0.0,         0.0,         0.0,         0.0
"Line.L109"             ,   2,       -10.4,        -5.2
"Line.L110"             ,   1,        26.2,         5.8,         0.0,         0.0,         0.0,         0.0
"Line.L110"             ,   2,       -26.2,        -5.8
"Line.L111"             ,   1,         0.0,        -0.0,         0.0,         0.0,         0.0,         0.0
"Line.L111"             ,   2,        -0.0,         0.0
"Line.L112"             ,   1,        20.9,         6.8,         0.0,         0.0,         0.0,         0.0
"Line.L112"             ,   2,       -20.9,        -6.8
"Line.L113"             ,   1,         5.2,         2.6,         0.0,         0.0,         0.0,         0.0
"Line.L113"             ,   2,        -5.2,        -2.6
"Line.L114"             ,   1,        15.7,         4.2,         0.0,         0.0,         0.0,         0.0
"Line.L114"             ,   2,       -15.7,        -4.2
"Line.L115"             ,   1,        13.0,         4.7,         0.0,         0.0,         0.0,         0.0
"Line.L115"             ,   2,       -13.0,        -4.7
"Line.L116"             ,   1,         2.6,        -0.5,         0.0,         0.0,         0.0,         0.0
"Line.L116"             ,   2,        -2.6,         0.5
"Line.L117"             ,   1,       152.9,        66.4,         0.0,         0.0,         0.0,         0.0
"Line.L117"             ,   2,      -152.8,       -66.2
"Line.L118"             ,   1,       381.6,       -42.0,         0.0,         0.0,         0.0,         0.0
"Line.L118"             ,   2,      -381.0,        43.1
"Line.L119"             ,   1,         0.0,        -0.0,         0.0,         0.0,         0.0,         0.0
"Line.L119"             ,   2,         0.0,        -0.0
"Line.L120"             ,   1,       270.4,       -83.1,         0.0,         0.0,         0.0,         0.0
"Line.L120"             ,   2,      -270.4,        83.1
"Line.L121"             ,   1,       270.4,       -83.1,         0.0,         0.0,         0.0,         0.0
"Line.L121"             ,   2,      -270.2,        83.7
