Element, Terminal, P(kW), Q(kvar),  P_Normal, Q_Normal, P_Emergency, Q_Emergency
"Line.L1"               ,   1,       517.3,        62.7,         0.0,         0.0,         0.0,         0.0
"Line.L1"               ,   2,      -517.3,       -62.7
"Line.L2"               ,   1,       517.3,        62.7,         0.0,         0.0,         0.0,         0.0
"Line.L2"               ,   2,      -516.3,       -60.6
"Line.L3"               ,   1,         3.0,         1.1,         0.0,         0.0,         0.0,         0.0
"Line.L3"               ,   2,        -3.0,        -1.1
"Line.L4"               ,   1,        14.9,         5.5,         0.0,         0.0,         0.0,         0.0
"Line.L4"               ,   2,       -14.9,        -5.5
"Line.L5"               ,   1,       492.5,        54.9,         0.0,         0.0,         0.0,         0.0
"Line.L5"               ,   2,      -491.8,       -53.4
"Line.L6"               ,   1,         5.9,         2.2,         0.0,         0.0,         0.0,         0.0
"Line.L6"               ,   2,        -5.9,        -2.2
"Line.L7"               ,   1,         8.9,         3.3,         0.0,         0.0,         0.0,         0.0
"Line.L7"               ,   2,        -8.9,        -3.3
"Line.L8"               ,   1,         5.9,         2.2,         0.0,         0.0,         0.0,         0.0
"Line.L8"               ,   2,        -5.9,        -2.2
"Line.L9"               ,   1,       488.8,        52.3,         0.0,         0.0,         0.0,         0.0
"Line.L9"               ,   2,      -488.4,       -51.4
"Line.L10"              ,   1,         3.0,         1.1,         0.0,         0.0,         0.0,         0.0
"Line.L10"              ,   2,        -3.0,        -1.1
"Line.L11"              ,   1,        14.9,         5.5,         0.0,         0.0,         0.0,         0.0
"Line.L11"              ,   2,       -14.9,        -5.5
"Line.L12"              ,   1,       470.5,        44.8,         0.0,         0.0,         0.0,         0.0
"Line.L12"              ,   2,      -469.9,       -43.5
"Line.L13"              ,   1,         8.9,         3.3,         0.0,         0.0,         0.0,         0.0
"Line.L13"              ,   2,        -8.9,        -3.3
"Line.L14"              ,   1,         8.9,         3.3,         0.0,         0.0,         0.0,         0.0
"Line.L14"              ,   2,        -8.9,        -3.3
"Line.L15"              ,   1,        13.8,         2.4,         0.0,         0.0,         0.0,         0.0
"Line.L15"              ,   2,       -13.8,        -2.4
"Line.L16"              ,   1,       164.6,        82.2,         0.0,         0.0,         0.0,         0.0
"Line.L16"              ,   2,      -164.3,       -81.6
"Line.L17"              ,   1,         5.9,         2.2,         0.0,         0.0,         0.0,         0.0
"Line.L17"              ,   2,        -5.9,        -2.2
"Line.L18"              ,   1,         3.0,         1.1,         0.0,         0.0,         0.0,         0.0
"Line.L18"              ,   2,        -3.0,        -1.1
"Line.L19"              ,   1,         4.9,        -0.9,         0.0,         0.0,         0.0,         0.0
"Line.L19"              ,   2,        -4.9,         0.9
"Line.L20"              ,   1,         3.0,         1.1,         0.0,         0.0,         0.0,         0.0
"Line.L20"              ,   2,        -3.0,        -1.1
"Line.L21"              ,   1,        11.9,         4.4,         0.0,         0.0,         0.0,         0.0
"Line.L21"              ,   2,       -11.9,        -4.4
"Line.L22"              ,   1,        40.5,        12.3,         0.0,         0.0,         0.0,         0.0
"Line.L22"              ,   2,       -40.5,       -12.3
"Line.L23"              ,   1,         5.9,         2.2,         0.0,         0.0,         0.0,         0.0
"Line.L23"              ,   2,        -5.9,        -2.2
"Line.L24"              ,   1,         5.9,         2.2,         0.0,         0.0,         0.0,         0.0
"Line.L24"              ,   2,        -5.9,        -2.2
"Line.L25"              ,   1,        34.6,        10.1,         0.0,         0.0,         0.0,         0.0
"Line.L25"              ,   2,       -34.6,       -10.1
"Line.L26"              ,   1,         5.9,         2.2,         0.0,         0.0,         0.0,         0.0
"Line.L26"              ,   2,        -5.9,        -2.2
"Line.L27"              ,   1,        28.6,         7.9,         0.0,         0.0,         0.0,         0.0
"Line.L27"              ,   2,       -28.6,        -7.9
"Line.L28"              ,   1,        10.8,         1.3,         0.0,         0.0,         0.0,         0.0
"Line.L28"              ,   2,       -10.8,        -1.3
"Line.L29"              ,   1,        10.8,         1.3,         0.0,         0.0,         0.0,         0.0
"Line.L29"              ,   2,       -10.8,        -1.3
"Line.L30"              ,   1,        17.8,         6.6,         0.0,         0.0,         0.0,         0.0
"Line.L30"              ,   2,       -17.8,        -6.6
"Line.L31"              ,   1,         4.8,        -0.9,         0.0,         0.0,         0.0,         0.0
"Line.L31"              ,   2,        -4.8,         0.9
"Line.L32"              ,   1,         5.9,         2.2,         0.0,         0.0,         0.0,         0.0
"Line.L32"              ,   2,        -5.9,        -2.2
"Line.L33"              ,   1,         4.8,        -0.9,         0.0,         0.0,         0.0,         0.0
"Line.L33"              ,   2,        -4.8,         0.9
"Line.L34"              ,   1,        11.9,         4.4,         0.0,         0.0,         0.0,         0.0
"Line.L34"              ,   2,       -11.9,        -4.4
"Line.L35"              ,   1,         5.9,         2.2,         0.0,         0.0,         0.0,         0.0
"Line.L35"              ,   2,        -5.9,        -2.2
"Line.L36"              ,   1,         0.0,        -0.0,         0.0,         0.0,         0.0,         0.0
"Line.L36"              ,   2,         0.0,        -0.0
"Line.L37"              ,   1,         3.0,         1.1,         0.0,         0.0,         0.0,         0.0
"Line.L37"              ,   2,        -3.0,        -1.1
"Line.L38"              ,   1,         7.9,         0.2,         0.0,         0.0,         0.0,         0.0
"Line.L38"              ,   2,        -7.9,        -0.2
"Line.L39"              ,   1,        11.9,         4.4,         0.0,         0.0,         0.0,         0.0
"Line.L39"              ,   2,       -11.9,        -4.4
"Line.L40"              ,   1,        94.0,        58.2,         0.0,         0.0,         0.0,         0.0
"Line.L40"              ,   2,       -93.9,       -58.2
"Line.L41"              ,   1,         5.9,         2.2,         0.0,         0.0,         0.0,         0.0
"Line.L41"              ,   2,        -5.9,        -2.2
"Line.L42"              ,   1,         5.9,         2.2,         0.0,         0.0,         0.0,         0.0
"Line.L42"              ,   2,        -5.9,        -2.2
"Line.L43"              ,   1,         3.0,         1.1,         0.0,         0.0,         0.0,         0.0
"Line.L43"              ,   2,        -3.0,        -1.1
"Line.L44"              ,   1,         3.0,         1.1,         0.0,         0.0,         0.0,         0.0
"Line.L44"              ,   2,        -3.0,        -1.1
"Line.L45"              ,   1,        91.0,        57.1,         0.0,         0.0,         0.0,         0.0
"Line.L45"              ,   2,       -90.9,       -57.0
"Line.L46"              ,   1,         5.9,         2.2,         0.0,         0.0,         0.0,         0.0
"Line.L46"              ,   2,        -5.9,        -2.2
"Line.L47"              ,   1,        82.0,        53.7,         0.0,         0.0,         0.0,         0.0
"Line.L47"              ,   2,       -82.0,       -53.7
"Line.L48"              ,   1,         5.4,         0.6,         0.0,         0.0,         0.0,         0.0
"Line.L48"              ,   2,        -5.4,        -0.7
"Line.L49"              ,   1,        76.6,        53.0,         0.0,         0.0,         0.0,         0.0
"Line.L49"              ,   2,       -76.6,       -53.0
"Line.L50"              ,   1,         2.4,        -0.5,         0.0,         0.0,         0.0,         0.0
"Line.L50"              ,   2,        -2.4,         0.4
"Line.L51"              ,   1,        31.2,        23.5,         0.0,         0.0,         0.0,         0.0
"Line.L51"              ,   2,       -31.2,       -23.5
"Line.L52"              ,   1,        29.7,        17.7,         0.0,         0.0,         0.0,         0.0
"Line.L52"              ,   2,       -29.7,       -17.7
"Line.L53"              ,   1,         8.9,         3.3,         0.0,         0.0,         0.0,         0.0
"Line.L53"              ,   2,        -8.9,        -3.3
"Line.L54"              ,   1,         3.0,         1.1,         0.0,         0.0,         0.0,         0.0
"Line.L54"              ,   2,        -3.0,        -1.1
"Line.L55"              ,   1,       285.2,       -44.0,         0.0,         0.0,         0.0,         0.0
"Line.L55"              ,   2,      -285.1,        44.3
"Line.L56"              ,   1,       279.1,       -46.5,         0.0,         0.0,         0.0,         0.0
"Line.L56"              ,   2,      -279.0,        46.7
"Line.L57"              ,   1,         5.9,         2.2,         0.0,         0.0,         0.0,         0.0
"Line.L57"              ,   2,        -5.9,        -2.2
"Line.L58"              ,   1,       273.1,       -48.9,         0.0,         0.0,         0.0,         0.0
"Line.L58"              ,   2,      -272.8,        49.4
"Line.L59"              ,   1,         3.0,         1.1,         0.0,         0.0,         0.0,         0.0
"Line.L59"              ,   2,        -3.0,        -1.1
"Line.L60"              ,   1,         5.4,         0.6,         0.0,         0.0,         0.0,         0.0
"Line.L60"              ,   2,        -5.4,        -0.7
"Line.L61"              ,   1,       267.4,       -50.1,         0.0,         0.0,         0.0,         0.0
"Line.L61"              ,   2,      -266.9,        51.2
"Line.L62"              ,   1,         2.4,        -0.5,         0.0,         0.0,         0.0,         0.0
"Line.L62"              ,   2,        -2.4,         0.4
"Line.L63"              ,   1,         0.0,        -0.0,         0.0,         0.0,         0.0,         0.0
"Line.L63"              ,   2,        -0.0,         0.0
"Line.L64"              ,   1,        55.1,        27.1,         0.0,         0.0,         0.0,         0.0
"Line.L64"              ,   2,       -55.1,       -27.1
"Line.L65"              ,   1,        49.1,        24.9,         0.0,         0.0,         0.0,         0.0
"Line.L65"              ,   2,       -49.1,       -24.9
"Line.L66"              ,   1,        43.2,        22.7,         0.0,         0.0,         0.0,         0.0
"Line.L66"              ,   2,       -43.1,       -22.7
"Line.L67"              ,   1,        32.0,        19.2,         0.0,         0.0,         0.0,         0.0
"Line.L67"              ,   2,       -32.0,       -19.2
"Line.L68"              ,   1,        11.2,         3.5,         0.0,         0.0,         0.0,         0.0
"Line.L68"              ,   2,       -11.1,        -3.5
"Line.L69"              ,   1,        16.7,        15.6,         0.0,         0.0,         0.0,         0.0
"Line.L69"              ,   2,       -16.7,       -15.6
"Line.L70"              ,   1,       128.1,      -148.5,         0.0,         0.0,         0.0,         0.0
"Line.L70"              ,   2,      -128.0,       148.7
"Line.L71"              ,   1,        63.8,        50.1,         0.0,         0.0,         0.0,         0.0
"Line.L71"              ,   2,       -63.8,       -50.1
"Line.L72"              ,   1,        13.7,        11.4,         0.0,         0.0,         0.0,         0.0
"Line.L72"              ,   2,       -13.7,       -11.4
"Line.L73"              ,   1,         7.8,         3.0,         0.0,         0.0,         0.0,         0.0
"Line.L73"              ,   2,        -7.8,        -3.0
"Line.L74"              ,   1,         4.8,        -0.1,         0.0,         0.0,         0.0,         0.0
"Line.L74"              ,   2,        -4.8,         0.1
"Line.L75"              ,   1,        17.9,        25.2,         0.0,         0.0,         0.0,         0.0
"Line.L75"              ,   2,       -17.8,       -25.2
"Line.L76"              ,   1,       110.2,      -173.9,         0.0,         0.0,         0.0,         0.0
"Line.L76"              ,   2,      -110.1,       174.0
"Line.L77"              ,   1,        11.9,        16.8,         0.0,         0.0,         0.0,         0.0
"Line.L77"              ,   2,       -11.9,       -16.8
"Line.L78"              ,   1,         5.9,         8.4,         0.0,         0.0,         0.0,         0.0
"Line.L78"              ,   2,        -5.9,        -8.4
"Line.L79"              ,   1,        34.8,      -145.6,         0.0,         0.0,         0.0,         0.0
"Line.L79"              ,   2,       -34.7,       145.8
"Line.L80"              ,   1,        38.8,       -95.1,         0.0,         0.0,         0.0,         0.0
"Line.L80"              ,   2,       -38.8,        95.3
"Line.L81"              ,   1,        28.8,      -154.2,         0.0,         0.0,         0.0,         0.0
"Line.L81"              ,   2,       -28.8,       154.2
"Line.L82"              ,   1,         5.9,         8.4,         0.0,         0.0,         0.0,         0.0
"Line.L82"              ,   2,        -5.9,        -8.4
"Line.L83"              ,   1,        22.8,      -162.6,         0.0,         0.0,         0.0,         0.0
"Line.L83"              ,   2,       -22.7,       162.9
"Line.L84"              ,   1,        16.8,      -171.3,         0.0,         0.0,         0.0,         0.0
"Line.L84"              ,   2,       -16.7,       171.4
"Line.L85"              ,   1,         9.1,      -187.1,         0.0,         0.0,         0.0,         0.0
"Line.L85"              ,   2,        -9.0,       187.2
"Line.L86"              ,   1,         7.6,        15.7,         0.0,         0.0,         0.0,         0.0
"Line.L86"              ,   2,        -7.6,       -15.7
"Line.L87"              ,   1,         3.1,      -195.6,         0.0,         0.0,         0.0,         0.0
"Line.L87"              ,   2,        -3.0,       195.8
"Line.L88"              ,   1,         4.6,        11.5,         0.0,         0.0,         0.0,         0.0
"Line.L88"              ,   2,        -4.6,       -11.5
"Line.L89"              ,   1,        35.8,       -99.5,         0.0,         0.0,         0.0,         0.0
"Line.L89"              ,   2,       -35.7,        99.6
"Line.L90"              ,   1,         6.0,       -41.6,         0.0,         0.0,         0.0,         0.0
"Line.L90"              ,   2,        -5.9,        41.6
"Line.L91"              ,   1,        23.8,       -66.4,         0.0,         0.0,         0.0,         0.0
"Line.L91"              ,   2,       -23.8,        66.4
"Line.L92"              ,   1,         6.0,       -41.6,         0.0,         0.0,         0.0,         0.0
"Line.L92"              ,   2,        -5.9,        41.6
"Line.L93"              ,   1,        17.9,       -24.8,         0.0,         0.0,         0.0,         0.0
"Line.L93"              ,   2,       -17.9,        24.8
"Line.L94"              ,   1,         6.0,       -41.6,         0.0,         0.0,         0.0,         0.0
"Line.L94"              ,   2,        -5.9,        41.6
"Line.L95"              ,   1,        11.9,        16.8,         0.0,         0.0,         0.0,         0.0
"Line.L95"              ,   2,       -11.9,       -16.8
"Line.L96"              ,   1,         5.9,         8.4,         0.0,         0.0,         0.0,         0.0
"Line.L96"              ,   2,        -5.9,        -8.4
"Line.L97"              ,   1,         5.9,         8.4,         0.0,         0.0,         0.0,         0.0
"Line.L97"              ,   2,        -5.9,        -8.4
"Line.L98"              ,   1,         3.0,         4.2,         0.0,         0.0,         0.0,         0.0
"Line.L98"              ,   2,        -3.0,        -4.2
"Line.L99"              ,   1,        16.7,        26.3,         0.0,         0.0,         0.0,         0.0
"Line.L99"              ,   2,       -16.7,       -26.3
"Line.L100"             ,   1,        10.8,        17.9,         0.0,         0.0,         0.0,         0.0
"Line.L100"             ,   2,       -10.8,       -17.9
"Line.L101"             ,   1,         5.9,         6.4,         0.0,         0.0,         0.0,         0.0
"Line.L101"             ,   2,        -5.9,        -6.4
"Line.L102"             ,   1,         0.0,        -0.0,         0.0,         0.0,         0.0,         0.0
"Line.L102"             ,   2,         0.0,         0.0
"Line.L103"             ,   1,        14.9,         8.6,         0.0,         0.0,         0.0,         0.0
"Line.L103"             ,   2,       -14.9,        -8.6
"Line.L104"             ,   1,        32.2,        15.1,         0.0,         0.0,         0.0,         0.0
"Line.L104"             ,   2,       -32.2,       -15.1
"Line.L105"             ,   1,        11.9,         4.4,         0.0,         0.0,         0.0,         0.0
"Line.L105"             ,   2,       -11.9,        -4.4
"Line.L106"             ,   1,         5.9,         2.2,         0.0,         0.0,         0.0,         0.0
"Line.L106"             ,   2,        -5.9,        -2.2
"Line.L107"             ,   1,        11.9,         9.0,         0.0,         0.0,         0.0,         0.0
"Line.L107"             ,   2,       -11.9,        -9.0
"Line.L108"             ,   1,        20.3,         6.1,         0.0,         0.0,         0.0,         0.0
"Line.L108"             ,   2,       -20.3,        -6.2
"Line.L109"             ,   1,         5.9,         2.2,         0.0,         0.0,         0.0,         0.0
"Line.L109"             ,   2,        -5.9,        -2.2
"Line.L110"             ,   1,        20.3,         6.2,         0.0,         0.0,         0.0,         0.0
"Line.L110"             ,   2,       -20.3,        -6.2
"Line.L111"             ,   1,         0.0,        -0.0,         0.0,         0.0,         0.0,         0.0
"Line.L111"             ,   2,        -0.0,        -0.0
"Line.L112"             ,   1,        14.3,         3.9,         0.0,         0.0,         0.0,         0.0
"Line.L112"             ,   2,       -14.3,        -4.0
"Line.L113"             ,   1,         3.0,         1.1,         0.0,         0.0,         0.0,         0.0
"Line.L113"             ,   2,        -3.0,        -1.1
"Line.L114"             ,   1,        11.3,         2.9,         0.0,         0.0,         0.0,         0.0
"Line.L114"             ,   2,       -11.3,        -2.9
"Line.L115"             ,   1,         8.4,         1.8,         0.0,         0.0,         0.0,         0.0
"Line.L115"             ,   2,        -8.4,        -1.8
"Line.L116"             ,   1,         2.4,        -0.5,         0.0,         0.0,         0.0,         0.0
"Line.L116"             ,   2,        -2.4,         0.4
"Line.L117"             ,   1,       111.9,        64.9,         0.0,         0.0,         0.0,         0.0
"Line.L117"             ,   2,      -111.8,       -64.8
"Line.L118"             ,   1,       291.5,       -41.1,         0.0,         0.0,         0.0,         0.0
"Line.L118"             ,   2,      -291.2,        41.8
"Line.L119"             ,   1,         0.0,        -0.0,         0.0,         0.0,         0.0,         0.0
"Line.L119"             ,   2,        -0.0,        -0.0
"Line.L120"             ,   1,       208.8,       -82.4,         0.0,         0.0,         0.0,         0.0
"Line.L120"             ,   2,      -208.8,        82.4
"Line.L121"             ,   1,       208.8,       -82.4,         0.0,         0.0,         0.0,         0.0
"Line.L121"             ,   2,      -208.7,        82.8
