Element, Terminal, P(kW), Q(kvar),  P_Normal, Q_Normal, P_Emergency, Q_Emergency
"Line.L1"               ,   1,       866.4,       163.4,         0.0,         0.0,         0.0,         0.0
"Line.L1"               ,   2,      -866.4,      -163.4
"Line.L2"               ,   1,       866.4,       163.4,         0.0,         0.0,         0.0,         0.0
"Line.L2"               ,   2,      -863.4,      -157.4
"Line.L3"               ,   1,         5.2,         2.6,         0.0,         0.0,         0.0,         0.0
"Line.L3"               ,   2,        -5.2,        -2.6
"Line.L4"               ,   1,        26.2,        13.1,         0.0,         0.0,         0.0,         0.0
"Line.L4"               ,   2,       -26.2,       -13.1
"Line.L5"               ,   1,       828.6,       140.2,         0.0,         0.0,         0.0,         0.0
"Line.L5"               ,   2,      -826.6,      -136.1
"Line.L6"               ,   1,        10.5,         5.2,         0.0,         0.0,         0.0,         0.0
"Line.L6"               ,   2,       -10.5,        -5.2
"Line.L7"               ,   1,        15.7,         7.9,         0.0,         0.0,         0.0,         0.0
"Line.L7"               ,   2,       -15.7,        -7.9
"Line.L8"               ,   1,        10.5,         5.2,         0.0,         0.0,         0.0,         0.0
"Line.L8"               ,   2,       -10.5,        -5.2
"Line.L9"               ,   1,       821.4,       133.5,         0.0,         0.0,         0.0,         0.0
"Line.L9"               ,   2,      -820.0,      -130.7
"Line.L10"              ,   1,         5.2,         2.6,         0.0,         0.0,         0.0,         0.0
"Line.L10"              ,   2,        -5.2,        -2.6
"Line.L11"              ,   1,        26.2,        13.1,         0.0,         0.0,         0.0,         0.0
"Line.L11"              ,   2,       -26.2,       -13.1
"Line.L12"              ,   1,       788.6,       115.0,         0.0,         0.0,         0.0,         0.0
"Line.L12"              ,   2,      -786.7,      -111.3
"Line.L13"              ,   1,        15.7,         7.8,         0.0,         0.0,         0.0,         0.0
"Line.L13"              ,   2,       -15.7,        -7.8
"Line.L14"              ,   1,        15.7,         7.8,         0.0,         0.0,         0.0,         0.0
"Line.L14"              ,   2,       -15.7,        -7.9
"Line.L15"              ,   1,        17.4,         9.3,         0.0,         0.0,         0.0,         0.0
"Line.L15"              ,   2,       -17.4,        -9.3
"Line.L16"              ,   1,       280.6,       167.4,         0.0,         0.0,         0.0,         0.0
"Line.L16"              ,   2,      -279.7,      -165.7
"Line.L17"              ,   1,        10.5,         5.2,         0.0,         0.0,         0.0,         0.0
"Line.L17"              ,   2,       -10.5,        -5.2
"Line.L18"              ,   1,         5.2,         2.6,         0.0,         0.0,         0.0,         0.0
"Line.L18"              ,   2,        -5.2,        -2.6
"Line.L19"              ,   1,         1.6,         1.4,         0.0,         0.0,         0.0,         0.0
"Line.L19"              ,   2,        -1.6,        -1.4
"Line.L20"              ,   1,         5.2,         2.6,         0.0,         0.0,         0.0,         0.0
"Line.L20"              ,   2,        -5.2,        -2.6
"Line.L21"              ,   1,        21.0,        10.5,         0.0,         0.0,         0.0,         0.0
"Line.L21"              ,   2,       -21.0,       -10.5
"Line.L22"              ,   1,        64.6,        32.9,         0.0,         0.0,         0.0,         0.0
"Line.L22"              ,   2,       -64.6,       -32.9
"Line.L23"              ,   1,        10.5,         5.2,         0.0,         0.0,         0.0,         0.0
"Line.L23"              ,   2,       -10.5,        -5.2
"Line.L24"              ,   1,        10.5,         5.2,         0.0,         0.0,         0.0,         0.0
"Line.L24"              ,   2,       -10.5,        -5.2
"Line.L25"              ,   1,        54.1,        27.6,         0.0,         0.0,         0.0,         0.0
"Line.L25"              ,   2,       -54.1,       -27.6
"Line.L26"              ,   1,        10.5,         5.2,         0.0,         0.0,         0.0,         0.0
"Line.L26"              ,   2,       -10.5,        -5.2
"Line.L27"              ,   1,        43.6,        22.4,         0.0,         0.0,         0.0,         0.0
"Line.L27"              ,   2,       -43.6,       -22.4
"Line.L28"              ,   1,        12.1,         6.6,         0.0,         0.0,         0.0,         0.0
"Line.L28"              ,   2,       -12.1,        -6.7
"Line.L29"              ,   1,        12.1,         6.7,         0.0,         0.0,         0.0,         0.0
"Line.L29"              ,   2,       -12.1,        -6.7
"Line.L30"              ,   1,        31.5,        15.7,         0.0,         0.0,         0.0,         0.0
"Line.L30"              ,   2,       -31.5,       -15.7
"Line.L31"              ,   1,         1.6,         1.4,         0.0,         0.0,         0.0,         0.0
"Line.L31"              ,   2,        -1.6,        -1.4
"Line.L32"              ,   1,        10.5,         5.2,         0.0,         0.0,         0.0,         0.0
"Line.L32"              ,   2,       -10.5,        -5.2
"Line.L33"              ,   1,         1.6,         1.4,         0.0,         0.0,         0.0,         0.0
"Line.L33"              ,   2,        -1.6,        -1.4
"Line.L34"              ,   1,        21.0,        10.5,         0.0,         0.0,         0.0,         0.0
"Line.L34"              ,   2,       -21.0,       -10.5
"Line.L35"              ,   1,        10.5,         5.2,         0.0,         0.0,         0.0,         0.0
"Line.L35"              ,   2,       -10.5,        -5.2
"Line.L36"              ,   1,         0.0,        -0.0,         0.0,         0.0,         0.0,         0.0
"Line.L36"              ,   2,        -0.0,         0.0
"Line.L37"              ,   1,         5.2,         2.6,         0.0,         0.0,         0.0,         0.0
"Line.L37"              ,   2,        -5.2,        -2.6
"Line.L38"              ,   1,         6.9,         4.0,         0.0,         0.0,         0.0,         0.0
"Line.L38"              ,   2,        -6.9,        -4.0
"Line.L39"              ,   1,        21.0,        10.5,         0.0,         0.0,         0.0,         0.0
"Line.L39"              ,   2,       -21.0,       -10.5
"Line.L40"              ,   1,       162.5,       106.2,         0.0,         0.0,         0.0,         0.0
"Line.L40"              ,   2,      -162.4,      -106.0
"Line.L41"              ,   1,        10.5,         5.2,         0.0,         0.0,         0.0,         0.0
"Line.L41"              ,   2,       -10.5,        -5.2
"Line.L42"              ,   1,        10.5,         5.2,         0.0,         0.0,         0.0,         0.0
"Line.L42"              ,   2,       -10.5,        -5.2
"Line.L43"              ,   1,         5.2,         2.6,         0.0,         0.0,         0.0,         0.0
"Line.L43"              ,   2,        -5.2,        -2.6
"Line.L44"              ,   1,         5.2,         2.6,         0.0,         0.0,         0.0,         0.0
"Line.L44"              ,   2,        -5.2,        -2.6
"Line.L45"              ,   1,       157.1,       103.4,         0.0,         0.0,         0.0,         0.0
"Line.L45"              ,   2,      -157.0,      -103.2
"Line.L46"              ,   1,        10.5,         5.2,         0.0,         0.0,         0.0,         0.0
"Line.L46"              ,   2,       -10.5,        -5.2
"Line.L47"              ,   1,       141.3,        95.4,         0.0,         0.0,         0.0,         0.0
"Line.L47"              ,   2,      -141.2,       -95.3
"Line.L48"              ,   1,         6.1,         3.3,         0.0,         0.0,         0.0,         0.0
"Line.L48"              ,   2,        -6.1,        -3.3
"Line.L49"              ,   1,       135.2,        91.9,         0.0,         0.0,         0.0,         0.0
"Line.L49"              ,   2,      -135.1,       -91.8
"Line.L50"              ,   1,         0.8,         0.7,         0.0,         0.0,         0.0,         0.0
"Line.L50"              ,   2,        -0.8,        -0.7
"Line.L51"              ,   1,        55.1,        39.4,         0.0,         0.0,         0.0,         0.0
"Line.L51"              ,   2,       -55.1,       -39.3
"Line.L52"              ,   1,        52.5,        32.8,         0.0,         0.0,         0.0,         0.0
"Line.L52"              ,   2,       -52.5,       -32.8
"Line.L53"              ,   1,        15.7,         7.8,         0.0,         0.0,         0.0,         0.0
"Line.L53"              ,   2,       -15.7,        -7.9
"Line.L54"              ,   1,         5.2,         2.6,         0.0,         0.0,         0.0,         0.0
"Line.L54"              ,   2,        -5.2,        -2.6
"Line.L55"              ,   1,       477.3,       -72.6,         0.0,         0.0,         0.0,         0.0
"Line.L55"              ,   2,      -476.9,        73.5
"Line.L56"              ,   1,       466.4,       -78.8,         0.0,         0.0,         0.0,         0.0
"Line.L56"              ,   2,      -466.1,        79.3
"Line.L57"              ,   1,        10.5,         5.2,         0.0,         0.0,         0.0,         0.0
"Line.L57"              ,   2,       -10.5,        -5.2
"Line.L58"              ,   1,       455.6,       -84.6,         0.0,         0.0,         0.0,         0.0
"Line.L58"              ,   2,      -454.9,        86.1
"Line.L59"              ,   1,         5.2,         2.6,         0.0,         0.0,         0.0,         0.0
"Line.L59"              ,   2,        -5.2,        -2.6
"Line.L60"              ,   1,         6.1,         3.3,         0.0,         0.0,         0.0,         0.0
"Line.L60"              ,   2,        -6.1,        -3.3
"Line.L61"              ,   1,       448.8,       -89.4,         0.0,         0.0,         0.0,         0.0
"Line.L61"              ,   2,      -447.3,        92.5
"Line.L62"              ,   1,         0.8,         0.7,         0.0,         0.0,         0.0,         0.0
"Line.L62"              ,   2,        -0.8,        -0.7
"Line.L63"              ,   1,         0.0,        -0.0,         0.0,         0.0,         0.0,         0.0
"Line.L63"              ,   2,        -0.0,         0.0
"Line.L64"              ,   1,        97.4,        55.2,         0.0,         0.0,         0.0,         0.0
"Line.L64"              ,   2,       -97.3,       -55.2
"Line.L65"              ,   1,        86.8,        49.9,         0.0,         0.0,         0.0,         0.0
"Line.L65"              ,   2,       -86.7,       -49.9
"Line.L66"              ,   1,        76.2,        44.6,         0.0,         0.0,         0.0,         0.0
"Line.L66"              ,   2,       -76.1,       -44.6
"Line.L67"              ,   1,        56.5,        35.4,         0.0,         0.0,         0.0,         0.0
"Line.L67"              ,   2,       -56.4,       -35.4
"Line.L68"              ,   1,        19.7,         9.2,         0.0,         0.0,         0.0,         0.0
"Line.L68"              ,   2,       -19.7,        -9.2
"Line.L69"              ,   1,        22.6,        11.9,         0.0,         0.0,         0.0,         0.0
"Line.L69"              ,   2,       -22.6,       -11.9
"Line.L70"              ,   1,       219.3,      -215.3,         0.0,         0.0,         0.0,         0.0
"Line.L70"              ,   2,      -219.1,       215.8
"Line.L71"              ,   1,       102.2,        52.1,         0.0,         0.0,         0.0,         0.0
"Line.L71"              ,   2,      -102.2,       -52.0
"Line.L72"              ,   1,        17.4,         9.3,         0.0,         0.0,         0.0,         0.0
"Line.L72"              ,   2,       -17.4,        -9.3
"Line.L73"              ,   1,         6.9,         4.0,         0.0,         0.0,         0.0,         0.0
"Line.L73"              ,   2,        -6.9,        -4.1
"Line.L74"              ,   1,         1.6,         1.4,         0.0,         0.0,         0.0,         0.0
"Line.L74"              ,   2,        -1.6,        -1.4
"Line.L75"              ,   1,        31.5,        15.7,         0.0,         0.0,         0.0,         0.0
"Line.L75"              ,   2,       -31.5,       -15.7
"Line.L76"              ,   1,       187.6,      -231.5,         0.0,         0.0,         0.0,         0.0
"Line.L76"              ,   2,      -187.4,       231.9
"Line.L77"              ,   1,        21.0,        10.5,         0.0,         0.0,         0.0,         0.0
"Line.L77"              ,   2,       -21.0,       -10.5
"Line.L78"              ,   1,        10.5,         5.2,         0.0,         0.0,         0.0,         0.0
"Line.L78"              ,   2,       -10.5,        -5.2
"Line.L79"              ,   1,        54.6,      -163.7,         0.0,         0.0,         0.0,         0.0
"Line.L79"              ,   2,       -54.5,       163.9
"Line.L80"              ,   1,        68.5,      -115.4,         0.0,         0.0,         0.0,         0.0
"Line.L80"              ,   2,       -68.4,       115.7
"Line.L81"              ,   1,        44.0,      -169.2,         0.0,         0.0,         0.0,         0.0
"Line.L81"              ,   2,       -44.0,       169.2
"Line.L82"              ,   1,        10.5,         5.2,         0.0,         0.0,         0.0,         0.0
"Line.L82"              ,   2,       -10.5,        -5.2
"Line.L83"              ,   1,        33.5,      -174.4,         0.0,         0.0,         0.0,         0.0
"Line.L83"              ,   2,       -33.3,       174.7
"Line.L84"              ,   1,        22.9,      -180.0,         0.0,         0.0,         0.0,         0.0
"Line.L84"              ,   2,       -22.8,       180.1
"Line.L85"              ,   1,        15.9,      -191.8,         0.0,         0.0,         0.0,         0.0
"Line.L85"              ,   2,       -15.8,       191.9
"Line.L86"              ,   1,         6.9,        11.7,         0.0,         0.0,         0.0,         0.0
"Line.L86"              ,   2,        -6.9,       -11.7
"Line.L87"              ,   1,         5.3,      -197.2,         0.0,         0.0,         0.0,         0.0
"Line.L87"              ,   2,        -5.2,       197.4
"Line.L88"              ,   1,         1.6,         9.0,         0.0,         0.0,         0.0,         0.0
"Line.L88"              ,   2,        -1.6,        -9.1
"Line.L89"              ,   1,        63.1,      -118.3,         0.0,         0.0,         0.0,         0.0
"Line.L89"              ,   2,       -63.0,       118.5
"Line.L90"              ,   1,        10.5,       -44.7,         0.0,         0.0,         0.0,         0.0
"Line.L90"              ,   2,       -10.5,        44.8
"Line.L91"              ,   1,        42.0,       -79.0,         0.0,         0.0,         0.0,         0.0
"Line.L91"              ,   2,       -42.0,        79.0
"Line.L92"              ,   1,        10.5,       -44.7,         0.0,         0.0,         0.0,         0.0
"Line.L92"              ,   2,       -10.5,        44.8
"Line.L93"              ,   1,        31.5,       -34.3,         0.0,         0.0,         0.0,         0.0
"Line.L93"              ,   2,       -31.5,        34.3
"Line.L94"              ,   1,        10.5,       -44.7,         0.0,         0.0,         0.0,         0.0
"Line.L94"              ,   2,       -10.5,        44.8
"Line.L95"              ,   1,        21.0,        10.5,         0.0,         0.0,         0.0,         0.0
"Line.L95"              ,   2,       -21.0,       -10.5
"Line.L96"              ,   1,        10.5,         5.2,         0.0,         0.0,         0.0,         0.0
"Line.L96"              ,   2,       -10.5,        -5.2
"Line.L97"              ,   1,        10.5,         5.2,         0.0,         0.0,         0.0,         0.0
"Line.L97"              ,   2,       -10.5,        -5.2
"Line.L98"              ,   1,         5.2,         2.6,         0.0,         0.0,         0.0,         0.0
"Line.L98"              ,   2,        -5.2,        -2.6
"Line.L99"              ,   1,        22.6,        11.9,         0.0,         0.0,         0.0,         0.0
"Line.L99"              ,   2,       -22.6,       -11.9
"Line.L100"             ,   1,        12.1,         6.7,         0.0,         0.0,         0.0,         0.0
"Line.L100"             ,   2,       -12.1,        -6.7
"Line.L101"             ,   1,        10.5,         5.2,         0.0,         0.0,         0.0,         0.0
"Line.L101"             ,   2,       -10.5,        -5.2
"Line.L102"             ,   1,         0.0,        -0.0,         0.0,         0.0,         0.0,         0.0
"Line.L102"             ,   2,        -0.0,        -0.0
"Line.L103"             ,   1,        26.2,        13.1,         0.0,         0.0,         0.0,         0.0
"Line.L103"             ,   2,       -26.2,       -13.1
"Line.L104"             ,   1,        53.3,        26.9,         0.0,         0.0,         0.0,         0.0
"Line.L104"             ,   2,       -53.3,       -26.9
"Line.L105"             ,   1,        21.0,        10.5,         0.0,         0.0,         0.0,         0.0
"Line.L105"             ,   2,       -21.0,       -10.5
"Line.L106"             ,   1,        10.5,         5.2,         0.0,         0.0,         0.0,         0.0
"Line.L106"             ,   2,       -10.5,        -5.2
"Line.L107"             ,   1,        21.0,        10.5,         0.0,         0.0,         0.0,         0.0
"Line.L107"             ,   2,       -21.0,       -10.5
"Line.L108"             ,   1,        32.3,        16.4,         0.0,         0.0,         0.0,         0.0
"Line.L108"             ,   2,       -32.3,       -16.4
"Line.L109"             ,   1,        10.5,         5.2,         0.0,         0.0,         0.0,         0.0
"Line.L109"             ,   2,       -10.5,        -5.2
"Line.L110"             ,   1,        32.3,        16.5,         0.0,         0.0,         0.0,         0.0
"Line.L110"             ,   2,       -32.3,       -16.4
"Line.L111"             ,   1,         0.0,        -0.0,         0.0,         0.0,         0.0,         0.0
"Line.L111"             ,   2,         0.0,         0.0
"Line.L112"             ,   1,        21.8,        11.2,         0.0,         0.0,         0.0,         0.0
"Line.L112"             ,   2,       -21.8,       -11.2
"Line.L113"             ,   1,         5.2,         2.6,         0.0,         0.0,         0.0,         0.0
"Line.L113"             ,   2,        -5.2,        -2.6
"Line.L114"             ,   1,        16.6,         8.6,         0.0,         0.0,         0.0,         0.0
"Line.L114"             ,   2,       -16.6,        -8.6
"Line.L115"             ,   1,        11.3,         6.0,         0.0,         0.0,         0.0,         0.0
"Line.L115"             ,   2,       -11.3,        -6.0
"Line.L116"             ,   1,         0.8,         0.7,         0.0,         0.0,         0.0,         0.0
"Line.L116"             ,   2,        -0.8,        -0.7
"Line.L117"             ,   1,       194.1,       122.3,         0.0,         0.0,         0.0,         0.0
"Line.L117"             ,   2,      -193.9,      -121.9
"Line.L118"             ,   1,       488.7,       -65.4,         0.0,         0.0,         0.0,         0.0
"Line.L118"             ,   2,      -487.8,        67.4
"Line.L119"             ,   1,         0.0,        -0.0,         0.0,         0.0,         0.0,         0.0
"Line.L119"             ,   2,        -0.0,         0.0
"Line.L120"             ,   1,       344.7,      -150.3,         0.0,         0.0,         0.0,         0.0
"Line.L120"             ,   2,      -344.7,       150.3
"Line.L121"             ,   1,       344.7,      -150.3,         0.0,         0.0,         0.0,         0.0
"Line.L121"             ,   2,      -344.2,       151.3
