Element, Terminal, P(kW), Q(kvar),  P_Normal, Q_Normal, P_Emergency, Q_Emergency
"Line.L1"               ,   1,       779.6,       137.1,         0.0,         0.0,         0.0,         0.0
"Line.L1"               ,   2,      -779.6,      -137.1
"Line.L2"               ,   1,       779.6,       137.1,         0.0,         0.0,         0.0,         0.0
"Line.L2"               ,   2,      -777.3,      -132.3
"Line.L3"               ,   1,         5.2,         2.6,         0.0,         0.0,         0.0,         0.0
"Line.L3"               ,   2,        -5.2,        -2.6
"Line.L4"               ,   1,        23.9,        12.1,         0.0,         0.0,         0.0,         0.0
"Line.L4"               ,   2,       -23.9,       -12.1
"Line.L5"               ,   1,       744.5,       117.0,         0.0,         0.0,         0.0,         0.0
"Line.L5"               ,   2,      -742.9,      -113.6
"Line.L6"               ,   1,        10.5,         5.2,         0.0,         0.0,         0.0,         0.0
"Line.L6"               ,   2,       -10.5,        -5.2
"Line.L7"               ,   1,        13.4,         6.9,         0.0,         0.0,         0.0,         0.0
"Line.L7"               ,   2,       -13.4,        -6.9
"Line.L8"               ,   1,        10.5,         5.2,         0.0,         0.0,         0.0,         0.0
"Line.L8"               ,   2,       -10.5,        -5.2
"Line.L9"               ,   1,       737.7,       111.0,         0.0,         0.0,         0.0,         0.0
"Line.L9"               ,   2,      -736.6,      -108.8
"Line.L10"              ,   1,         5.2,         2.6,         0.0,         0.0,         0.0,         0.0
"Line.L10"              ,   2,        -5.2,        -2.6
"Line.L11"              ,   1,        21.6,        11.2,         0.0,         0.0,         0.0,         0.0
"Line.L11"              ,   2,       -21.6,       -11.2
"Line.L12"              ,   1,       709.8,        95.0,         0.0,         0.0,         0.0,         0.0
"Line.L12"              ,   2,      -708.3,       -92.0
"Line.L13"              ,   1,        15.7,         7.8,         0.0,         0.0,         0.0,         0.0
"Line.L13"              ,   2,       -15.7,        -7.8
"Line.L14"              ,   1,        15.7,         7.8,         0.0,         0.0,         0.0,         0.0
"Line.L14"              ,   2,       -15.7,        -7.9
"Line.L15"              ,   1,        17.4,         8.4,         0.0,         0.0,         0.0,         0.0
"Line.L15"              ,   2,       -17.4,        -8.4
"Line.L16"              ,   1,       252.3,       148.9,         0.0,         0.0,         0.0,         0.0
"Line.L16"              ,   2,      -251.6,      -147.5
"Line.L17"              ,   1,        10.5,         5.2,         0.0,         0.0,         0.0,         0.0
"Line.L17"              ,   2,       -10.5,        -5.2
"Line.L18"              ,   1,         5.2,         2.6,         0.0,         0.0,         0.0,         0.0
"Line.L18"              ,   2,        -5.2,        -2.6
"Line.L19"              ,   1,         1.6,         0.6,         0.0,         0.0,         0.0,         0.0
"Line.L19"              ,   2,        -1.6,        -0.6
"Line.L20"              ,   1,         5.2,         2.6,         0.0,         0.0,         0.0,         0.0
"Line.L20"              ,   2,        -5.2,        -2.6
"Line.L21"              ,   1,        16.3,         8.6,         0.0,         0.0,         0.0,         0.0
"Line.L21"              ,   2,       -16.3,        -8.6
"Line.L22"              ,   1,        62.3,        31.0,         0.0,         0.0,         0.0,         0.0
"Line.L22"              ,   2,       -62.3,       -31.0
"Line.L23"              ,   1,         5.8,         3.3,         0.0,         0.0,         0.0,         0.0
"Line.L23"              ,   2,        -5.8,        -3.3
"Line.L24"              ,   1,        10.5,         5.2,         0.0,         0.0,         0.0,         0.0
"Line.L24"              ,   2,       -10.5,        -5.2
"Line.L25"              ,   1,        51.8,        25.8,         0.0,         0.0,         0.0,         0.0
"Line.L25"              ,   2,       -51.8,       -25.8
"Line.L26"              ,   1,        10.5,         5.2,         0.0,         0.0,         0.0,         0.0
"Line.L26"              ,   2,       -10.5,        -5.2
"Line.L27"              ,   1,        41.3,        20.5,         0.0,         0.0,         0.0,         0.0
"Line.L27"              ,   2,       -41.3,       -20.5
"Line.L28"              ,   1,        14.5,         6.7,         0.0,         0.0,         0.0,         0.0
"Line.L28"              ,   2,       -14.5,        -6.7
"Line.L29"              ,   1,        14.5,         6.7,         0.0,         0.0,         0.0,         0.0
"Line.L29"              ,   2,       -14.5,        -6.7
"Line.L30"              ,   1,        26.8,        13.8,         0.0,         0.0,         0.0,         0.0
"Line.L30"              ,   2,       -26.8,       -13.8
"Line.L31"              ,   1,         6.3,         2.4,         0.0,         0.0,         0.0,         0.0
"Line.L31"              ,   2,        -6.3,        -2.5
"Line.L32"              ,   1,         8.2,         4.3,         0.0,         0.0,         0.0,         0.0
"Line.L32"              ,   2,        -8.2,        -4.3
"Line.L33"              ,   1,         6.3,         2.5,         0.0,         0.0,         0.0,         0.0
"Line.L33"              ,   2,        -6.3,        -2.5
"Line.L34"              ,   1,        21.0,        10.5,         0.0,         0.0,         0.0,         0.0
"Line.L34"              ,   2,       -21.0,       -10.5
"Line.L35"              ,   1,        10.5,         5.2,         0.0,         0.0,         0.0,         0.0
"Line.L35"              ,   2,       -10.5,        -5.2
"Line.L36"              ,   1,         0.0,        -0.0,         0.0,         0.0,         0.0,         0.0
"Line.L36"              ,   2,        -0.0,         0.0
"Line.L37"              ,   1,         2.9,         1.7,         0.0,         0.0,         0.0,         0.0
"Line.L37"              ,   2,        -2.9,        -1.7
"Line.L38"              ,   1,         6.9,         3.2,         0.0,         0.0,         0.0,         0.0
"Line.L38"              ,   2,        -6.9,        -3.2
"Line.L39"              ,   1,        18.7,         9.5,         0.0,         0.0,         0.0,         0.0
"Line.L39"              ,   2,       -18.7,        -9.5
"Line.L40"              ,   1,       148.4,        94.7,         0.0,         0.0,         0.0,         0.0
"Line.L40"              ,   2,      -148.3,       -94.5
"Line.L41"              ,   1,        10.5,         5.2,         0.0,         0.0,         0.0,         0.0
"Line.L41"              ,   2,       -10.5,        -5.2
"Line.L42"              ,   1,         8.2,         4.3,         0.0,         0.0,         0.0,         0.0
"Line.L42"              ,   2,        -8.2,        -4.3
"Line.L43"              ,   1,         2.9,         1.7,         0.0,         0.0,         0.0,         0.0
"Line.L43"              ,   2,        -2.9,        -1.7
"Line.L44"              ,   1,         5.2,         2.6,         0.0,         0.0,         0.0,         0.0
"Line.L44"              ,   2,        -5.2,        -2.6
"Line.L45"              ,   1,       143.1,        91.9,         0.0,         0.0,         0.0,         0.0
"Line.L45"              ,   2,      -143.0,       -91.8
"Line.L46"              ,   1,        10.5,         5.2,         0.0,         0.0,         0.0,         0.0
"Line.L46"              ,   2,       -10.5,        -5.2
"Line.L47"              ,   1,       127.3,        83.9,         0.0,         0.0,         0.0,         0.0
"Line.L47"              ,   2,      -127.2,       -83.8
"Line.L48"              ,   1,         6.1,         2.9,         0.0,         0.0,         0.0,         0.0
"Line.L48"              ,   2,        -6.1,        -2.9
"Line.L49"              ,   1,       121.2,        80.9,         0.0,         0.0,         0.0,         0.0
"Line.L49"              ,   2,      -121.1,       -80.8
"Line.L50"              ,   1,         3.1,         1.2,         0.0,         0.0,         0.0,         0.0
"Line.L50"              ,   2,        -3.1,        -1.2
"Line.L51"              ,   1,        43.4,        29.3,         0.0,         0.0,         0.0,         0.0
"Line.L51"              ,   2,       -43.4,       -29.3
"Line.L52"              ,   1,        50.1,        31.8,         0.0,         0.0,         0.0,         0.0
"Line.L52"              ,   2,       -50.1,       -31.8
"Line.L53"              ,   1,        13.4,         6.9,         0.0,         0.0,         0.0,         0.0
"Line.L53"              ,   2,       -13.4,        -6.9
"Line.L54"              ,   1,         2.9,         1.7,         0.0,         0.0,         0.0,         0.0
"Line.L54"              ,   2,        -2.9,        -1.7
"Line.L55"              ,   1,       427.4,       -72.1,         0.0,         0.0,         0.0,         0.0
"Line.L55"              ,   2,      -427.0,        72.8
"Line.L56"              ,   1,       416.5,       -78.0,         0.0,         0.0,         0.0,         0.0
"Line.L56"              ,   2,      -416.3,        78.5
"Line.L57"              ,   1,         8.2,         4.3,         0.0,         0.0,         0.0,         0.0
"Line.L57"              ,   2,        -8.2,        -4.3
"Line.L58"              ,   1,       408.1,       -82.8,         0.0,         0.0,         0.0,         0.0
"Line.L58"              ,   2,      -407.5,        84.0
"Line.L59"              ,   1,         2.9,         1.7,         0.0,         0.0,         0.0,         0.0
"Line.L59"              ,   2,        -2.9,        -1.7
"Line.L60"              ,   1,         8.4,         3.8,         0.0,         0.0,         0.0,         0.0
"Line.L60"              ,   2,        -8.4,        -3.8
"Line.L61"              ,   1,       399.1,       -87.8,         0.0,         0.0,         0.0,         0.0
"Line.L61"              ,   2,      -397.9,        90.3
"Line.L62"              ,   1,         3.1,         1.2,         0.0,         0.0,         0.0,         0.0
"Line.L62"              ,   2,        -3.1,        -1.2
"Line.L63"              ,   1,         0.0,        -0.0,         0.0,         0.0,         0.0,         0.0
"Line.L63"              ,   2,        -0.0,         0.0
"Line.L64"              ,   1,        80.9,        48.5,         0.0,         0.0,         0.0,         0.0
"Line.L64"              ,   2,       -80.8,       -48.5
"Line.L65"              ,   1,        70.4,        43.2,         0.0,         0.0,         0.0,         0.0
"Line.L65"              ,   2,       -70.3,       -43.2
"Line.L66"              ,   1,        59.8,        38.0,         0.0,         0.0,         0.0,         0.0
"Line.L66"              ,   2,       -59.8,       -37.9
"Line.L67"              ,   1,        40.1,        28.7,         0.0,         0.0,         0.0,         0.0
"Line.L67"              ,   2,       -40.1,       -28.7
"Line.L68"              ,   1,        19.7,         9.2,         0.0,         0.0,         0.0,         0.0
"Line.L68"              ,   2,       -19.7,        -9.2
"Line.L69"              ,   1,        22.6,        12.9,         0.0,         0.0,         0.0,         0.0
"Line.L69"              ,   2,       -22.6,       -12.9
"Line.L70"              ,   1,       198.2,      -206.0,         0.0,         0.0,         0.0,         0.0
"Line.L70"              ,   2,      -198.0,       206.5
"Line.L71"              ,   1,        92.9,        51.9,         0.0,         0.0,         0.0,         0.0
"Line.L71"              ,   2,       -92.8,       -51.9
"Line.L72"              ,   1,        17.4,        10.3,         0.0,         0.0,         0.0,         0.0
"Line.L72"              ,   2,       -17.4,       -10.3
"Line.L73"              ,   1,        11.5,         5.1,         0.0,         0.0,         0.0,         0.0
"Line.L73"              ,   2,       -11.5,        -5.1
"Line.L74"              ,   1,         6.3,         2.5,         0.0,         0.0,         0.0,         0.0
"Line.L74"              ,   2,        -6.3,        -2.5
"Line.L75"              ,   1,        26.8,        17.6,         0.0,         0.0,         0.0,         0.0
"Line.L75"              ,   2,       -26.8,       -17.6
"Line.L76"              ,   1,       171.2,      -224.1,         0.0,         0.0,         0.0,         0.0
"Line.L76"              ,   2,      -171.0,       224.4
"Line.L77"              ,   1,        21.0,        10.5,         0.0,         0.0,         0.0,         0.0
"Line.L77"              ,   2,       -21.0,       -10.5
"Line.L78"              ,   1,        10.5,         5.2,         0.0,         0.0,         0.0,         0.0
"Line.L78"              ,   2,       -10.5,        -5.2
"Line.L79"              ,   1,        45.3,      -159.0,         0.0,         0.0,         0.0,         0.0
"Line.L79"              ,   2,       -45.2,       159.2
"Line.L80"              ,   1,        61.5,      -112.6,         0.0,         0.0,         0.0,         0.0
"Line.L80"              ,   2,       -61.3,       112.8
"Line.L81"              ,   1,        39.3,      -166.4,         0.0,         0.0,         0.0,         0.0
"Line.L81"              ,   2,       -39.3,       166.4
"Line.L82"              ,   1,        10.5,         5.2,         0.0,         0.0,         0.0,         0.0
"Line.L82"              ,   2,       -10.5,        -5.2
"Line.L83"              ,   1,        28.8,      -171.7,         0.0,         0.0,         0.0,         0.0
"Line.L83"              ,   2,       -28.7,       172.0
"Line.L84"              ,   1,        18.2,      -177.2,         0.0,         0.0,         0.0,         0.0
"Line.L84"              ,   2,       -18.1,       177.3
"Line.L85"              ,   1,        11.3,      -189.9,         0.0,         0.0,         0.0,         0.0
"Line.L85"              ,   2,       -11.2,       190.0
"Line.L86"              ,   1,         6.9,        12.6,         0.0,         0.0,         0.0,         0.0
"Line.L86"              ,   2,        -6.9,       -12.6
"Line.L87"              ,   1,         5.3,      -197.2,         0.0,         0.0,         0.0,         0.0
"Line.L87"              ,   2,        -5.2,       197.4
"Line.L88"              ,   1,         1.6,         9.9,         0.0,         0.0,         0.0,         0.0
"Line.L88"              ,   2,        -1.6,        -9.9
"Line.L89"              ,   1,        56.1,      -115.5,         0.0,         0.0,         0.0,         0.0
"Line.L89"              ,   2,       -56.0,       115.6
"Line.L90"              ,   1,        10.5,       -44.7,         0.0,         0.0,         0.0,         0.0
"Line.L90"              ,   2,       -10.5,        44.7
"Line.L91"              ,   1,        35.0,       -76.1,         0.0,         0.0,         0.0,         0.0
"Line.L91"              ,   2,       -35.0,        76.1
"Line.L92"              ,   1,         5.8,       -42.8,         0.0,         0.0,         0.0,         0.0
"Line.L92"              ,   2,        -5.8,        42.8
"Line.L93"              ,   1,        29.2,       -33.3,         0.0,         0.0,         0.0,         0.0
"Line.L93"              ,   2,       -29.2,        33.3
"Line.L94"              ,   1,        10.5,       -44.7,         0.0,         0.0,         0.0,         0.0
"Line.L94"              ,   2,       -10.5,        44.7
"Line.L95"              ,   1,        18.7,        11.4,         0.0,         0.0,         0.0,         0.0
"Line.L95"              ,   2,       -18.7,       -11.4
"Line.L96"              ,   1,        10.5,         5.2,         0.0,         0.0,         0.0,         0.0
"Line.L96"              ,   2,       -10.5,        -5.2
"Line.L97"              ,   1,         8.2,         6.2,         0.0,         0.0,         0.0,         0.0
"Line.L97"              ,   2,        -8.2,        -6.2
"Line.L98"              ,   1,         5.2,         2.6,         0.0,         0.0,         0.0,         0.0
"Line.L98"              ,   2,        -5.2,        -2.6
"Line.L99"              ,   1,        22.6,        16.1,         0.0,         0.0,         0.0,         0.0
"Line.L99"              ,   2,       -22.6,       -16.1
"Line.L100"             ,   1,        12.1,        10.8,         0.0,         0.0,         0.0,         0.0
"Line.L100"             ,   2,       -12.1,       -10.8
"Line.L101"             ,   1,        10.5,         5.2,         0.0,         0.0,         0.0,         0.0
"Line.L101"             ,   2,       -10.5,        -5.2
"Line.L102"             ,   1,         0.0,        -0.0,         0.0,         0.0,         0.0,         0.0
"Line.L102"             ,   2,         0.0,        -0.0
"Line.L103"             ,   1,        21.6,        11.2,         0.0,         0.0,         0.0,         0.0
"Line.L103"             ,   2,       -21.6,       -11.2
"Line.L104"             ,   1,        48.6,        24.6,         0.0,         0.0,         0.0,         0.0
"Line.L104"             ,   2,       -48.6,       -24.6
"Line.L105"             ,   1,        16.3,         8.6,         0.0,         0.0,         0.0,         0.0
"Line.L105"             ,   2,       -16.3,        -8.6
"Line.L106"             ,   1,         5.8,         3.3,         0.0,         0.0,         0.0,         0.0
"Line.L106"             ,   2,        -5.8,        -3.3
"Line.L107"             ,   1,        21.0,        10.5,         0.0,         0.0,         0.0,         0.0
"Line.L107"             ,   2,       -21.0,       -10.5
"Line.L108"             ,   1,        27.7,        14.1,         0.0,         0.0,         0.0,         0.0
"Line.L108"             ,   2,       -27.6,       -14.1
"Line.L109"             ,   1,        10.5,         5.2,         0.0,         0.0,         0.0,         0.0
"Line.L109"             ,   2,       -10.5,        -5.2
"Line.L110"             ,   1,        27.6,        14.1,         0.0,         0.0,         0.0,         0.0
"Line.L110"             ,   2,       -27.6,       -14.1
"Line.L111"             ,   1,         0.0,        -0.0,         0.0,         0.0,         0.0,         0.0
"Line.L111"             ,   2,         0.0,        -0.0
"Line.L112"             ,   1,        21.8,        10.7,         0.0,         0.0,         0.0,         0.0
"Line.L112"             ,   2,       -21.8,       -10.7
"Line.L113"             ,   1,         5.2,         2.6,         0.0,         0.0,         0.0,         0.0
"Line.L113"             ,   2,        -5.2,        -2.6
"Line.L114"             ,   1,        16.6,         8.1,         0.0,         0.0,         0.0,         0.0
"Line.L114"             ,   2,       -16.6,        -8.1
"Line.L115"             ,   1,        11.3,         5.5,         0.0,         0.0,         0.0,         0.0
"Line.L115"             ,   2,       -11.3,        -5.5
"Line.L116"             ,   1,         0.8,         0.3,         0.0,         0.0,         0.0,         0.0
"Line.L116"             ,   2,        -0.8,        -0.3
"Line.L117"             ,   1,       173.0,       107.8,         0.0,         0.0,         0.0,         0.0
"Line.L117"             ,   2,      -172.9,      -107.5
"Line.L118"             ,   1,       438.6,       -65.3,         0.0,         0.0,         0.0,         0.0
"Line.L118"             ,   2,      -437.8,        66.8
"Line.L119"             ,   1,         0.0,        -0.0,         0.0,         0.0,         0.0,         0.0
"Line.L119"             ,   2,         0.0,         0.0
"Line.L120"             ,   1,       314.1,      -140.4,         0.0,         0.0,         0.0,         0.0
"Line.L120"             ,   2,      -314.1,       140.4
"Line.L121"             ,   1,       314.1,      -140.4,         0.0,         0.0,         0.0,         0.0
"Line.L121"             ,   2,      -313.7,       141.2
