Element, Terminal, P(kW), Q(kvar),  P_Normal, Q_Normal, P_Emergency, Q_Emergency
"Line.L1"               ,   1,       868.5,       145.0,         0.0,         0.0,         0.0,         0.0
"Line.L1"               ,   2,      -868.5,      -145.1
"Line.L2"               ,   1,       868.5,       145.1,         0.0,         0.0,         0.0,         0.0
"Line.L2"               ,   2,      -865.6,      -139.0
"Line.L3"               ,   1,         5.3,         2.6,         0.0,         0.0,         0.0,         0.0
"Line.L3"               ,   2,        -5.3,        -2.7
"Line.L4"               ,   1,        26.5,        13.3,         0.0,         0.0,         0.0,         0.0
"Line.L4"               ,   2,       -26.5,       -13.3
"Line.L5"               ,   1,       829.1,       124.0,         0.0,         0.0,         0.0,         0.0
"Line.L5"               ,   2,      -827.1,      -119.9
"Line.L6"               ,   1,        10.6,         5.3,         0.0,         0.0,         0.0,         0.0
"Line.L6"               ,   2,       -10.6,        -5.3
"Line.L7"               ,   1,        15.9,         8.0,         0.0,         0.0,         0.0,         0.0
"Line.L7"               ,   2,       -15.9,        -8.0
"Line.L8"               ,   1,        10.6,         5.3,         0.0,         0.0,         0.0,         0.0
"Line.L8"               ,   2,       -10.6,        -5.3
"Line.L9"               ,   1,       823.4,       118.8,         0.0,         0.0,         0.0,         0.0
"Line.L9"               ,   2,      -822.1,      -116.1
"Line.L10"              ,   1,         5.3,         2.6,         0.0,         0.0,         0.0,         0.0
"Line.L10"              ,   2,        -5.3,        -2.7
"Line.L11"              ,   1,        26.5,        13.2,         0.0,         0.0,         0.0,         0.0
"Line.L11"              ,   2,       -26.5,       -13.2
"Line.L12"              ,   1,       790.2,       100.2,         0.0,         0.0,         0.0,         0.0
"Line.L12"              ,   2,      -788.4,       -96.4
"Line.L13"              ,   1,        15.9,         7.9,         0.0,         0.0,         0.0,         0.0
"Line.L13"              ,   2,       -15.9,        -7.9
"Line.L14"              ,   1,        15.9,         7.9,         0.0,         0.0,         0.0,         0.0
"Line.L14"              ,   2,       -15.9,        -7.9
"Line.L15"              ,   1,        20.1,         7.1,         0.0,         0.0,         0.0,         0.0
"Line.L15"              ,   2,       -20.1,        -7.1
"Line.L16"              ,   1,       281.0,       159.6,         0.0,         0.0,         0.0,         0.0
"Line.L16"              ,   2,      -280.2,      -157.9
"Line.L17"              ,   1,        10.6,         5.3,         0.0,         0.0,         0.0,         0.0
"Line.L17"              ,   2,       -10.6,        -5.3
"Line.L18"              ,   1,         5.3,         2.6,         0.0,         0.0,         0.0,         0.0
"Line.L18"              ,   2,        -5.3,        -2.7
"Line.L19"              ,   1,         4.2,        -0.9,         0.0,         0.0,         0.0,         0.0
"Line.L19"              ,   2,        -4.2,         0.9
"Line.L20"              ,   1,         5.3,         2.6,         0.0,         0.0,         0.0,         0.0
"Line.L20"              ,   2,        -5.3,        -2.7
"Line.L21"              ,   1,        21.2,        10.6,         0.0,         0.0,         0.0,         0.0
"Line.L21"              ,   2,       -21.2,       -10.6
"Line.L22"              ,   1,        65.2,        27.8,         0.0,         0.0,         0.0,         0.0
"Line.L22"              ,   2,       -65.2,       -27.8
"Line.L23"              ,   1,        10.6,         5.3,         0.0,         0.0,         0.0,         0.0
"Line.L23"              ,   2,       -10.6,        -5.3
"Line.L24"              ,   1,        10.6,         5.3,         0.0,         0.0,         0.0,         0.0
"Line.L24"              ,   2,       -10.6,        -5.3
"Line.L25"              ,   1,        54.6,        22.5,         0.0,         0.0,         0.0,         0.0
"Line.L25"              ,   2,       -54.6,       -22.5
"Line.L26"              ,   1,         8.3,         2.2,         0.0,         0.0,         0.0,         0.0
"Line.L26"              ,   2,        -8.3,        -2.2
"Line.L27"              ,   1,        46.3,        20.3,         0.0,         0.0,         0.0,         0.0
"Line.L27"              ,   2,       -46.3,       -20.3
"Line.L28"              ,   1,        14.4,         4.4,         0.0,         0.0,         0.0,         0.0
"Line.L28"              ,   2,       -14.4,        -4.4
"Line.L29"              ,   1,        14.4,         4.4,         0.0,         0.0,         0.0,         0.0
"Line.L29"              ,   2,       -14.4,        -4.4
"Line.L30"              ,   1,        31.8,        15.9,         0.0,         0.0,         0.0,         0.0
"Line.L30"              ,   2,       -31.8,       -15.9
"Line.L31"              ,   1,         3.8,        -0.9,         0.0,         0.0,         0.0,         0.0
"Line.L31"              ,   2,        -3.8,         0.9
"Line.L32"              ,   1,        10.6,         5.3,         0.0,         0.0,         0.0,         0.0
"Line.L32"              ,   2,       -10.6,        -5.3
"Line.L33"              ,   1,         3.8,        -0.9,         0.0,         0.0,         0.0,         0.0
"Line.L33"              ,   2,        -3.8,         0.9
"Line.L34"              ,   1,        21.2,        10.6,         0.0,         0.0,         0.0,         0.0
"Line.L34"              ,   2,       -21.2,       -10.6
"Line.L35"              ,   1,        10.6,         5.3,         0.0,         0.0,         0.0,         0.0
"Line.L35"              ,   2,       -10.6,        -5.3
"Line.L36"              ,   1,         0.0,        -0.0,         0.0,         0.0,         0.0,         0.0
"Line.L36"              ,   2,        -0.0,        -0.0
"Line.L37"              ,   1,         5.3,         2.6,         0.0,         0.0,         0.0,         0.0
"Line.L37"              ,   2,        -5.3,        -2.7
"Line.L38"              ,   1,         9.5,         1.7,         0.0,         0.0,         0.0,         0.0
"Line.L38"              ,   2,        -9.5,        -1.8
"Line.L39"              ,   1,        19.9,         9.0,         0.0,         0.0,         0.0,         0.0
"Line.L39"              ,   2,       -19.9,        -9.0
"Line.L40"              ,   1,       163.1,       104.7,         0.0,         0.0,         0.0,         0.0
"Line.L40"              ,   2,      -163.0,      -104.5
"Line.L41"              ,   1,        10.6,         5.3,         0.0,         0.0,         0.0,         0.0
"Line.L41"              ,   2,       -10.6,        -5.3
"Line.L42"              ,   1,         9.3,         3.7,         0.0,         0.0,         0.0,         0.0
"Line.L42"              ,   2,        -9.3,        -3.8
"Line.L43"              ,   1,         4.0,         1.1,         0.0,         0.0,         0.0,         0.0
"Line.L43"              ,   2,        -4.0,        -1.1
"Line.L44"              ,   1,         5.3,         2.6,         0.0,         0.0,         0.0,         0.0
"Line.L44"              ,   2,        -5.3,        -2.7
"Line.L45"              ,   1,       157.7,       101.9,         0.0,         0.0,         0.0,         0.0
"Line.L45"              ,   2,      -157.6,      -101.7
"Line.L46"              ,   1,        10.6,         5.3,         0.0,         0.0,         0.0,         0.0
"Line.L46"              ,   2,       -10.6,        -5.3
"Line.L47"              ,   1,       141.6,        93.8,         0.0,         0.0,         0.0,         0.0
"Line.L47"              ,   2,      -141.6,       -93.6
"Line.L48"              ,   1,         7.0,         2.2,         0.0,         0.0,         0.0,         0.0
"Line.L48"              ,   2,        -7.0,        -2.2
"Line.L49"              ,   1,       134.6,        91.4,         0.0,         0.0,         0.0,         0.0
"Line.L49"              ,   2,      -134.5,       -91.3
"Line.L50"              ,   1,         1.7,        -0.4,         0.0,         0.0,         0.0,         0.0
"Line.L50"              ,   2,        -1.7,         0.4
"Line.L51"              ,   1,        55.7,        39.8,         0.0,         0.0,         0.0,         0.0
"Line.L51"              ,   2,       -55.7,       -39.8
"Line.L52"              ,   1,        50.9,        31.6,         0.0,         0.0,         0.0,         0.0
"Line.L52"              ,   2,       -50.9,       -31.6
"Line.L53"              ,   1,        13.8,         6.4,         0.0,         0.0,         0.0,         0.0
"Line.L53"              ,   2,       -13.8,        -6.4
"Line.L54"              ,   1,         3.2,         1.1,         0.0,         0.0,         0.0,         0.0
"Line.L54"              ,   2,        -3.2,        -1.1
"Line.L55"              ,   1,       475.8,       -77.4,         0.0,         0.0,         0.0,         0.0
"Line.L55"              ,   2,      -475.3,        78.3
"Line.L56"              ,   1,       464.7,       -83.6,         0.0,         0.0,         0.0,         0.0
"Line.L56"              ,   2,      -464.4,        84.2
"Line.L57"              ,   1,        10.6,         5.3,         0.0,         0.0,         0.0,         0.0
"Line.L57"              ,   2,       -10.6,        -5.3
"Line.L58"              ,   1,       453.8,       -89.5,         0.0,         0.0,         0.0,         0.0
"Line.L58"              ,   2,      -453.1,        91.0
"Line.L59"              ,   1,         5.3,         2.6,         0.0,         0.0,         0.0,         0.0
"Line.L59"              ,   2,        -5.3,        -2.7
"Line.L60"              ,   1,         7.2,         2.2,         0.0,         0.0,         0.0,         0.0
"Line.L60"              ,   2,        -7.2,        -2.2
"Line.L61"              ,   1,       445.8,       -93.2,         0.0,         0.0,         0.0,         0.0
"Line.L61"              ,   2,      -444.3,        96.3
"Line.L62"              ,   1,         1.9,        -0.5,         0.0,         0.0,         0.0,         0.0
"Line.L62"              ,   2,        -1.9,         0.4
"Line.L63"              ,   1,         0.0,        -0.0,         0.0,         0.0,         0.0,         0.0
"Line.L63"              ,   2,        -0.0,         0.0
"Line.L64"              ,   1,        91.0,        45.0,         0.0,         0.0,         0.0,         0.0
"Line.L64"              ,   2,       -90.9,       -44.9
"Line.L65"              ,   1,        80.3,        39.6,         0.0,         0.0,         0.0,         0.0
"Line.L65"              ,   2,       -80.3,       -39.6
"Line.L66"              ,   1,        69.7,        34.3,         0.0,         0.0,         0.0,         0.0
"Line.L66"              ,   2,       -69.6,       -34.3
"Line.L67"              ,   1,        49.7,        25.0,         0.0,         0.0,         0.0,         0.0
"Line.L67"              ,   2,       -49.6,       -25.0
"Line.L68"              ,   1,        19.9,         9.3,         0.0,         0.0,         0.0,         0.0
"Line.L68"              ,   2,       -19.9,        -9.3
"Line.L69"              ,   1,        25.4,        10.3,         0.0,         0.0,         0.0,         0.0
"Line.L69"              ,   2,       -25.4,       -10.3
"Line.L70"              ,   1,       218.2,      -205.4,         0.0,         0.0,         0.0,         0.0
"Line.L70"              ,   2,      -217.9,       205.8
"Line.L71"              ,   1,       104.0,        50.2,         0.0,         0.0,         0.0,         0.0
"Line.L71"              ,   2,      -103.9,       -50.2
"Line.L72"              ,   1,        20.1,         7.6,         0.0,         0.0,         0.0,         0.0
"Line.L72"              ,   2,       -20.1,        -7.6
"Line.L73"              ,   1,         9.4,         2.3,         0.0,         0.0,         0.0,         0.0
"Line.L73"              ,   2,        -9.4,        -2.3
"Line.L74"              ,   1,         4.1,        -0.3,         0.0,         0.0,         0.0,         0.0
"Line.L74"              ,   2,        -4.1,         0.3
"Line.L75"              ,   1,        31.9,        15.9,         0.0,         0.0,         0.0,         0.0
"Line.L75"              ,   2,       -31.8,       -15.9
"Line.L76"              ,   1,       186.1,      -221.8,         0.0,         0.0,         0.0,         0.0
"Line.L76"              ,   2,      -185.9,       222.1
"Line.L77"              ,   1,        21.2,        10.6,         0.0,         0.0,         0.0,         0.0
"Line.L77"              ,   2,       -21.2,       -10.6
"Line.L78"              ,   1,        10.6,         5.3,         0.0,         0.0,         0.0,         0.0
"Line.L78"              ,   2,       -10.6,        -5.3
"Line.L79"              ,   1,        54.2,      -157.9,         0.0,         0.0,         0.0,         0.0
"Line.L79"              ,   2,       -54.1,       158.1
"Line.L80"              ,   1,        66.7,      -112.0,         0.0,         0.0,         0.0,         0.0
"Line.L80"              ,   2,       -66.6,       112.2
"Line.L81"              ,   1,        47.2,      -166.5,         0.0,         0.0,         0.0,         0.0
"Line.L81"              ,   2,       -47.1,       166.5
"Line.L82"              ,   1,        10.6,         5.3,         0.0,         0.0,         0.0,         0.0
"Line.L82"              ,   2,       -10.6,        -5.3
"Line.L83"              ,   1,        36.5,      -171.8,         0.0,         0.0,         0.0,         0.0
"Line.L83"              ,   2,       -36.4,       172.1
"Line.L84"              ,   1,        25.8,      -177.4,         0.0,         0.0,         0.0,         0.0
"Line.L84"              ,   2,       -25.7,       177.5
"Line.L85"              ,   1,        16.1,      -191.7,         0.0,         0.0,         0.0,         0.0
"Line.L85"              ,   2,       -16.0,       191.9
"Line.L86"              ,   1,         9.6,        14.1,         0.0,         0.0,         0.0,         0.0
"Line.L86"              ,   2,        -9.6,       -14.1
"Line.L87"              ,   1,         5.4,      -197.2,         0.0,         0.0,         0.0,         0.0
"Line.L87"              ,   2,        -5.3,       197.3
"Line.L88"              ,   1,         4.3,        11.5,         0.0,         0.0,         0.0,         0.0
"Line.L88"              ,   2,        -4.3,       -11.5
"Line.L89"              ,   1,        61.3,      -114.9,         0.0,         0.0,         0.0,         0.0
"Line.L89"              ,   2,       -61.2,       115.0
"Line.L90"              ,   1,        10.6,       -44.7,         0.0,         0.0,         0.0,         0.0
"Line.L90"              ,   2,       -10.6,        44.7
"Line.L91"              ,   1,        40.0,       -75.6,         0.0,         0.0,         0.0,         0.0
"Line.L91"              ,   2,       -40.0,        75.7
"Line.L92"              ,   1,        10.6,       -44.7,         0.0,         0.0,         0.0,         0.0
"Line.L92"              ,   2,       -10.6,        44.7
"Line.L93"              ,   1,        29.3,       -31.0,         0.0,         0.0,         0.0,         0.0
"Line.L93"              ,   2,       -29.3,        31.0
"Line.L94"              ,   1,         8.1,       -41.6,         0.0,         0.0,         0.0,         0.0
"Line.L94"              ,   2,        -8.1,        41.6
"Line.L95"              ,   1,        21.2,        10.6,         0.0,         0.0,         0.0,         0.0
"Line.L95"              ,   2,       -21.2,       -10.6
"Line.L96"              ,   1,        10.6,         5.3,         0.0,         0.0,         0.0,         0.0
"Line.L96"              ,   2,       -10.6,        -5.3
"Line.L97"              ,   1,        10.6,         5.3,         0.0,         0.0,         0.0,         0.0
"Line.L97"              ,   2,       -10.6,        -5.3
"Line.L98"              ,   1,         5.3,         2.6,         0.0,         0.0,         0.0,         0.0
"Line.L98"              ,   2,        -5.3,        -2.7
"Line.L99"              ,   1,        24.9,        13.9,         0.0,         0.0,         0.0,         0.0
"Line.L99"              ,   2,       -24.9,       -13.9
"Line.L100"             ,   1,        14.3,         8.6,         0.0,         0.0,         0.0,         0.0
"Line.L100"             ,   2,       -14.3,        -8.6
"Line.L101"             ,   1,        10.6,         5.3,         0.0,         0.0,         0.0,         0.0
"Line.L101"             ,   2,       -10.6,        -5.3
"Line.L102"             ,   1,         0.0,        -0.0,         0.0,         0.0,         0.0,         0.0
"Line.L102"             ,   2,        -0.0,         0.0
"Line.L103"             ,   1,        26.5,        13.3,         0.0,         0.0,         0.0,         0.0
"Line.L103"             ,   2,       -26.5,       -13.3
"Line.L104"             ,   1,        52.5,        23.0,         0.0,         0.0,         0.0,         0.0
"Line.L104"             ,   2,       -52.5,       -23.0
"Line.L105"             ,   1,        21.2,        10.6,         0.0,         0.0,         0.0,         0.0
"Line.L105"             ,   2,       -21.2,       -10.6
"Line.L106"             ,   1,        10.6,         5.3,         0.0,         0.0,         0.0,         0.0
"Line.L106"             ,   2,       -10.6,        -5.3
"Line.L107"             ,   1,        18.7,         7.5,         0.0,         0.0,         0.0,         0.0
"Line.L107"             ,   2,       -18.7,        -7.5
"Line.L108"             ,   1,        33.8,        15.5,         0.0,         0.0,         0.0,         0.0
"Line.L108"             ,   2,       -33.8,       -15.5
"Line.L109"             ,   1,        10.6,         5.3,         0.0,         0.0,         0.0,         0.0
"Line.L109"             ,   2,       -10.6,        -5.3
"Line.L110"             ,   1,        33.8,        15.5,         0.0,         0.0,         0.0,         0.0
"Line.L110"             ,   2,       -33.8,       -15.5
"Line.L111"             ,   1,         0.0,        -0.0,         0.0,         0.0,         0.0,         0.0
"Line.L111"             ,   2,        -0.0,        -0.0
"Line.L112"             ,   1,        23.2,        10.1,         0.0,         0.0,         0.0,         0.0
"Line.L112"             ,   2,       -23.2,       -10.1
"Line.L113"             ,   1,         5.3,         2.6,         0.0,         0.0,         0.0,         0.0
"Line.L113"             ,   2,        -5.3,        -2.7
"Line.L114"             ,   1,        17.8,         7.5,         0.0,         0.0,         0.0,         0.0
"Line.L114"             ,   2,       -17.8,        -7.5
"Line.L115"             ,   1,        12.5,         4.9,         0.0,         0.0,         0.0,         0.0
"Line.L115"             ,   2,       -12.5,        -4.9
"Line.L116"             ,   1,         1.9,        -0.4,         0.0,         0.0,         0.0,         0.0
"Line.L116"             ,   2,        -1.9,         0.4
"Line.L117"             ,   1,       193.7,       119.4,         0.0,         0.0,         0.0,         0.0
"Line.L117"             ,   2,      -193.5,      -119.1
"Line.L118"             ,   1,       487.3,       -70.2,         0.0,         0.0,         0.0,         0.0
"Line.L118"             ,   2,      -486.4,        72.1
"Line.L119"             ,   1,         0.0,        -0.0,         0.0,         0.0,         0.0,         0.0
"Line.L119"             ,   2,        -0.0,        -0.0
"Line.L120"             ,   1,       348.0,      -143.9,         0.0,         0.0,         0.0,         0.0
"Line.L120"             ,   2,      -348.0,       143.9
"Line.L121"             ,   1,       348.0,      -143.9,         0.0,         0.0,         0.0,         0.0
"Line.L121"             ,   2,      -347.5,       144.8
