Element, Terminal, P(kW), Q(kvar),  P_Normal, Q_Normal, P_Emergency, Q_Emergency
"Line.L1"               ,   1,       683.4,        63.5,         0.0,         0.0,         0.0,         0.0
"Line.L1"               ,   2,      -683.4,       -63.5
"Line.L2"               ,   1,       683.4,        63.5,         0.0,         0.0,         0.0,         0.0
"Line.L2"               ,   2,      -681.6,       -59.9
"Line.L3"               ,   1,         5.2,         2.6,         0.0,         0.0,         0.0,         0.0
"Line.L3"               ,   2,        -5.2,        -2.6
"Line.L4"               ,   1,        16.9,         0.6,         0.0,         0.0,         0.0,         0.0
"Line.L4"               ,   2,       -16.9,        -0.7
"Line.L5"               ,   1,       654.0,        57.6,         0.0,         0.0,         0.0,         0.0
"Line.L5"               ,   2,      -652.8,       -55.1
"Line.L6"               ,   1,         5.8,        -1.0,         0.0,         0.0,         0.0,         0.0
"Line.L6"               ,   2,        -5.8,         1.0
"Line.L7"               ,   1,        11.0,         1.6,         0.0,         0.0,         0.0,         0.0
"Line.L7"               ,   2,       -11.0,        -1.6
"Line.L8"               ,   1,         5.8,        -1.0,         0.0,         0.0,         0.0,         0.0
"Line.L8"               ,   2,        -5.8,         1.0
"Line.L9"               ,   1,       647.5,        52.5,         0.0,         0.0,         0.0,         0.0
"Line.L9"               ,   2,      -646.7,       -50.8
"Line.L10"              ,   1,         5.2,         2.6,         0.0,         0.0,         0.0,         0.0
"Line.L10"              ,   2,        -5.2,        -2.6
"Line.L11"              ,   1,        16.1,         0.6,         0.0,         0.0,         0.0,         0.0
"Line.L11"              ,   2,       -16.1,        -0.6
"Line.L12"              ,   1,       625.4,        47.6,         0.0,         0.0,         0.0,         0.0
"Line.L12"              ,   2,      -624.2,       -45.3
"Line.L13"              ,   1,        10.7,         1.6,         0.0,         0.0,         0.0,         0.0
"Line.L13"              ,   2,       -10.7,        -1.6
"Line.L14"              ,   1,        10.7,         1.6,         0.0,         0.0,         0.0,         0.0
"Line.L14"              ,   2,       -10.7,        -1.6
"Line.L15"              ,   1,        16.0,         0.6,         0.0,         0.0,         0.0,         0.0
"Line.L15"              ,   2,       -16.0,        -0.6
"Line.L16"              ,   1,       224.8,        86.6,         0.0,         0.0,         0.0,         0.0
"Line.L16"              ,   2,      -224.3,       -85.7
"Line.L17"              ,   1,         5.5,        -1.0,         0.0,         0.0,         0.0,         0.0
"Line.L17"              ,   2,        -5.5,         1.0
"Line.L18"              ,   1,         5.2,         2.6,         0.0,         0.0,         0.0,         0.0
"Line.L18"              ,   2,        -5.2,        -2.6
"Line.L19"              ,   1,         5.4,        -1.0,         0.0,         0.0,         0.0,         0.0
"Line.L19"              ,   2,        -5.4,         1.0
"Line.L20"              ,   1,         5.2,         2.6,         0.0,         0.0,         0.0,         0.0
"Line.L20"              ,   2,        -5.2,        -2.6
"Line.L21"              ,   1,        15.7,         4.2,         0.0,         0.0,         0.0,         0.0
"Line.L21"              ,   2,       -15.7,        -4.2
"Line.L22"              ,   1,        55.2,        14.8,         0.0,         0.0,         0.0,         0.0
"Line.L22"              ,   2,       -55.2,       -14.8
"Line.L23"              ,   1,        10.4,         5.2,         0.0,         0.0,         0.0,         0.0
"Line.L23"              ,   2,       -10.4,        -5.2
"Line.L24"              ,   1,         5.4,        -1.0,         0.0,         0.0,         0.0,         0.0
"Line.L24"              ,   2,        -5.4,         1.0
"Line.L25"              ,   1,        49.9,        15.8,         0.0,         0.0,         0.0,         0.0
"Line.L25"              ,   2,       -49.8,       -15.8
"Line.L26"              ,   1,        10.4,         5.2,         0.0,         0.0,         0.0,         0.0
"Line.L26"              ,   2,       -10.4,        -5.2
"Line.L27"              ,   1,        39.4,        10.6,         0.0,         0.0,         0.0,         0.0
"Line.L27"              ,   2,       -39.4,       -10.6
"Line.L28"              ,   1,        18.3,         7.3,         0.0,         0.0,         0.0,         0.0
"Line.L28"              ,   2,       -18.3,        -7.3
"Line.L29"              ,   1,        18.3,         7.3,         0.0,         0.0,         0.0,         0.0
"Line.L29"              ,   2,       -18.3,        -7.3
"Line.L30"              ,   1,        21.1,         3.3,         0.0,         0.0,         0.0,         0.0
"Line.L30"              ,   2,       -21.1,        -3.3
"Line.L31"              ,   1,        10.4,         5.2,         0.0,         0.0,         0.0,         0.0
"Line.L31"              ,   2,       -10.4,        -5.2
"Line.L32"              ,   1,         7.9,         2.1,         0.0,         0.0,         0.0,         0.0
"Line.L32"              ,   2,        -7.9,        -2.1
"Line.L33"              ,   1,        10.4,         5.2,         0.0,         0.0,         0.0,         0.0
"Line.L33"              ,   2,       -10.4,        -5.2
"Line.L34"              ,   1,        15.8,         4.2,         0.0,         0.0,         0.0,         0.0
"Line.L34"              ,   2,       -15.8,        -4.2
"Line.L35"              ,   1,         5.3,        -1.0,         0.0,         0.0,         0.0,         0.0
"Line.L35"              ,   2,        -5.3,         1.0
"Line.L36"              ,   1,         0.0,        -0.0,         0.0,         0.0,         0.0,         0.0
"Line.L36"              ,   2,        -0.0,        -0.0
"Line.L37"              ,   1,         2.7,        -0.5,         0.0,         0.0,         0.0,         0.0
"Line.L37"              ,   2,        -2.7,         0.5
"Line.L38"              ,   1,        10.6,         1.6,         0.0,         0.0,         0.0,         0.0
"Line.L38"              ,   2,       -10.6,        -1.6
"Line.L39"              ,   1,        13.3,         1.1,         0.0,         0.0,         0.0,         0.0
"Line.L39"              ,   2,       -13.3,        -1.1
"Line.L40"              ,   1,       129.6,        60.1,         0.0,         0.0,         0.0,         0.0
"Line.L40"              ,   2,      -129.5,       -60.0
"Line.L41"              ,   1,         5.4,        -1.0,         0.0,         0.0,         0.0,         0.0
"Line.L41"              ,   2,        -5.4,         1.0
"Line.L42"              ,   1,         7.9,         2.1,         0.0,         0.0,         0.0,         0.0
"Line.L42"              ,   2,        -7.9,        -2.1
"Line.L43"              ,   1,         2.7,        -0.5,         0.0,         0.0,         0.0,         0.0
"Line.L43"              ,   2,        -2.7,         0.5
"Line.L44"              ,   1,         5.2,         2.6,         0.0,         0.0,         0.0,         0.0
"Line.L44"              ,   2,        -5.2,        -2.6
"Line.L45"              ,   1,       124.3,        57.4,         0.0,         0.0,         0.0,         0.0
"Line.L45"              ,   2,      -124.3,       -57.3
"Line.L46"              ,   1,        10.4,         5.2,         0.0,         0.0,         0.0,         0.0
"Line.L46"              ,   2,       -10.4,        -5.2
"Line.L47"              ,   1,       111.1,        52.5,         0.0,         0.0,         0.0,         0.0
"Line.L47"              ,   2,      -111.1,       -52.5
"Line.L48"              ,   1,         7.9,         2.1,         0.0,         0.0,         0.0,         0.0
"Line.L48"              ,   2,        -7.9,        -2.1
"Line.L49"              ,   1,       103.2,        50.4,         0.0,         0.0,         0.0,         0.0
"Line.L49"              ,   2,      -103.2,       -50.3
"Line.L50"              ,   1,         5.2,         2.6,         0.0,         0.0,         0.0,         0.0
"Line.L50"              ,   2,        -5.2,        -2.6
"Line.L51"              ,   1,        54.8,        39.2,         0.0,         0.0,         0.0,         0.0
"Line.L51"              ,   2,       -54.8,       -39.2
"Line.L52"              ,   1,        33.3,         7.8,         0.0,         0.0,         0.0,         0.0
"Line.L52"              ,   2,       -33.3,        -7.8
"Line.L53"              ,   1,        13.3,         4.7,         0.0,         0.0,         0.0,         0.0
"Line.L53"              ,   2,       -13.3,        -4.7
"Line.L54"              ,   1,         2.9,        -0.5,         0.0,         0.0,         0.0,         0.0
"Line.L54"              ,   2,        -2.9,         0.5
"Line.L55"              ,   1,       372.5,       -48.3,         0.0,         0.0,         0.0,         0.0
"Line.L55"              ,   2,      -372.2,        48.9
"Line.L56"              ,   1,       366.8,       -47.9,         0.0,         0.0,         0.0,         0.0
"Line.L56"              ,   2,      -366.6,        48.2
"Line.L57"              ,   1,         7.9,         2.1,         0.0,         0.0,         0.0,         0.0
"Line.L57"              ,   2,        -7.9,        -2.1
"Line.L58"              ,   1,       358.7,       -50.3,         0.0,         0.0,         0.0,         0.0
"Line.L58"              ,   2,      -358.3,        51.3
"Line.L59"              ,   1,         2.7,        -0.5,         0.0,         0.0,         0.0,         0.0
"Line.L59"              ,   2,        -2.7,         0.5
"Line.L60"              ,   1,         7.9,         2.1,         0.0,         0.0,         0.0,         0.0
"Line.L60"              ,   2,        -7.9,        -2.1
"Line.L61"              ,   1,       350.4,       -53.4,         0.0,         0.0,         0.0,         0.0
"Line.L61"              ,   2,      -349.5,        55.2
"Line.L62"              ,   1,         2.7,        -0.5,         0.0,         0.0,         0.0,         0.0
"Line.L62"              ,   2,        -2.7,         0.5
"Line.L63"              ,   1,         0.0,        -0.0,         0.0,         0.0,         0.0,         0.0
"Line.L63"              ,   2,        -0.0,         0.0
"Line.L64"              ,   1,        72.6,        25.4,         0.0,         0.0,         0.0,         0.0
"Line.L64"              ,   2,       -72.6,       -25.4
"Line.L65"              ,   1,        67.1,        26.4,         0.0,         0.0,         0.0,         0.0
"Line.L65"              ,   2,       -67.1,       -26.4
"Line.L66"              ,   1,        56.6,        21.2,         0.0,         0.0,         0.0,         0.0
"Line.L66"              ,   2,       -56.6,       -21.2
"Line.L67"              ,   1,        46.6,        23.6,         0.0,         0.0,         0.0,         0.0
"Line.L67"              ,   2,       -46.6,       -23.6
"Line.L68"              ,   1,        10.0,        -2.5,         0.0,         0.0,         0.0,         0.0
"Line.L68"              ,   2,       -10.0,         2.5
"Line.L69"              ,   1,        21.2,        14.6,         0.0,         0.0,         0.0,         0.0
"Line.L69"              ,   2,       -21.2,       -14.6
"Line.L70"              ,   1,       165.6,      -142.3,         0.0,         0.0,         0.0,         0.0
"Line.L70"              ,   2,      -165.5,       142.5
"Line.L71"              ,   1,        84.6,        43.9,         0.0,         0.0,         0.0,         0.0
"Line.L71"              ,   2,       -84.5,       -43.8
"Line.L72"              ,   1,        16.0,        12.0,         0.0,         0.0,         0.0,         0.0
"Line.L72"              ,   2,       -16.0,       -12.0
"Line.L73"              ,   1,        10.6,         1.6,         0.0,         0.0,         0.0,         0.0
"Line.L73"              ,   2,       -10.6,        -1.6
"Line.L74"              ,   1,         5.4,        -1.0,         0.0,         0.0,         0.0,         0.0
"Line.L74"              ,   2,        -5.4,         1.0
"Line.L75"              ,   1,        26.3,        21.9,         0.0,         0.0,         0.0,         0.0
"Line.L75"              ,   2,       -26.3,       -21.8
"Line.L76"              ,   1,       139.2,      -164.4,         0.0,         0.0,         0.0,         0.0
"Line.L76"              ,   2,      -139.1,       164.6
"Line.L77"              ,   1,        15.8,        16.6,         0.0,         0.0,         0.0,         0.0
"Line.L77"              ,   2,       -15.8,       -16.6
"Line.L78"              ,   1,        10.4,         5.2,         0.0,         0.0,         0.0,         0.0
"Line.L78"              ,   2,       -10.4,        -5.2
"Line.L79"              ,   1,        50.9,      -152.3,         0.0,         0.0,         0.0,         0.0
"Line.L79"              ,   2,       -50.8,       152.4
"Line.L80"              ,   1,        53.0,       -97.2,         0.0,         0.0,         0.0,         0.0
"Line.L80"              ,   2,       -53.0,        97.4
"Line.L81"              ,   1,        40.4,      -157.7,         0.0,         0.0,         0.0,         0.0
"Line.L81"              ,   2,       -40.4,       157.7
"Line.L82"              ,   1,         5.8,        11.4,         0.0,         0.0,         0.0,         0.0
"Line.L82"              ,   2,        -5.8,       -11.4
"Line.L83"              ,   1,        34.5,      -169.1,         0.0,         0.0,         0.0,         0.0
"Line.L83"              ,   2,       -34.4,       169.4
"Line.L84"              ,   1,        24.0,      -174.6,         0.0,         0.0,         0.0,         0.0
"Line.L84"              ,   2,       -23.9,       174.7
"Line.L85"              ,   1,        10.8,      -185.6,         0.0,         0.0,         0.0,         0.0
"Line.L85"              ,   2,       -10.8,       185.8
"Line.L86"              ,   1,        13.1,        10.9,         0.0,         0.0,         0.0,         0.0
"Line.L86"              ,   2,       -13.1,       -10.9
"Line.L87"              ,   1,         5.3,      -197.2,         0.0,         0.0,         0.0,         0.0
"Line.L87"              ,   2,        -5.2,       197.4
"Line.L88"              ,   1,        10.4,         5.2,         0.0,         0.0,         0.0,         0.0
"Line.L88"              ,   2,       -10.4,        -5.2
"Line.L89"              ,   1,        50.0,      -103.1,         0.0,         0.0,         0.0,         0.0
"Line.L89"              ,   2,       -50.0,       103.2
"Line.L90"              ,   1,         5.4,       -38.6,         0.0,         0.0,         0.0,         0.0
"Line.L90"              ,   2,        -5.4,        38.6
"Line.L91"              ,   1,        34.1,       -69.8,         0.0,         0.0,         0.0,         0.0
"Line.L91"              ,   2,       -34.1,        69.8
"Line.L92"              ,   1,        10.5,       -44.8,         0.0,         0.0,         0.0,         0.0
"Line.L92"              ,   2,       -10.4,        44.8
"Line.L93"              ,   1,        23.7,       -25.1,         0.0,         0.0,         0.0,         0.0
"Line.L93"              ,   2,       -23.7,        25.1
"Line.L94"              ,   1,         5.4,       -38.6,         0.0,         0.0,         0.0,         0.0
"Line.L94"              ,   2,        -5.3,        38.6
"Line.L95"              ,   1,        18.3,        13.5,         0.0,         0.0,         0.0,         0.0
"Line.L95"              ,   2,       -18.3,       -13.5
"Line.L96"              ,   1,        10.4,         5.2,         0.0,         0.0,         0.0,         0.0
"Line.L96"              ,   2,       -10.4,        -5.2
"Line.L97"              ,   1,         7.8,         8.3,         0.0,         0.0,         0.0,         0.0
"Line.L97"              ,   2,        -7.8,        -8.3
"Line.L98"              ,   1,         5.2,         2.6,         0.0,         0.0,         0.0,         0.0
"Line.L98"              ,   2,        -5.2,        -2.6
"Line.L99"              ,   1,        21.3,        24.0,         0.0,         0.0,         0.0,         0.0
"Line.L99"              ,   2,       -21.3,       -24.0
"Line.L100"             ,   1,        15.8,        12.6,         0.0,         0.0,         0.0,         0.0
"Line.L100"             ,   2,       -15.8,       -12.6
"Line.L101"             ,   1,         5.3,         7.4,         0.0,         0.0,         0.0,         0.0
"Line.L101"             ,   2,        -5.3,        -7.4
"Line.L102"             ,   1,         0.0,        -0.0,         0.0,         0.0,         0.0,         0.0
"Line.L102"             ,   2,         0.0,        -0.0
"Line.L103"             ,   1,        21.0,         6.9,         0.0,         0.0,         0.0,         0.0
"Line.L103"             ,   2,       -21.0,        -6.9
"Line.L104"             ,   1,        42.2,        12.9,         0.0,         0.0,         0.0,         0.0
"Line.L104"             ,   2,       -42.2,       -12.9
"Line.L105"             ,   1,        15.8,         4.2,         0.0,         0.0,         0.0,         0.0
"Line.L105"             ,   2,       -15.8,        -4.2
"Line.L106"             ,   1,        10.4,         5.2,         0.0,         0.0,         0.0,         0.0
"Line.L106"             ,   2,       -10.4,        -5.2
"Line.L107"             ,   1,        15.8,         7.1,         0.0,         0.0,         0.0,         0.0
"Line.L107"             ,   2,       -15.8,        -7.1
"Line.L108"             ,   1,        26.4,         5.9,         0.0,         0.0,         0.0,         0.0
"Line.L108"             ,   2,       -26.4,        -5.9
"Line.L109"             ,   1,        10.4,         5.2,         0.0,         0.0,         0.0,         0.0
"Line.L109"             ,   2,       -10.4,        -5.2
"Line.L110"             ,   1,        26.4,         5.9,         0.0,         0.0,         0.0,         0.0
"Line.L110"             ,   2,       -26.4,        -5.9
"Line.L111"             ,   1,         0.0,        -0.0,         0.0,         0.0,         0.0,         0.0
"Line.L111"             ,   2,        -0.0,        -0.0
"Line.L112"             ,   1,        21.0,         6.8,         0.0,         0.0,         0.0,         0.0
"Line.L112"             ,   2,       -21.0,        -6.8
"Line.L113"             ,   1,         5.2,         2.6,         0.0,         0.0,         0.0,         0.0
"Line.L113"             ,   2,        -5.2,        -2.6
"Line.L114"             ,   1,        15.7,         4.2,         0.0,         0.0,         0.0,         0.0
"Line.L114"             ,   2,       -15.7,        -4.2
"Line.L115"             ,   1,        13.1,         4.7,         0.0,         0.0,         0.0,         0.0
"Line.L115"             ,   2,       -13.1,        -4.7
"Line.L116"             ,   1,         2.7,        -0.5,         0.0,         0.0,         0.0,         0.0
"Line.L116"             ,   2,        -2.7,         0.5
"Line.L117"             ,   1,       153.4,        66.6,         0.0,         0.0,         0.0,         0.0
"Line.L117"             ,   2,      -153.3,       -66.4
"Line.L118"             ,   1,       383.5,       -41.9,         0.0,         0.0,         0.0,         0.0
"Line.L118"             ,   2,      -382.9,        43.1
"Line.L119"             ,   1,         0.0,        -0.0,         0.0,         0.0,         0.0,         0.0
"Line.L119"             ,   2,         0.0,         0.0
"Line.L120"             ,   1,       271.7,       -83.3,         0.0,         0.0,         0.0,         0.0
"Line.L120"             ,   2,      -271.7,        83.2
"Line.L121"             ,   1,       271.7,       -83.2,         0.0,         0.0,         0.0,         0.0
"Line.L121"             ,   2,      -271.4,        83.8
