Element, Terminal, P(kW), Q(kvar),  P_Normal, Q_Normal, P_Emergency, Q_Emergency
"Line.L115"             ,   1,       850.8,       181.8,         0.0,         0.0,         0.0,         0.0
"Line.L115"             ,   2,      -847.8,      -175.6
"Line.L1"               ,   1,         4.0,         2.0,         0.0,         0.0,         0.0,         0.0
"Line.L1"               ,   2,        -4.0,        -2.0
"Line.L2"               ,   1,        19.9,        10.0,         0.0,         0.0,         0.0,         0.0
"Line.L2"               ,   2,       -19.9,       -10.0
"Line.L3"               ,   1,       815.9,       159.7,         0.0,         0.0,         0.0,         0.0
"Line.L3"               ,   2,      -813.9,      -155.4
"Line.L4"               ,   1,         8.0,         4.0,         0.0,         0.0,         0.0,         0.0
"Line.L4"               ,   2,        -8.0,        -4.0
"Line.L5"               ,   1,        12.0,         6.0,         0.0,         0.0,         0.0,         0.0
"Line.L5"               ,   2,       -12.0,        -6.0
"Line.L6"               ,   1,         8.0,         4.0,         0.0,         0.0,         0.0,         0.0
"Line.L6"               ,   2,        -8.0,        -4.0
"Line.L7"               ,   1,       809.9,       153.4,         0.0,         0.0,         0.0,         0.0
"Line.L7"               ,   2,      -808.5,      -150.6
"Line.L8"               ,   1,         4.0,         2.0,         0.0,         0.0,         0.0,         0.0
"Line.L8"               ,   2,        -4.0,        -2.0
"Line.L9"               ,   1,        27.1,        10.0,         0.0,         0.0,         0.0,         0.0
"Line.L9"               ,   2,       -27.1,       -10.0
"Line.L10"              ,   1,       777.4,       138.6,         0.0,         0.0,         0.0,         0.0
"Line.L10"              ,   2,      -775.5,      -134.7
"Line.L11"              ,   1,        12.0,         6.0,         0.0,         0.0,         0.0,         0.0
"Line.L11"              ,   2,       -12.0,        -6.0
"Line.L12"              ,   1,        19.9,        10.0,         0.0,         0.0,         0.0,         0.0
"Line.L12"              ,   2,       -19.9,       -10.0
"Line.L13"              ,   1,       268.6,       132.1,         0.0,         0.0,         0.0,         0.0
"Line.L13"              ,   2,      -267.8,      -130.6
"Line.L14"              ,   1,         8.0,         4.0,         0.0,         0.0,         0.0,         0.0
"Line.L14"              ,   2,        -8.0,        -4.0
"Line.L15"              ,   1,         4.0,         2.0,         0.0,         0.0,         0.0,         0.0
"Line.L15"              ,   2,        -4.0,        -2.0
"Line.L16"              ,   1,         8.0,         4.0,         0.0,         0.0,         0.0,         0.0
"Line.L16"              ,   2,        -8.0,        -4.0
"Line.L17"              ,   1,         4.0,         2.0,         0.0,         0.0,         0.0,         0.0
"Line.L17"              ,   2,        -4.0,        -2.0
"Line.L18"              ,   1,        16.0,         8.0,         0.0,         0.0,         0.0,         0.0
"Line.L18"              ,   2,       -15.9,        -8.0
"Line.L19"              ,   1,        63.1,        28.0,         0.0,         0.0,         0.0,         0.0
"Line.L19"              ,   2,       -63.0,       -27.9
"Line.L20"              ,   1,         8.0,         4.0,         0.0,         0.0,         0.0,         0.0
"Line.L20"              ,   2,        -8.0,        -4.0
"Line.L21"              ,   1,         8.0,         4.0,         0.0,         0.0,         0.0,         0.0
"Line.L21"              ,   2,        -8.0,        -4.0
"Line.L22"              ,   1,        55.1,        23.9,         0.0,         0.0,         0.0,         0.0
"Line.L22"              ,   2,       -55.1,       -23.9
"Line.L23"              ,   1,         8.0,         4.0,         0.0,         0.0,         0.0,         0.0
"Line.L23"              ,   2,        -8.0,        -4.0
"Line.L24"              ,   1,        47.1,        19.9,         0.0,         0.0,         0.0,         0.0
"Line.L24"              ,   2,       -47.1,       -19.9
"Line.L25"              ,   1,        16.0,         8.0,         0.0,         0.0,         0.0,         0.0
"Line.L25"              ,   2,       -15.9,        -8.0
"Line.L26"              ,   1,        31.1,        12.0,         0.0,         0.0,         0.0,         0.0
"Line.L26"              ,   2,       -31.1,       -12.0
"Line.L27"              ,   1,         8.0,         4.0,         0.0,         0.0,         0.0,         0.0
"Line.L27"              ,   2,        -8.0,        -4.0
"Line.L28"              ,   1,         8.0,         4.0,         0.0,         0.0,         0.0,         0.0
"Line.L28"              ,   2,        -8.0,        -4.0
"Line.L29"              ,   1,         8.0,         4.0,         0.0,         0.0,         0.0,         0.0
"Line.L29"              ,   2,        -8.0,        -4.0
"Line.L30"              ,   1,        15.9,         8.0,         0.0,         0.0,         0.0,         0.0
"Line.L30"              ,   2,       -15.9,        -8.0
"Line.L31"              ,   1,         8.0,         4.0,         0.0,         0.0,         0.0,         0.0
"Line.L31"              ,   2,        -8.0,        -4.0
"Line.L32"              ,   1,        -0.0,        -0.0,         0.0,         0.0,         0.0,         0.0
"Line.L32"              ,   2,         0.0,        -0.0
"Line.L33"              ,   1,         4.0,         2.0,         0.0,         0.0,         0.0,         0.0
"Line.L33"              ,   2,        -4.0,        -2.0
"Line.L34"              ,   1,        12.0,         6.0,         0.0,         0.0,         0.0,         0.0
"Line.L34"              ,   2,       -12.0,        -6.0
"Line.L35"              ,   1,        16.0,         8.0,         0.0,         0.0,         0.0,         0.0
"Line.L35"              ,   2,       -15.9,        -8.0
"Line.L36"              ,   1,       164.7,        82.3,         0.0,         0.0,         0.0,         0.0
"Line.L36"              ,   2,      -164.6,       -82.2
"Line.L37"              ,   1,         8.0,         4.0,         0.0,         0.0,         0.0,         0.0
"Line.L37"              ,   2,        -8.0,        -4.0
"Line.L38"              ,   1,         8.0,         4.0,         0.0,         0.0,         0.0,         0.0
"Line.L38"              ,   2,        -8.0,        -4.0
"Line.L39"              ,   1,         4.0,         2.0,         0.0,         0.0,         0.0,         0.0
"Line.L39"              ,   2,        -4.0,        -2.0
"Line.L40"              ,   1,         4.0,         2.0,         0.0,         0.0,         0.0,         0.0
"Line.L40"              ,   2,        -4.0,        -2.0
"Line.L41"              ,   1,       160.6,        80.2,         0.0,         0.0,         0.0,         0.0
"Line.L41"              ,   2,      -160.5,       -80.0
"Line.L42"              ,   1,         8.0,         4.0,         0.0,         0.0,         0.0,         0.0
"Line.L42"              ,   2,        -8.0,        -4.0
"Line.L43"              ,   1,       148.6,        74.0,         0.0,         0.0,         0.0,         0.0
"Line.L43"              ,   2,      -148.5,       -73.9
"Line.L44"              ,   1,         8.0,         4.0,         0.0,         0.0,         0.0,         0.0
"Line.L44"              ,   2,        -8.0,        -4.0
"Line.L45"              ,   1,       140.5,        69.9,         0.0,         0.0,         0.0,         0.0
"Line.L45"              ,   2,      -140.5,       -69.8
"Line.L46"              ,   1,         4.0,         2.0,         0.0,         0.0,         0.0,         0.0
"Line.L46"              ,   2,        -4.0,        -2.0
"Line.L47"              ,   1,        79.7,        29.9,         0.0,         0.0,         0.0,         0.0
"Line.L47"              ,   2,       -79.7,       -29.9
"Line.L48"              ,   1,        39.9,        24.9,         0.0,         0.0,         0.0,         0.0
"Line.L48"              ,   2,       -39.9,       -24.9
"Line.L49"              ,   1,        12.0,         6.0,         0.0,         0.0,         0.0,         0.0
"Line.L49"              ,   2,       -12.0,        -6.0
"Line.L50"              ,   1,         4.0,         2.0,         0.0,         0.0,         0.0,         0.0
"Line.L50"              ,   2,        -4.0,        -2.0
"Line.L51"              ,   1,         0.0,        -0.0,         0.0,         0.0,         0.0,         0.0
"Line.L51"              ,   2,         0.0,         0.0
"Line.L52"              ,   1,       478.0,       -13.3,         0.0,         0.0,         0.0,         0.0
"Line.L52"              ,   2,      -477.6,        14.3
"Line.L53"              ,   1,       469.6,       -18.3,         0.0,         0.0,         0.0,         0.0
"Line.L53"              ,   2,      -469.3,        18.9
"Line.L54"              ,   1,         8.0,         4.0,         0.0,         0.0,         0.0,         0.0
"Line.L54"              ,   2,        -8.0,        -4.0
"Line.L55"              ,   1,       461.3,       -22.8,         0.0,         0.0,         0.0,         0.0
"Line.L55"              ,   2,      -460.6,        24.4
"Line.L56"              ,   1,         4.0,         2.0,         0.0,         0.0,         0.0,         0.0
"Line.L56"              ,   2,        -4.0,        -2.0
"Line.L57"              ,   1,        11.6,         4.0,         0.0,         0.0,         0.0,         0.0
"Line.L57"              ,   2,       -11.6,        -4.0
"Line.L58"              ,   1,       449.0,       -28.4,         0.0,         0.0,         0.0,         0.0
"Line.L58"              ,   2,      -447.4,        31.6
"Line.L59"              ,   1,         4.0,         2.0,         0.0,         0.0,         0.0,         0.0
"Line.L59"              ,   2,        -4.0,        -2.0
"Line.L60"              ,   1,         0.0,        -0.0,         0.0,         0.0,         0.0,         0.0
"Line.L60"              ,   2,        -0.0,         0.0
"Line.L61"              ,   1,        99.3,        41.9,         0.0,         0.0,         0.0,         0.0
"Line.L61"              ,   2,       -99.2,       -41.9
"Line.L62"              ,   1,        91.2,        37.9,         0.0,         0.0,         0.0,         0.0
"Line.L62"              ,   2,       -91.2,       -37.9
"Line.L63"              ,   1,        83.2,        33.9,         0.0,         0.0,         0.0,         0.0
"Line.L63"              ,   2,       -83.1,       -33.9
"Line.L64"              ,   1,        68.1,        26.9,         0.0,         0.0,         0.0,         0.0
"Line.L64"              ,   2,       -68.1,       -26.9
"Line.L65"              ,   1,        15.0,         7.0,         0.0,         0.0,         0.0,         0.0
"Line.L65"              ,   2,       -15.0,        -7.0
"Line.L66"              ,   1,        23.9,        12.0,         0.0,         0.0,         0.0,         0.0
"Line.L66"              ,   2,       -23.9,       -12.0
"Line.L67"              ,   1,       224.7,      -132.5,         0.0,         0.0,         0.0,         0.0
"Line.L67"              ,   2,      -224.5,       132.9
"Line.L68"              ,   1,        95.0,        44.0,         0.0,         0.0,         0.0,         0.0
"Line.L68"              ,   2,       -95.0,       -43.9
"Line.L69"              ,   1,        19.9,        10.0,         0.0,         0.0,         0.0,         0.0
"Line.L69"              ,   2,       -19.9,       -10.0
"Line.L70"              ,   1,        12.0,         6.0,         0.0,         0.0,         0.0,         0.0
"Line.L70"              ,   2,       -12.0,        -6.0
"Line.L71"              ,   1,         8.0,         4.0,         0.0,         0.0,         0.0,         0.0
"Line.L71"              ,   2,        -8.0,        -4.0
"Line.L72"              ,   1,        23.9,        12.0,         0.0,         0.0,         0.0,         0.0
"Line.L72"              ,   2,       -23.9,       -12.0
"Line.L73"              ,   1,       200.6,      -144.8,         0.0,         0.0,         0.0,         0.0
"Line.L73"              ,   2,      -200.4,       145.1
"Line.L74"              ,   1,        16.0,         8.0,         0.0,         0.0,         0.0,         0.0
"Line.L74"              ,   2,       -15.9,        -8.0
"Line.L75"              ,   1,         8.0,         4.0,         0.0,         0.0,         0.0,         0.0
"Line.L75"              ,   2,        -8.0,        -4.0
"Line.L76"              ,   1,        48.4,      -161.0,         0.0,         0.0,         0.0,         0.0
"Line.L76"              ,   2,       -48.3,       161.3
"Line.L77"              ,   1,        59.1,       -20.0,         0.0,         0.0,         0.0,         0.0
"Line.L77"              ,   2,       -59.1,        20.0
"Line.L78"              ,   1,        40.3,      -165.3,         0.0,         0.0,         0.0,         0.0
"Line.L78"              ,   2,       -40.3,       165.3
"Line.L79"              ,   1,         8.0,         4.0,         0.0,         0.0,         0.0,         0.0
"Line.L79"              ,   2,        -8.0,        -4.0
"Line.L80"              ,   1,        32.3,      -169.3,         0.0,         0.0,         0.0,         0.0
"Line.L80"              ,   2,       -32.1,       169.6
"Line.L81"              ,   1,        24.2,      -173.6,         0.0,         0.0,         0.0,         0.0
"Line.L81"              ,   2,       -24.1,       173.7
"Line.L82"              ,   1,        12.1,      -179.7,         0.0,         0.0,         0.0,         0.0
"Line.L82"              ,   2,       -12.1,       179.9
"Line.L83"              ,   1,        12.0,         6.0,         0.0,         0.0,         0.0,         0.0
"Line.L83"              ,   2,       -12.0,        -6.0
"Line.L84"              ,   1,         4.1,      -183.9,         0.0,         0.0,         0.0,         0.0
"Line.L84"              ,   2,        -4.0,       184.1
"Line.L85"              ,   1,         8.0,         4.0,         0.0,         0.0,         0.0,         0.0
"Line.L85"              ,   2,        -8.0,        -4.0
"Line.L86"              ,   1,        55.1,       -22.0,         0.0,         0.0,         0.0,         0.0
"Line.L86"              ,   2,       -55.1,        22.0
"Line.L87"              ,   1,         8.0,       -11.3,         0.0,         0.0,         0.0,         0.0
"Line.L87"              ,   2,        -8.0,        11.3
"Line.L88"              ,   1,        31.9,       -14.7,         0.0,         0.0,         0.0,         0.0
"Line.L88"              ,   2,       -31.9,        14.7
"Line.L89"              ,   1,         8.0,       -11.3,         0.0,         0.0,         0.0,         0.0
"Line.L89"              ,   2,        -8.0,        11.3
"Line.L90"              ,   1,        23.9,        -3.4,         0.0,         0.0,         0.0,         0.0
"Line.L90"              ,   2,       -23.9,         3.4
"Line.L91"              ,   1,         8.0,       -11.3,         0.0,         0.0,         0.0,         0.0
"Line.L91"              ,   2,        -8.0,        11.3
"Line.L92"              ,   1,        15.9,         8.0,         0.0,         0.0,         0.0,         0.0
"Line.L92"              ,   2,       -15.9,        -8.0
"Line.L93"              ,   1,         8.0,         4.0,         0.0,         0.0,         0.0,         0.0
"Line.L93"              ,   2,        -8.0,        -4.0
"Line.L94"              ,   1,         8.0,         4.0,         0.0,         0.0,         0.0,         0.0
"Line.L94"              ,   2,        -8.0,        -4.0
"Line.L95"              ,   1,         4.0,         2.0,         0.0,         0.0,         0.0,         0.0
"Line.L95"              ,   2,        -4.0,        -2.0
"Line.L96"              ,   1,        31.1,        12.0,         0.0,         0.0,         0.0,         0.0
"Line.L96"              ,   2,       -31.1,       -12.0
"Line.L97"              ,   1,        23.2,         8.0,         0.0,         0.0,         0.0,         0.0
"Line.L97"              ,   2,       -23.1,        -8.0
"Line.L98"              ,   1,        15.2,         4.0,         0.0,         0.0,         0.0,         0.0
"Line.L98"              ,   2,       -15.2,        -4.0
"Line.L99"              ,   1,         0.0,        -0.0,         0.0,         0.0,         0.0,         0.0
"Line.L99"              ,   2,         0.0,         0.0
"Line.L118"             ,   1,        63.9,        32.0,         0.0,         0.0,         0.0,         0.0
"Line.L118"             ,   2,       -63.9,       -31.9
"Line.L100"             ,   1,        19.9,        10.0,         0.0,         0.0,         0.0,         0.0
"Line.L100"             ,   2,       -19.9,       -10.0
"Line.L101"             ,   1,        43.9,        22.0,         0.0,         0.0,         0.0,         0.0
"Line.L101"             ,   2,       -43.9,       -22.0
"Line.L102"             ,   1,        16.0,         8.0,         0.0,         0.0,         0.0,         0.0
"Line.L102"             ,   2,       -15.9,        -8.0
"Line.L103"             ,   1,         8.0,         4.0,         0.0,         0.0,         0.0,         0.0
"Line.L103"             ,   2,        -8.0,        -4.0
"Line.L104"             ,   1,        16.0,         8.0,         0.0,         0.0,         0.0,         0.0
"Line.L104"             ,   2,       -15.9,        -8.0
"Line.L105"             ,   1,        27.9,        14.0,         0.0,         0.0,         0.0,         0.0
"Line.L105"             ,   2,       -27.9,       -14.0
"Line.L106"             ,   1,         8.0,         4.0,         0.0,         0.0,         0.0,         0.0
"Line.L106"             ,   2,        -8.0,        -4.0
"Line.L107"             ,   1,        27.9,        14.0,         0.0,         0.0,         0.0,         0.0
"Line.L107"             ,   2,       -27.9,       -14.0
"Line.L108"             ,   1,         0.0,        -0.0,         0.0,         0.0,         0.0,         0.0
"Line.L108"             ,   2,         0.0,         0.0
"Line.L109"             ,   1,        19.9,        10.0,         0.0,         0.0,         0.0,         0.0
"Line.L109"             ,   2,       -19.9,       -10.0
"Line.L110"             ,   1,         4.0,         2.0,         0.0,         0.0,         0.0,         0.0
"Line.L110"             ,   2,        -4.0,        -2.0
"Line.L111"             ,   1,        16.0,         8.0,         0.0,         0.0,         0.0,         0.0
"Line.L111"             ,   2,       -16.0,        -8.0
"Line.L112"             ,   1,        12.0,         6.0,         0.0,         0.0,         0.0,         0.0
"Line.L112"             ,   2,       -12.0,        -6.0
"Line.L113"             ,   1,         4.0,         2.0,         0.0,         0.0,         0.0,         0.0
"Line.L113"             ,   2,        -4.0,        -2.0
"Line.L114"             ,   1,       188.8,        94.7,         0.0,         0.0,         0.0,         0.0
"Line.L114"             ,   2,      -188.6,       -94.3
"Line.L116"             ,   1,       487.0,        -7.4,         0.0,         0.0,         0.0,         0.0
"Line.L116"             ,   2,      -486.0,         9.3
"Line.L117"             ,   1,       344.1,       -75.5,         0.0,         0.0,         0.0,         0.0
"Line.L117"             ,   2,      -343.7,        76.5
"Line.SW1"              ,   1,       850.8,       181.8,         0.0,         0.0,         0.0,         0.0
"Line.SW1"              ,   2,      -850.8,      -181.8
"Line.SW2"              ,   1,       487.0,        -7.4,         0.0,         0.0,         0.0,         0.0
"Line.SW2"              ,   2,      -487.0,         7.4
"Line.SW3"              ,   1,       188.8,        94.7,         0.0,         0.0,         0.0,         0.0
"Line.SW3"              ,   2,      -188.8,       -94.7
