Bus, BasekV, Node1, Magnitude1, Angle1, pu1
"150", 4.16, 1,       2400,    0.0,   0.99926
"149", 4.16, 1,       2415,    0.0,    1.0055
"1", 4.16, 1,    2401.69,   -0.3,   0.99996
"2", 4.16, 1,    2401.55,   -0.3,   0.99991
"3", 4.16, 1,    2400.74,   -0.3,   0.99957
"7", 4.16, 1,    2392.32,   -0.6,   0.99606
"4", 4.16, 1,    2400.44,   -0.4,   0.99944
"5", 4.16, 1,       2400,   -0.4,   0.99926
"6", 4.16, 1,    2399.62,   -0.4,    0.9991
"8", 4.16, 1,    2386.15,   -0.8,   0.99349
"12", 4.16, 1,    2385.98,   -0.8,   0.99342
"9", 4.16, 1,    2385.29,   -0.8,   0.99314
"13", 4.16, 1,    2377.36,   -1.0,   0.98983
"9R", 4.16, 1,    2310.75,   -0.8,    0.9621
"14", 4.16, 1,    2309.75,   -0.8,   0.96168
"34", 4.16, 1,    2376.78,   -1.0,   0.98959
"18", 4.16, 1,    2365.42,   -1.2,   0.98486
"11", 4.16, 1,    2309.35,   -0.8,   0.96152
"10", 4.16, 1,    2309.55,   -0.8,    0.9616
"15", 4.16, 1,    2376.55,   -1.0,    0.9895
"16", 4.16, 1,    2375.98,   -1.0,   0.98926
"17", 4.16, 1,    2376.28,   -1.0,   0.98939
"19", 4.16, 1,    2364.65,   -1.2,   0.98454
"21", 4.16, 1,    2364.42,   -1.2,   0.98444
"20", 4.16, 1,    2364.15,   -1.2,   0.98433
"22", 4.16, 1,    2363.61,   -1.2,   0.98411
"23", 4.16, 1,     2363.7,   -1.2,   0.98415
"24", 4.16, 1,    2362.85,   -1.2,   0.98379
"25", 4.16, 1,    2363.05,   -1.2,   0.98387
"25R", 4.16, 1,    2422.12,   -1.2,    1.0085
"26", 4.16, 1,    2421.78,   -1.2,    1.0083
"28", 4.16, 1,    2362.76,   -1.2,   0.98375
"27", 4.16, 1,    2421.65,   -1.2,    1.0083
"31", 4.16, 1,    2421.44,   -1.2,    1.0082
"33", 4.16, 1,    2420.89,   -1.2,     1.008
"29", 4.16, 1,    2362.47,   -1.2,   0.98364
"30", 4.16, 1,    2362.31,   -1.2,   0.98357
"250", 4.16, 1,    2362.31,   -1.2,   0.98357
"32", 4.16, 1,    2421.22,   -1.2,    1.0081
"35", 4.16, 1,    2361.61,   -1.2,   0.98328
"36", 4.16, 1,    2360.96,   -1.3,     0.983
"40", 4.16, 1,    2359.43,   -1.3,   0.98237
"37", 4.16, 1,    2360.49,   -1.3,   0.98281
"38", 4.16, 1,    2360.57,   -1.3,   0.98284
"39", 4.16, 1,    2360.32,   -1.3,   0.98274
"41", 4.16, 1,    2359.18,   -1.3,   0.98226
"42", 4.16, 1,    2357.31,   -1.3,   0.98148
"43", 4.16, 1,    2356.53,   -1.3,   0.98116
"44", 4.16, 1,    2355.75,   -1.3,   0.98084
"45", 4.16, 1,    2355.44,   -1.3,   0.98071
"47", 4.16, 1,    2353.93,   -1.4,   0.98008
"46", 4.16, 1,    2355.21,   -1.3,   0.98061
"48", 4.16, 1,    2353.47,   -1.4,   0.97989
"49", 4.16, 1,    2353.26,   -1.4,    0.9798
"50", 4.16, 1,    2353.08,   -1.4,   0.97972
"51", 4.16, 1,    2353.02,   -1.4,    0.9797
"151", 4.16, 1,    2353.02,   -1.4,    0.9797
"52", 4.16, 1,    2371.94,   -1.2,   0.98758
"53", 4.16, 1,    2369.35,   -1.3,    0.9865
"54", 4.16, 1,    2367.79,   -1.4,   0.98585
"55", 4.16, 1,    2367.65,   -1.4,   0.98579
"57", 4.16, 1,     2363.6,   -1.6,   0.98411
"56", 4.16, 1,    2367.59,   -1.4,   0.98577
"58", 4.16, 1,    2363.22,   -1.6,   0.98394
"60", 4.16, 1,    2355.08,   -2.0,   0.98056
"59", 4.16, 1,    2363.02,   -1.6,   0.98386
"61", 4.16, 1,    2355.08,   -2.0,   0.98056
"62", 4.16, 1,    2352.77,   -2.0,    0.9796
"63", 4.16, 1,    2351.32,   -2.0,   0.97899
"64", 4.16, 1,    2348.77,   -2.0,   0.97793
"65", 4.16, 1,    2346.44,   -2.0,   0.97696
"66", 4.16, 1,    2345.86,   -2.0,   0.97672
"67", 4.16, 1,    2293.95,   -2.1,    0.9551
"68", 4.16, 1,    2292.99,   -2.2,   0.95471
"72", 4.16, 1,    2294.08,   -2.2,   0.95516
"97", 4.16, 1,    2292.59,   -2.2,   0.95454
"69", 4.16, 1,     2291.9,   -2.2,   0.95425
"70", 4.16, 1,    2291.12,   -2.2,   0.95393
"71", 4.16, 1,    2290.69,   -2.2,   0.95375
"73", 4.16, 1,    2292.77,   -2.2,   0.95461
"76", 4.16, 1,    2294.47,   -2.3,   0.95532
"74", 4.16, 1,    2291.65,   -2.3,   0.95415
"75", 4.16, 1,    2291.02,   -2.3,   0.95388
"77", 4.16, 1,    2297.09,   -2.4,   0.95641
"86", 4.16, 1,    2293.89,   -2.4,   0.95508
"78", 4.16, 1,    2297.79,   -2.4,    0.9567
"79", 4.16, 1,    2297.68,   -2.4,   0.95666
"80", 4.16, 1,    2301.37,   -2.5,   0.95819
"81", 4.16, 1,    2302.77,   -2.5,   0.95878
"82", 4.16, 1,    2304.96,   -2.5,   0.95969
"84", 4.16, 1,    2301.17,   -2.5,   0.95811
"83", 4.16, 1,    2307.28,   -2.5,   0.96065
"85", 4.16, 1,    2300.42,   -2.5,    0.9578
"87", 4.16, 1,    2293.62,   -2.4,   0.95497
"88", 4.16, 1,    2293.64,   -2.4,   0.95498
"89", 4.16, 1,    2293.51,   -2.4,   0.95492
"90", 4.16, 1,    2293.54,   -2.4,   0.95493
"91", 4.16, 1,    2293.36,   -2.4,   0.95486
"92", 4.16, 1,    2293.39,   -2.4,   0.95487
"93", 4.16, 1,    2293.14,   -2.4,   0.95477
"94", 4.16, 1,     2292.7,   -2.4,   0.95459
"95", 4.16, 1,    2292.99,   -2.4,   0.95471
"96", 4.16, 1,    2292.83,   -2.4,   0.95464
"98", 4.16, 1,    2292.19,   -2.2,   0.95437
"99", 4.16, 1,    2291.65,   -2.2,   0.95415
"100", 4.16, 1,     2291.5,   -2.2,   0.95408
"450", 4.16, 1,     2291.5,   -2.2,   0.95408
"197", 4.16, 1,    2292.59,   -2.2,   0.95454
"101", 4.16, 1,    2291.61,   -2.2,   0.95413
"102", 4.16, 1,    2290.71,   -2.2,   0.95376
"105", 4.16, 1,    2290.86,   -2.2,   0.95382
"103", 4.16, 1,    2289.68,   -2.2,   0.95333
"104", 4.16, 1,    2288.56,   -2.2,   0.95286
"106", 4.16, 1,    2290.15,   -2.2,   0.95352
"108", 4.16, 1,     2290.3,   -2.2,   0.95359
"107", 4.16, 1,    2289.23,   -2.2,   0.95314
"109", 4.16, 1,    2287.79,   -2.2,   0.95254
"300", 4.16, 1,     2290.3,   -2.2,   0.95359
"110", 4.16, 1,     2286.6,   -2.2,   0.95204
"111", 4.16, 1,    2286.14,   -2.2,   0.95185
"112", 4.16, 1,     2286.2,   -2.2,   0.95188
"113", 4.16, 1,    2284.94,   -2.3,   0.95136
"114", 4.16, 1,    2284.69,   -2.3,   0.95125
"135", 4.16, 1,    2365.42,   -1.2,   0.98486
"152", 4.16, 1,    2377.36,   -1.0,   0.98983
"160R", 4.16, 1,     2296.2,   -2.0,   0.95604
"150R", 4.16, 1,       2415,    0.0,    1.0055
"160", 4.16, 1,    2355.08,   -2.0,   0.98056
"610", 4.16, 1,    2355.08,   -2.0,   0.98056
