Bus, BasekV, Node1, Magnitude1, Angle1, pu1
"150", 4.16, 1,       2400,    0.0,   0.99926
"149", 4.16, 1,       2415,    0.0,    1.0055
"1", 4.16, 1,    2403.06,   -0.3,    1.0005
"2", 4.16, 1,    2402.94,   -0.3,    1.0005
"3", 4.16, 1,    2402.18,   -0.3,    1.0002
"7", 4.16, 1,    2394.68,   -0.6,   0.99705
"4", 4.16, 1,     2401.9,   -0.3,    1.0001
"5", 4.16, 1,     2401.5,   -0.3,   0.99988
"6", 4.16, 1,    2401.14,   -0.3,   0.99974
"8", 4.16, 1,    2389.16,   -0.7,   0.99475
"12", 4.16, 1,       2389,   -0.7,   0.99468
"9", 4.16, 1,    2388.36,   -0.7,   0.99441
"13", 4.16, 1,     2381.3,   -0.9,   0.99147
"9R", 4.16, 1,    2313.73,   -0.7,   0.96334
"14", 4.16, 1,    2312.79,   -0.7,   0.96295
"34", 4.16, 1,    2380.77,   -0.9,   0.99125
"18", 4.16, 1,    2370.25,   -1.1,   0.98687
"11", 4.16, 1,    2312.43,   -0.7,    0.9628
"10", 4.16, 1,    2312.61,   -0.7,   0.96288
"15", 4.16, 1,    2380.56,   -0.9,   0.99116
"16", 4.16, 1,    2380.02,   -0.9,   0.99094
"17", 4.16, 1,    2380.31,   -0.9,   0.99106
"19", 4.16, 1,    2369.54,   -1.1,   0.98658
"21", 4.16, 1,    2369.33,   -1.1,   0.98649
"20", 4.16, 1,    2369.08,   -1.1,   0.98638
"22", 4.16, 1,    2368.58,   -1.1,   0.98618
"23", 4.16, 1,    2368.66,   -1.1,   0.98621
"24", 4.16, 1,    2367.88,   -1.1,   0.98589
"25", 4.16, 1,    2368.06,   -1.2,   0.98596
"25R", 4.16, 1,    2427.26,   -1.2,    1.0106
"26", 4.16, 1,    2426.94,   -1.2,    1.0105
"28", 4.16, 1,    2367.79,   -1.2,   0.98585
"27", 4.16, 1,    2426.82,   -1.2,    1.0104
"31", 4.16, 1,    2426.63,   -1.2,    1.0103
"33", 4.16, 1,    2426.12,   -1.2,    1.0101
"29", 4.16, 1,    2367.53,   -1.2,   0.98574
"30", 4.16, 1,    2367.37,   -1.2,   0.98568
"250", 4.16, 1,    2367.37,   -1.2,   0.98568
"32", 4.16, 1,    2426.42,   -1.2,    1.0103
"35", 4.16, 1,    2366.73,   -1.2,   0.98541
"36", 4.16, 1,    2366.13,   -1.2,   0.98516
"40", 4.16, 1,    2364.71,   -1.2,   0.98457
"37", 4.16, 1,     2365.7,   -1.2,   0.98498
"38", 4.16, 1,    2365.77,   -1.2,   0.98501
"39", 4.16, 1,    2365.54,   -1.2,   0.98491
"41", 4.16, 1,    2364.48,   -1.2,   0.98447
"42", 4.16, 1,    2362.75,   -1.2,   0.98375
"43", 4.16, 1,    2362.03,   -1.2,   0.98345
"44", 4.16, 1,    2361.31,   -1.2,   0.98315
"45", 4.16, 1,    2361.02,   -1.2,   0.98303
"47", 4.16, 1,    2359.62,   -1.3,   0.98245
"46", 4.16, 1,    2360.81,   -1.2,   0.98294
"48", 4.16, 1,     2359.2,   -1.3,   0.98227
"49", 4.16, 1,       2359,   -1.3,   0.98219
"50", 4.16, 1,    2358.83,   -1.3,   0.98212
"51", 4.16, 1,    2358.78,   -1.3,    0.9821
"151", 4.16, 1,    2358.78,   -1.3,    0.9821
"52", 4.16, 1,    2376.67,   -1.1,   0.98955
"53", 4.16, 1,    2374.45,   -1.2,   0.98862
"54", 4.16, 1,    2373.12,   -1.3,   0.98807
"55", 4.16, 1,       2373,   -1.3,   0.98802
"57", 4.16, 1,    2369.58,   -1.5,   0.98659
"56", 4.16, 1,    2372.94,   -1.3,   0.98799
"58", 4.16, 1,    2369.22,   -1.5,   0.98644
"60", 4.16, 1,    2362.38,   -1.9,    0.9836
"59", 4.16, 1,    2369.04,   -1.5,   0.98637
"61", 4.16, 1,    2362.38,   -1.9,    0.9836
"62", 4.16, 1,    2360.25,   -1.9,   0.98271
"63", 4.16, 1,    2358.92,   -1.9,   0.98215
"64", 4.16, 1,    2356.56,   -1.9,   0.98117
"65", 4.16, 1,     2354.4,   -1.8,   0.98027
"66", 4.16, 1,    2353.86,   -1.8,   0.98005
"67", 4.16, 1,    2301.57,   -2.0,   0.95828
"68", 4.16, 1,    2300.69,   -2.0,   0.95791
"72", 4.16, 1,    2301.95,   -2.1,   0.95844
"97", 4.16, 1,    2300.32,   -2.0,   0.95776
"69", 4.16, 1,    2299.68,   -2.0,   0.95749
"70", 4.16, 1,    2298.96,   -2.0,   0.95719
"71", 4.16, 1,    2298.56,   -2.0,   0.95702
"73", 4.16, 1,    2300.74,   -2.1,   0.95793
"76", 4.16, 1,     2302.5,   -2.2,   0.95867
"74", 4.16, 1,    2299.71,   -2.1,    0.9575
"75", 4.16, 1,    2299.12,   -2.1,   0.95726
"77", 4.16, 1,    2305.22,   -2.2,    0.9598
"86", 4.16, 1,    2302.09,   -2.2,    0.9585
"78", 4.16, 1,    2305.95,   -2.3,    0.9601
"79", 4.16, 1,    2305.85,   -2.3,   0.96006
"80", 4.16, 1,    2309.61,   -2.3,   0.96163
"81", 4.16, 1,    2311.04,   -2.3,   0.96222
"82", 4.16, 1,    2313.26,   -2.4,   0.96314
"84", 4.16, 1,    2309.56,   -2.4,   0.96161
"83", 4.16, 1,    2315.58,   -2.4,   0.96411
"85", 4.16, 1,    2308.87,   -2.4,   0.96132
"87", 4.16, 1,    2301.93,   -2.3,   0.95843
"88", 4.16, 1,    2301.97,   -2.3,   0.95845
"89", 4.16, 1,    2301.87,   -2.3,    0.9584
"90", 4.16, 1,    2301.92,   -2.3,   0.95843
"91", 4.16, 1,    2301.74,   -2.3,   0.95835
"92", 4.16, 1,    2301.81,   -2.3,   0.95838
"93", 4.16, 1,    2301.53,   -2.3,   0.95826
"94", 4.16, 1,    2301.13,   -2.3,   0.95809
"95", 4.16, 1,     2301.4,   -2.3,   0.95821
"96", 4.16, 1,    2301.25,   -2.3,   0.95815
"98", 4.16, 1,    2299.95,   -2.0,    0.9576
"99", 4.16, 1,    2299.45,   -2.1,   0.95739
"100", 4.16, 1,    2299.31,   -2.1,   0.95734
"450", 4.16, 1,    2299.31,   -2.1,   0.95734
"197", 4.16, 1,    2300.32,   -2.0,   0.95776
"101", 4.16, 1,    2299.41,   -2.1,   0.95738
"102", 4.16, 1,    2298.58,   -2.1,   0.95703
"105", 4.16, 1,    2298.72,   -2.1,   0.95709
"103", 4.16, 1,    2297.63,   -2.1,   0.95664
"104", 4.16, 1,     2296.6,   -2.1,   0.95621
"106", 4.16, 1,    2298.06,   -2.1,   0.95682
"108", 4.16, 1,     2298.2,   -2.1,   0.95688
"107", 4.16, 1,    2297.21,   -2.1,   0.95646
"109", 4.16, 1,    2295.88,   -2.1,   0.95591
"300", 4.16, 1,     2298.2,   -2.1,   0.95688
"110", 4.16, 1,    2294.78,   -2.1,   0.95545
"111", 4.16, 1,    2294.36,   -2.1,   0.95527
"112", 4.16, 1,    2294.41,   -2.1,    0.9553
"113", 4.16, 1,    2293.25,   -2.1,   0.95481
"114", 4.16, 1,    2293.01,   -2.1,   0.95471
"135", 4.16, 1,    2370.25,   -1.1,   0.98687
"152", 4.16, 1,     2381.3,   -0.9,   0.99147
"160R", 4.16, 1,    2303.33,   -1.9,   0.95901
"150R", 4.16, 1,       2415,    0.0,    1.0055
"160", 4.16, 1,    2362.38,   -1.9,    0.9836
"610", 4.16, 1,    2362.38,   -1.9,    0.9836
