hour, t(sec), kWh,State,kWOut,kWIn,kvarOut,DCkW,kWTotalLosses,kWInvLosses,kWIdlingLosses,kWChDchLosses,kWh Chng,InvEff,InverterON,Vref,Vavg (DRC),VV Oper,VW Oper,DRC Oper,VV_DRC Oper,WP Oper,WV Oper,kWDesired,kW VW Limit,Limit kWOut Function,kVA Exceeded,Grid voltage,di/dt,it,it History,Rated VDC,Avg duty cycle,Target (Amps),Series L,Max. Amps (phase),
1, 0.00000, 40, 0, 0, 0, 0, 0, 0, 0, 0, 0, -24, 1, 1, 9999, 9999, 9999, 9999, 9999, 9999, 9999, 9999, 0, 9999, 16, 0, 0, 0, 0, 0, 8000, 0, 0, 0, 0
2, 0.00000, 40, 0, 0, 0, 0, 0, 0, 0, 0, 0, 0, 1, 1, 9999, 9999, 9999, 9999, 9999, 9999, 9999, 9999, 0, 9999, 16, 0, 0, 0, 0, 0, 8000, 0, 0, 0, 0
3, 0.00000, 40, -1, 0, 4.79989, -0.00157933, -4.79989, 0.239994, 0, 0, 0.239994, 0, 1, 1, 9999, 9999, 9999, 9999, 9999, 9999, 9999, 9999, -4.8, 9999, 16, 0, 0, 0, 0, 0, 8000, 0, 0, 0, 0
4, 0.00000, 44.5599, -1, 0, 7.1999, 0.000652811, -7.1999, 0.359995, 0, 0, 0.359995, 4.55989, 1, 1, 9999, 9999, 9999, 9999, 9999, 9999, 9999, 9999, -7.2, 9999, 16, 0, 0, 0, 0, 0, 8000, 0, 0, 0, 0
5, 0.00000, 51.3998, -1, 0, 7.99995, 0.000239946, -7.99995, 0.399997, 0, 0, 0.399997, 6.8399, 1, 1, 9999, 9999, 9999, 9999, 9999, 9999, 9999, 9999, -8, 9999, 16, 0, 0, 0, 0, 0, 8000, 0, 0, 0, 0
6, 0.00000, 58.9997, -1, 0, 7.20005, -0.000208959, -7.20005, 0.360003, 0, 0, 0.360003, 7.59995, 1, 1, 9999, 9999, 9999, 9999, 9999, 9999, 9999, 9999, -7.2, 9999, 16, 0, 0, 0, 0, 0, 8000, 0, 0, 0, 0
7, 0.00000, 64, 0, 0, 0, 0, 0, 0, 0, 0, 0, 5.00025, 1, 1, 9999, 9999, 9999, 9999, 9999, 9999, 9999, 9999, -4.8, 9999, 16, 0, 0, 0, 0, 0, 8000, 0, 0, 0, 0
8, 0.00000, 64, 0, 0, 0, 0, 0, 0, 0, 0, 0, 0, 1, 1, 9999, 9999, 9999, 9999, 9999, 9999, 9999, 9999, 0, 9999, 16, 0, 0, 0, 0, 0, 8000, 0, 0, 0, 0
9, 0.00000, 64, 0, 0, 0, 0, 0, 0, 0, 0, 0, 0, 1, 1, 9999, 9999, 9999, 9999, 9999, 9999, 9999, 9999, 0, 9999, 16, 0, 0, 0, 0, 0, 8000, 0, 0, 0, 0
10, 0.00000, 64, 0, 0, 0, 0, 0, 0, 0, 0, 0, 0, 1, 1, 9999, 9999, 9999, 9999, 9999, 9999, 9999, 9999, 0, 9999, 16, 0, 0, 0, 0, 0, 8000, 0, 0, 0, 0
11, 0.00000, 64, 0, 0, 0, 0, 0, 0, 0, 0, 0, 0, 1, 1, 9999, 9999, 9999, 9999, 9999, 9999, 9999, 9999, 0, 9999, 16, 0, 0, 0, 0, 0, 8000, 0, 0, 0, 0
12, 0.00000, 64, 0, 0, 0, 0, 0, 0, 0, 0, 0, 0, 1, 1, 9999, 9999, 9999, 9999, 9999, 9999, 9999, 9999, 0, 9999, 16, 0, 0, 0, 0, 0, 8000, 0, 0, 0, 0
13, 0.00000, 64, 0, 0, 0, 0, 0, 0, 0, 0, 0, 0, 1, 1, 9999, 9999, 9999, 9999, 9999, 9999, 9999, 9999, 0, 9999, 16, 0, 0, 0, 0, 0, 8000, 0, 0, 0, 0
14, 0.00000, 64, 0, 0, 0, 0, 0, 0, 0, 0, 0, 0, 1, 1, 9999, 9999, 9999, 9999, 9999, 9999, 9999, 9999, 0, 9999, 16, 0, 0, 0, 0, 0, 8000, 0, 0, 0, 0
15, 0.00000, 64, 0, 0, 0, 0, 0, 0, 0, 0, 0, 0, 1, 1, 9999, 9999, 9999, 9999, 9999, 9999, 9999, 9999, 0, 9999, 16, 0, 0, 0, 0, 0, 8000, 0, 0, 0, 0
16, 0.00000, 64, 1, 4.8, 0, -1.92452E-005, 4.8, 0.252632, 0, 0, 0.252632, 0, 1, 1, 9999, 9999, 9999, 9999, 9999, 9999, 9999, 9999, 4.8, 9999, 16, 0, 0, 0, 0, 0, 8000, 0, 0, 0, 0
17, 0.00000, 58.9474, 1, 8.00064, 0, 0.00030041, 8.00064, 0.421086, 0, 0, 0.421086, -5.05264, 1, 1, 9999, 9999, 9999, 9999, 9999, 9999, 9999, 9999, 8, 9999, 16, 0, 0, 0, 0, 0, 8000, 0, 0, 0, 0
18, 0.00000, 50.5256, 1, 12.8001, 0, 4.92563E-005, 12.8001, 0.673688, 0, 0, 0.673688, -8.42173, 1, 1, 9999, 9999, 9999, 9999, 9999, 9999, 9999, 9999, 12.8, 9999, 16, 0, 0, 0, 0, 0, 8000, 0, 0, 0, 0
19, 0.00000, 37.0519, 1, 14.4006, 0, 0.000135422, 14.4006, 0.757928, 0, 0, 0.757928, -13.4738, 1, 1, 9999, 9999, 9999, 9999, 9999, 9999, 9999, 9999, 14.4, 9999, 16, 0, 0, 0, 0, 0, 8000, 0, 0, 0, 0
20, 0.00000, 21.8933, 1, 12.7994, 0, -0.000143989, 12.7994, 0.673655, 0, 0, 0.673655, -15.1586, 1, 1, 9999, 9999, 9999, 9999, 9999, 9999, 9999, 9999, 12.8, 9999, 16, 0, 0, 0, 0, 0, 8000, 0, 0, 0, 0
21, 0.00000, 19.2, 0, 0, 0, 0, 0, 0, 0, 0, 0, -2.69333, 1, 1, 9999, 9999, 9999, 9999, 9999, 9999, 9999, 9999, 8, 9999, 16, 0, 0, 0, 0, 0, 8000, 0, 0, 0, 0
22, 0.00000, 19.2, 0, 0, 0, 0, 0, 0, 0, 0, 0, 0, 1, 1, 9999, 9999, 9999, 9999, 9999, 9999, 9999, 9999, 4.8, 9999, 16, 0, 0, 0, 0, 0, 8000, 0, 0, 0, 0
23, 0.00000, 19.2, 0, 0, 0, 0, 0, 0, 0, 0, 0, 0, 1, 1, 9999, 9999, 9999, 9999, 9999, 9999, 9999, 9999, 0, 9999, 16, 0, 0, 0, 0, 0, 8000, 0, 0, 0, 0
24, 0.00000, 19.2, 0, 0, 0, 0, 0, 0, 0, 0, 0, 0, 1, 1, 9999, 9999, 9999, 9999, 9999, 9999, 9999, 9999, 0, 9999, 16, 0, 0, 0, 0, 0, 8000, 0, 0, 0, 0
