Element, Terminal, P(kW), Q(kvar),  P_Normal, Q_Normal, P_Emergency, Q_Emergency
"Line.L115"             ,   1,       749.1,       322.6,         0.0,         0.0,         0.0,         0.0
"Line.L115"             ,   2,      -746.4,      -317.2
"Line.L1"               ,   1,         5.7,         2.8,         0.0,         0.0,         0.0,         0.0
"Line.L1"               ,   2,        -5.7,        -2.8
"Line.L2"               ,   1,        28.5,        14.3,         0.0,         0.0,         0.0,         0.0
"Line.L2"               ,   2,       -28.5,       -14.3
"Line.L3"               ,   1,       700.8,       294.3,         0.0,         0.0,         0.0,         0.0
"Line.L3"               ,   2,      -699.1,      -290.8
"Line.L4"               ,   1,        11.4,         5.7,         0.0,         0.0,         0.0,         0.0
"Line.L4"               ,   2,       -11.4,        -5.7
"Line.L5"               ,   1,        17.1,         8.6,         0.0,         0.0,         0.0,         0.0
"Line.L5"               ,   2,       -17.1,        -8.6
"Line.L6"               ,   1,        11.4,         5.7,         0.0,         0.0,         0.0,         0.0
"Line.L6"               ,   2,       -11.4,        -5.7
"Line.L7"               ,   1,       693.4,       287.9,         0.0,         0.0,         0.0,         0.0
"Line.L7"               ,   2,      -692.2,      -285.6
"Line.L8"               ,   1,         5.7,         2.8,         0.0,         0.0,         0.0,         0.0
"Line.L8"               ,   2,        -5.7,        -2.8
"Line.L9"               ,   1,        15.2,        14.3,         0.0,         0.0,         0.0,         0.0
"Line.L9"               ,   2,       -15.2,       -14.3
"Line.L10"              ,   1,       671.4,       268.5,         0.0,         0.0,         0.0,         0.0
"Line.L10"              ,   2,      -669.8,      -265.2
"Line.L11"              ,   1,        17.1,         8.6,         0.0,         0.0,         0.0,         0.0
"Line.L11"              ,   2,       -17.1,        -8.5
"Line.L12"              ,   1,        28.5,        14.3,         0.0,         0.0,         0.0,         0.0
"Line.L12"              ,   2,       -28.5,       -14.2
"Line.L13"              ,   1,       235.7,       187.6,         0.0,         0.0,         0.0,         0.0
"Line.L13"              ,   2,      -234.9,      -186.1
"Line.L14"              ,   1,        11.4,         5.7,         0.0,         0.0,         0.0,         0.0
"Line.L14"              ,   2,       -11.4,        -5.7
"Line.L15"              ,   1,         5.7,         2.8,         0.0,         0.0,         0.0,         0.0
"Line.L15"              ,   2,        -5.7,        -2.8
"Line.L16"              ,   1,        11.4,         5.7,         0.0,         0.0,         0.0,         0.0
"Line.L16"              ,   2,       -11.4,        -5.7
"Line.L17"              ,   1,         5.7,         2.8,         0.0,         0.0,         0.0,         0.0
"Line.L17"              ,   2,        -5.7,        -2.8
"Line.L18"              ,   1,        22.8,        11.4,         0.0,         0.0,         0.0,         0.0
"Line.L18"              ,   2,       -22.8,       -11.4
"Line.L19"              ,   1,        66.5,        40.0,         0.0,         0.0,         0.0,         0.0
"Line.L19"              ,   2,       -66.5,       -39.9
"Line.L20"              ,   1,        11.4,         5.7,         0.0,         0.0,         0.0,         0.0
"Line.L20"              ,   2,       -11.4,        -5.7
"Line.L21"              ,   1,        11.4,         5.7,         0.0,         0.0,         0.0,         0.0
"Line.L21"              ,   2,       -11.4,        -5.7
"Line.L22"              ,   1,        55.1,        34.2,         0.0,         0.0,         0.0,         0.0
"Line.L22"              ,   2,       -55.1,       -34.2
"Line.L23"              ,   1,        11.4,         5.7,         0.0,         0.0,         0.0,         0.0
"Line.L23"              ,   2,       -11.4,        -5.7
"Line.L24"              ,   1,        43.7,        28.5,         0.0,         0.0,         0.0,         0.0
"Line.L24"              ,   2,       -43.7,       -28.5
"Line.L25"              ,   1,        22.8,        11.4,         0.0,         0.0,         0.0,         0.0
"Line.L25"              ,   2,       -22.8,       -11.4
"Line.L26"              ,   1,        20.9,        17.1,         0.0,         0.0,         0.0,         0.0
"Line.L26"              ,   2,       -20.9,       -17.1
"Line.L27"              ,   1,        11.4,         5.7,         0.0,         0.0,         0.0,         0.0
"Line.L27"              ,   2,       -11.4,        -5.7
"Line.L28"              ,   1,        11.4,         5.7,         0.0,         0.0,         0.0,         0.0
"Line.L28"              ,   2,       -11.4,        -5.7
"Line.L29"              ,   1,        11.4,         5.7,         0.0,         0.0,         0.0,         0.0
"Line.L29"              ,   2,       -11.4,        -5.7
"Line.L30"              ,   1,        22.8,        11.4,         0.0,         0.0,         0.0,         0.0
"Line.L30"              ,   2,       -22.8,       -11.4
"Line.L31"              ,   1,        11.4,         5.7,         0.0,         0.0,         0.0,         0.0
"Line.L31"              ,   2,       -11.4,        -5.7
"Line.L32"              ,   1,         0.0,        -0.0,         0.0,         0.0,         0.0,         0.0
"Line.L32"              ,   2,        -0.0,        -0.0
"Line.L33"              ,   1,         5.7,         2.8,         0.0,         0.0,         0.0,         0.0
"Line.L33"              ,   2,        -5.7,        -2.8
"Line.L34"              ,   1,        17.1,         8.6,         0.0,         0.0,         0.0,         0.0
"Line.L34"              ,   2,       -17.1,        -8.5
"Line.L35"              ,   1,        22.8,        11.4,         0.0,         0.0,         0.0,         0.0
"Line.L35"              ,   2,       -22.8,       -11.4
"Line.L36"              ,   1,       111.2,       117.3,         0.0,         0.0,         0.0,         0.0
"Line.L36"              ,   2,      -111.1,      -117.2
"Line.L37"              ,   1,        11.4,         5.7,         0.0,         0.0,         0.0,         0.0
"Line.L37"              ,   2,       -11.4,        -5.7
"Line.L38"              ,   1,        11.4,         5.7,         0.0,         0.0,         0.0,         0.0
"Line.L38"              ,   2,       -11.4,        -5.7
"Line.L39"              ,   1,         5.7,         2.8,         0.0,         0.0,         0.0,         0.0
"Line.L39"              ,   2,        -5.7,        -2.8
"Line.L40"              ,   1,         5.7,         2.8,         0.0,         0.0,         0.0,         0.0
"Line.L40"              ,   2,        -5.7,        -2.8
"Line.L41"              ,   1,       105.4,       114.3,         0.0,         0.0,         0.0,         0.0
"Line.L41"              ,   2,      -105.4,      -114.2
"Line.L42"              ,   1,        11.4,         5.7,         0.0,         0.0,         0.0,         0.0
"Line.L42"              ,   2,       -11.4,        -5.7
"Line.L43"              ,   1,        88.3,       105.6,         0.0,         0.0,         0.0,         0.0
"Line.L43"              ,   2,       -88.2,      -105.5
"Line.L44"              ,   1,        11.4,         5.7,         0.0,         0.0,         0.0,         0.0
"Line.L44"              ,   2,       -11.4,        -5.7
"Line.L45"              ,   1,        76.8,        99.8,         0.0,         0.0,         0.0,         0.0
"Line.L45"              ,   2,       -76.8,       -99.8
"Line.L46"              ,   1,         5.7,         2.8,         0.0,         0.0,         0.0,         0.0
"Line.L46"              ,   2,        -5.7,        -2.8
"Line.L47"              ,   1,       -10.1,        42.8,         0.0,         0.0,         0.0,         0.0
"Line.L47"              ,   2,        10.1,       -42.7
"Line.L48"              ,   1,        57.0,        35.6,         0.0,         0.0,         0.0,         0.0
"Line.L48"              ,   2,       -57.0,       -35.6
"Line.L49"              ,   1,        17.1,         8.5,         0.0,         0.0,         0.0,         0.0
"Line.L49"              ,   2,       -17.1,        -8.5
"Line.L50"              ,   1,         5.7,         2.8,         0.0,         0.0,         0.0,         0.0
"Line.L50"              ,   2,        -5.7,        -2.8
"Line.L51"              ,   1,         0.0,        -0.0,         0.0,         0.0,         0.0,         0.0
"Line.L51"              ,   2,        -0.0,        -0.0
"Line.L52"              ,   1,       393.5,        56.2,         0.0,         0.0,         0.0,         0.0
"Line.L52"              ,   2,      -393.2,       -55.5
"Line.L53"              ,   1,       381.8,        49.8,         0.0,         0.0,         0.0,         0.0
"Line.L53"              ,   2,      -381.6,       -49.4
"Line.L54"              ,   1,        11.4,         5.7,         0.0,         0.0,         0.0,         0.0
"Line.L54"              ,   2,       -11.4,        -5.7
"Line.L55"              ,   1,       370.2,        43.7,         0.0,         0.0,         0.0,         0.0
"Line.L55"              ,   2,      -369.7,       -42.7
"Line.L56"              ,   1,         5.7,         2.8,         0.0,         0.0,         0.0,         0.0
"Line.L56"              ,   2,        -5.7,        -2.8
"Line.L57"              ,   1,         4.7,         5.7,         0.0,         0.0,         0.0,         0.0
"Line.L57"              ,   2,        -4.7,        -5.7
"Line.L58"              ,   1,       365.0,        37.0,         0.0,         0.0,         0.0,         0.0
"Line.L58"              ,   2,      -363.9,       -34.9
"Line.L59"              ,   1,         5.7,         2.8,         0.0,         0.0,         0.0,         0.0
"Line.L59"              ,   2,        -5.7,        -2.8
"Line.L60"              ,   1,         0.0,        -0.0,         0.0,         0.0,         0.0,         0.0
"Line.L60"              ,   2,        -0.0,         0.0
"Line.L61"              ,   1,        58.9,        59.8,         0.0,         0.0,         0.0,         0.0
"Line.L61"              ,   2,       -58.9,       -59.8
"Line.L62"              ,   1,        47.5,        54.1,         0.0,         0.0,         0.0,         0.0
"Line.L62"              ,   2,       -47.5,       -54.1
"Line.L63"              ,   1,        36.1,        48.4,         0.0,         0.0,         0.0,         0.0
"Line.L63"              ,   2,       -36.0,       -48.4
"Line.L64"              ,   1,        14.6,        38.4,         0.0,         0.0,         0.0,         0.0
"Line.L64"              ,   2,       -14.6,       -38.5
"Line.L65"              ,   1,        21.4,        10.0,         0.0,         0.0,         0.0,         0.0
"Line.L65"              ,   2,       -21.4,       -10.0
"Line.L66"              ,   1,        34.2,        17.1,         0.0,         0.0,         0.0,         0.0
"Line.L66"              ,   2,       -34.2,       -17.1
"Line.L67"              ,   1,       152.4,      -108.6,         0.0,         0.0,         0.0,         0.0
"Line.L67"              ,   2,      -152.3,       108.8
"Line.L68"              ,   1,       112.3,        63.0,         0.0,         0.0,         0.0,         0.0
"Line.L68"              ,   2,      -112.2,       -62.9
"Line.L69"              ,   1,        28.5,        14.3,         0.0,         0.0,         0.0,         0.0
"Line.L69"              ,   2,       -28.5,       -14.3
"Line.L70"              ,   1,        17.1,         8.6,         0.0,         0.0,         0.0,         0.0
"Line.L70"              ,   2,       -17.1,        -8.5
"Line.L71"              ,   1,        11.4,         5.7,         0.0,         0.0,         0.0,         0.0
"Line.L71"              ,   2,       -11.4,        -5.7
"Line.L72"              ,   1,        34.2,        17.1,         0.0,         0.0,         0.0,         0.0
"Line.L72"              ,   2,       -34.2,       -17.1
"Line.L73"              ,   1,       118.1,      -125.9,         0.0,         0.0,         0.0,         0.0
"Line.L73"              ,   2,      -118.0,       126.1
"Line.L74"              ,   1,        22.8,        11.4,         0.0,         0.0,         0.0,         0.0
"Line.L74"              ,   2,       -22.8,       -11.4
"Line.L75"              ,   1,        11.4,         5.7,         0.0,         0.0,         0.0,         0.0
"Line.L75"              ,   2,       -11.4,        -5.7
"Line.L76"              ,   1,        69.0,      -164.5,         0.0,         0.0,         0.0,         0.0
"Line.L76"              ,   2,       -68.9,       164.8
"Line.L77"              ,   1,        60.8,       -12.8,         0.0,         0.0,         0.0,         0.0
"Line.L77"              ,   2,       -60.8,        12.9
"Line.L78"              ,   1,        57.5,      -170.5,         0.0,         0.0,         0.0,         0.0
"Line.L78"              ,   2,       -57.5,       170.6
"Line.L79"              ,   1,        11.4,         5.7,         0.0,         0.0,         0.0,         0.0
"Line.L79"              ,   2,       -11.4,        -5.7
"Line.L80"              ,   1,        46.1,      -176.3,         0.0,         0.0,         0.0,         0.0
"Line.L80"              ,   2,       -45.9,       176.6
"Line.L81"              ,   1,        34.5,      -182.3,         0.0,         0.0,         0.0,         0.0
"Line.L81"              ,   2,       -34.4,       182.5
"Line.L82"              ,   1,        17.3,      -191.0,         0.0,         0.0,         0.0,         0.0
"Line.L82"              ,   2,       -17.2,       191.2
"Line.L83"              ,   1,        17.1,         8.6,         0.0,         0.0,         0.0,         0.0
"Line.L83"              ,   2,       -17.1,        -8.6
"Line.L84"              ,   1,         5.8,      -196.9,         0.0,         0.0,         0.0,         0.0
"Line.L84"              ,   2,        -5.7,       197.1
"Line.L85"              ,   1,        11.4,         5.7,         0.0,         0.0,         0.0,         0.0
"Line.L85"              ,   2,       -11.4,        -5.7
"Line.L86"              ,   1,        55.1,       -15.7,         0.0,         0.0,         0.0,         0.0
"Line.L86"              ,   2,       -55.1,        15.8
"Line.L87"              ,   1,        11.4,       -11.0,         0.0,         0.0,         0.0,         0.0
"Line.L87"              ,   2,       -11.4,        11.0
"Line.L88"              ,   1,        45.6,       -10.5,         0.0,         0.0,         0.0,         0.0
"Line.L88"              ,   2,       -45.6,        10.5
"Line.L89"              ,   1,        11.4,       -11.0,         0.0,         0.0,         0.0,         0.0
"Line.L89"              ,   2,       -11.4,        11.0
"Line.L90"              ,   1,        34.2,         0.4,         0.0,         0.0,         0.0,         0.0
"Line.L90"              ,   2,       -34.2,        -0.4
"Line.L91"              ,   1,        11.4,       -11.0,         0.0,         0.0,         0.0,         0.0
"Line.L91"              ,   2,       -11.4,        11.0
"Line.L92"              ,   1,        22.8,        11.4,         0.0,         0.0,         0.0,         0.0
"Line.L92"              ,   2,       -22.8,       -11.4
"Line.L93"              ,   1,        11.4,         5.7,         0.0,         0.0,         0.0,         0.0
"Line.L93"              ,   2,       -11.4,        -5.7
"Line.L94"              ,   1,        11.4,         5.7,         0.0,         0.0,         0.0,         0.0
"Line.L94"              ,   2,       -11.4,        -5.7
"Line.L95"              ,   1,         5.7,         2.8,         0.0,         0.0,         0.0,         0.0
"Line.L95"              ,   2,        -5.7,        -2.8
"Line.L96"              ,   1,        20.9,        17.1,         0.0,         0.0,         0.0,         0.0
"Line.L96"              ,   2,       -20.9,       -17.1
"Line.L97"              ,   1,         9.5,        11.4,         0.0,         0.0,         0.0,         0.0
"Line.L97"              ,   2,        -9.5,       -11.4
"Line.L98"              ,   1,        -1.9,         5.7,         0.0,         0.0,         0.0,         0.0
"Line.L98"              ,   2,         1.9,        -5.7
"Line.L99"              ,   1,         0.0,        -0.0,         0.0,         0.0,         0.0,         0.0
"Line.L99"              ,   2,         0.0,         0.0
"Line.L118"             ,   1,        91.3,        45.8,         0.0,         0.0,         0.0,         0.0
"Line.L118"             ,   2,       -91.3,       -45.7
"Line.L100"             ,   1,        28.5,        14.3,         0.0,         0.0,         0.0,         0.0
"Line.L100"             ,   2,       -28.5,       -14.3
"Line.L101"             ,   1,        62.8,        31.5,         0.0,         0.0,         0.0,         0.0
"Line.L101"             ,   2,       -62.8,       -31.4
"Line.L102"             ,   1,        22.8,        11.4,         0.0,         0.0,         0.0,         0.0
"Line.L102"             ,   2,       -22.8,       -11.4
"Line.L103"             ,   1,        11.4,         5.7,         0.0,         0.0,         0.0,         0.0
"Line.L103"             ,   2,       -11.4,        -5.7
"Line.L104"             ,   1,        22.8,        11.4,         0.0,         0.0,         0.0,         0.0
"Line.L104"             ,   2,       -22.8,       -11.4
"Line.L105"             ,   1,        40.0,        20.0,         0.0,         0.0,         0.0,         0.0
"Line.L105"             ,   2,       -40.0,       -20.0
"Line.L106"             ,   1,        11.4,         5.7,         0.0,         0.0,         0.0,         0.0
"Line.L106"             ,   2,       -11.4,        -5.7
"Line.L107"             ,   1,        40.0,        20.0,         0.0,         0.0,         0.0,         0.0
"Line.L107"             ,   2,       -39.9,       -20.0
"Line.L108"             ,   1,         0.0,        -0.0,         0.0,         0.0,         0.0,         0.0
"Line.L108"             ,   2,         0.0,         0.0
"Line.L109"             ,   1,        28.5,        14.3,         0.0,         0.0,         0.0,         0.0
"Line.L109"             ,   2,       -28.5,       -14.3
"Line.L110"             ,   1,         5.7,         2.8,         0.0,         0.0,         0.0,         0.0
"Line.L110"             ,   2,        -5.7,        -2.8
"Line.L111"             ,   1,        22.8,        11.4,         0.0,         0.0,         0.0,         0.0
"Line.L111"             ,   2,       -22.8,       -11.4
"Line.L112"             ,   1,        17.1,         8.6,         0.0,         0.0,         0.0,         0.0
"Line.L112"             ,   2,       -17.1,        -8.5
"Line.L113"             ,   1,         5.7,         2.8,         0.0,         0.0,         0.0,         0.0
"Line.L113"             ,   2,        -5.7,        -2.8
"Line.L114"             ,   1,       145.6,       134.7,         0.0,         0.0,         0.0,         0.0
"Line.L114"             ,   2,      -145.4,      -134.4
"Line.L116"             ,   1,       405.6,        63.3,         0.0,         0.0,         0.0,         0.0
"Line.L116"             ,   2,      -404.9,       -61.9
"Line.L117"             ,   1,       299.3,       -27.8,         0.0,         0.0,         0.0,         0.0
"Line.L117"             ,   2,      -298.9,        28.5
"Line.SW1"              ,   1,       749.1,       322.6,         0.0,         0.0,         0.0,         0.0
"Line.SW1"              ,   2,      -749.1,      -322.6
"Line.SW2"              ,   1,       405.6,        63.3,         0.0,         0.0,         0.0,         0.0
"Line.SW2"              ,   2,      -405.6,       -63.3
"Line.SW3"              ,   1,       145.6,       134.7,         0.0,         0.0,         0.0,         0.0
"Line.SW3"              ,   2,      -145.6,      -134.7
