Element, Terminal, P(kW), Q(kvar),  P_Normal, Q_Normal, P_Emergency, Q_Emergency
"Line.L115"             ,   1,       525.3,       190.2,         0.0,         0.0,         0.0,         0.0
"Line.L115"             ,   2,      -524.0,      -187.7
"Line.L1"               ,   1,         4.5,         2.2,         0.0,         0.0,         0.0,         0.0
"Line.L1"               ,   2,        -4.5,        -2.2
"Line.L2"               ,   1,        22.3,        11.1,         0.0,         0.0,         0.0,         0.0
"Line.L2"               ,   2,       -22.3,       -11.1
"Line.L3"               ,   1,       488.4,       169.9,         0.0,         0.0,         0.0,         0.0
"Line.L3"               ,   2,      -487.6,      -168.2
"Line.L4"               ,   1,         8.9,         4.5,         0.0,         0.0,         0.0,         0.0
"Line.L4"               ,   2,        -8.9,        -4.5
"Line.L5"               ,   1,        13.4,         6.7,         0.0,         0.0,         0.0,         0.0
"Line.L5"               ,   2,       -13.4,        -6.7
"Line.L6"               ,   1,         8.9,         4.5,         0.0,         0.0,         0.0,         0.0
"Line.L6"               ,   2,        -8.9,        -4.5
"Line.L7"               ,   1,       483.1,       166.0,         0.0,         0.0,         0.0,         0.0
"Line.L7"               ,   2,      -482.6,      -164.9
"Line.L8"               ,   1,         4.5,         2.2,         0.0,         0.0,         0.0,         0.0
"Line.L8"               ,   2,        -4.5,        -2.2
"Line.L9"               ,   1,         8.9,        11.1,         0.0,         0.0,         0.0,         0.0
"Line.L9"               ,   2,        -8.9,       -11.1
"Line.L10"              ,   1,       469.2,       151.6,         0.0,         0.0,         0.0,         0.0
"Line.L10"              ,   2,      -468.5,      -150.0
"Line.L11"              ,   1,        13.4,         6.7,         0.0,         0.0,         0.0,         0.0
"Line.L11"              ,   2,       -13.4,        -6.7
"Line.L12"              ,   1,        22.3,        11.1,         0.0,         0.0,         0.0,         0.0
"Line.L12"              ,   2,       -22.3,       -11.1
"Line.L13"              ,   1,       165.6,       146.0,         0.0,         0.0,         0.0,         0.0
"Line.L13"              ,   2,      -165.2,      -145.1
"Line.L14"              ,   1,         8.9,         4.5,         0.0,         0.0,         0.0,         0.0
"Line.L14"              ,   2,        -8.9,        -4.5
"Line.L15"              ,   1,         4.5,         2.2,         0.0,         0.0,         0.0,         0.0
"Line.L15"              ,   2,        -4.5,        -2.2
"Line.L16"              ,   1,         8.9,         4.5,         0.0,         0.0,         0.0,         0.0
"Line.L16"              ,   2,        -8.9,        -4.5
"Line.L17"              ,   1,         4.5,         2.2,         0.0,         0.0,         0.0,         0.0
"Line.L17"              ,   2,        -4.5,        -2.2
"Line.L18"              ,   1,        17.8,         8.9,         0.0,         0.0,         0.0,         0.0
"Line.L18"              ,   2,       -17.8,        -8.9
"Line.L19"              ,   1,        49.0,        31.2,         0.0,         0.0,         0.0,         0.0
"Line.L19"              ,   2,       -49.0,       -31.2
"Line.L20"              ,   1,         8.9,         4.5,         0.0,         0.0,         0.0,         0.0
"Line.L20"              ,   2,        -8.9,        -4.5
"Line.L21"              ,   1,         8.9,         4.5,         0.0,         0.0,         0.0,         0.0
"Line.L21"              ,   2,        -8.9,        -4.5
"Line.L22"              ,   1,        40.1,        26.7,         0.0,         0.0,         0.0,         0.0
"Line.L22"              ,   2,       -40.1,       -26.7
"Line.L23"              ,   1,         8.9,         4.5,         0.0,         0.0,         0.0,         0.0
"Line.L23"              ,   2,        -8.9,        -4.5
"Line.L24"              ,   1,        31.2,        22.3,         0.0,         0.0,         0.0,         0.0
"Line.L24"              ,   2,       -31.2,       -22.3
"Line.L25"              ,   1,        17.8,         8.9,         0.0,         0.0,         0.0,         0.0
"Line.L25"              ,   2,       -17.8,        -8.9
"Line.L26"              ,   1,        13.4,        13.4,         0.0,         0.0,         0.0,         0.0
"Line.L26"              ,   2,       -13.4,       -13.4
"Line.L27"              ,   1,         8.9,         4.5,         0.0,         0.0,         0.0,         0.0
"Line.L27"              ,   2,        -8.9,        -4.5
"Line.L28"              ,   1,         8.9,         4.5,         0.0,         0.0,         0.0,         0.0
"Line.L28"              ,   2,        -8.9,        -4.5
"Line.L29"              ,   1,         8.9,         4.5,         0.0,         0.0,         0.0,         0.0
"Line.L29"              ,   2,        -8.9,        -4.5
"Line.L30"              ,   1,        17.8,         8.9,         0.0,         0.0,         0.0,         0.0
"Line.L30"              ,   2,       -17.8,        -8.9
"Line.L31"              ,   1,         8.9,         4.5,         0.0,         0.0,         0.0,         0.0
"Line.L31"              ,   2,        -8.9,        -4.5
"Line.L32"              ,   1,         0.0,        -0.0,         0.0,         0.0,         0.0,         0.0
"Line.L32"              ,   2,         0.0,         0.0
"Line.L33"              ,   1,         4.5,         2.2,         0.0,         0.0,         0.0,         0.0
"Line.L33"              ,   2,        -4.5,        -2.2
"Line.L34"              ,   1,        13.4,         6.7,         0.0,         0.0,         0.0,         0.0
"Line.L34"              ,   2,       -13.4,        -6.7
"Line.L35"              ,   1,        17.8,         8.9,         0.0,         0.0,         0.0,         0.0
"Line.L35"              ,   2,       -17.8,        -8.9
"Line.L36"              ,   1,        71.5,        91.5,         0.0,         0.0,         0.0,         0.0
"Line.L36"              ,   2,       -71.5,       -91.4
"Line.L37"              ,   1,         8.9,         4.5,         0.0,         0.0,         0.0,         0.0
"Line.L37"              ,   2,        -8.9,        -4.5
"Line.L38"              ,   1,         8.9,         4.5,         0.0,         0.0,         0.0,         0.0
"Line.L38"              ,   2,        -8.9,        -4.5
"Line.L39"              ,   1,         4.5,         2.2,         0.0,         0.0,         0.0,         0.0
"Line.L39"              ,   2,        -4.5,        -2.2
"Line.L40"              ,   1,         4.5,         2.2,         0.0,         0.0,         0.0,         0.0
"Line.L40"              ,   2,        -4.5,        -2.2
"Line.L41"              ,   1,        67.0,        89.2,         0.0,         0.0,         0.0,         0.0
"Line.L41"              ,   2,       -67.0,       -89.2
"Line.L42"              ,   1,         8.9,         4.5,         0.0,         0.0,         0.0,         0.0
"Line.L42"              ,   2,        -8.9,        -4.5
"Line.L43"              ,   1,        53.6,        82.5,         0.0,         0.0,         0.0,         0.0
"Line.L43"              ,   2,       -53.6,       -82.4
"Line.L44"              ,   1,         8.9,         4.5,         0.0,         0.0,         0.0,         0.0
"Line.L44"              ,   2,        -8.9,        -4.5
"Line.L45"              ,   1,        44.7,        78.0,         0.0,         0.0,         0.0,         0.0
"Line.L45"              ,   2,       -44.7,       -77.9
"Line.L46"              ,   1,         4.5,         2.2,         0.0,         0.0,         0.0,         0.0
"Line.L46"              ,   2,        -4.5,        -2.2
"Line.L47"              ,   1,       -23.2,        33.4,         0.0,         0.0,         0.0,         0.0
"Line.L47"              ,   2,        23.2,       -33.4
"Line.L48"              ,   1,        44.5,        27.8,         0.0,         0.0,         0.0,         0.0
"Line.L48"              ,   2,       -44.5,       -27.8
"Line.L49"              ,   1,        13.4,         6.7,         0.0,         0.0,         0.0,         0.0
"Line.L49"              ,   2,       -13.4,        -6.7
"Line.L50"              ,   1,         4.5,         2.2,         0.0,         0.0,         0.0,         0.0
"Line.L50"              ,   2,        -4.5,        -2.2
"Line.L51"              ,   1,         0.0,        -0.0,         0.0,         0.0,         0.0,         0.0
"Line.L51"              ,   2,         0.0,         0.0
"Line.L52"              ,   1,       271.4,       -12.2,         0.0,         0.0,         0.0,         0.0
"Line.L52"              ,   2,      -271.2,        12.5
"Line.L53"              ,   1,       262.3,       -16.9,         0.0,         0.0,         0.0,         0.0
"Line.L53"              ,   2,      -262.2,        17.1
"Line.L54"              ,   1,         8.9,         4.5,         0.0,         0.0,         0.0,         0.0
"Line.L54"              ,   2,        -8.9,        -4.5
"Line.L55"              ,   1,       253.3,       -21.5,         0.0,         0.0,         0.0,         0.0
"Line.L55"              ,   2,      -253.1,        22.0
"Line.L56"              ,   1,         4.5,         2.2,         0.0,         0.0,         0.0,         0.0
"Line.L56"              ,   2,        -4.5,        -2.2
"Line.L57"              ,   1,         2.2,         4.5,         0.0,         0.0,         0.0,         0.0
"Line.L57"              ,   2,        -2.2,        -4.5
"Line.L58"              ,   1,       250.9,       -26.5,         0.0,         0.0,         0.0,         0.0
"Line.L58"              ,   2,      -250.4,        27.5
"Line.L59"              ,   1,         4.5,         2.2,         0.0,         0.0,         0.0,         0.0
"Line.L59"              ,   2,        -4.5,        -2.2
"Line.L60"              ,   1,         0.0,        -0.0,         0.0,         0.0,         0.0,         0.0
"Line.L60"              ,   2,        -0.0,         0.0
"Line.L61"              ,   1,        35.8,        46.7,         0.0,         0.0,         0.0,         0.0
"Line.L61"              ,   2,       -35.8,       -46.7
"Line.L62"              ,   1,        26.9,        42.2,         0.0,         0.0,         0.0,         0.0
"Line.L62"              ,   2,       -26.8,       -42.2
"Line.L63"              ,   1,        17.9,        37.8,         0.0,         0.0,         0.0,         0.0
"Line.L63"              ,   2,       -17.9,       -37.8
"Line.L64"              ,   1,         1.2,        30.0,         0.0,         0.0,         0.0,         0.0
"Line.L64"              ,   2,        -1.2,       -30.0
"Line.L65"              ,   1,        16.7,         7.8,         0.0,         0.0,         0.0,         0.0
"Line.L65"              ,   2,       -16.7,        -7.8
"Line.L66"              ,   1,        26.7,        13.4,         0.0,         0.0,         0.0,         0.0
"Line.L66"              ,   2,       -26.7,       -13.4
"Line.L67"              ,   1,        98.4,      -139.3,         0.0,         0.0,         0.0,         0.0
"Line.L67"              ,   2,       -98.4,       139.4
"Line.L68"              ,   1,        84.8,        49.1,         0.0,         0.0,         0.0,         0.0
"Line.L68"              ,   2,       -84.7,       -49.1
"Line.L69"              ,   1,        22.3,        11.1,         0.0,         0.0,         0.0,         0.0
"Line.L69"              ,   2,       -22.3,       -11.1
"Line.L70"              ,   1,        13.4,         6.7,         0.0,         0.0,         0.0,         0.0
"Line.L70"              ,   2,       -13.4,        -6.7
"Line.L71"              ,   1,         8.9,         4.5,         0.0,         0.0,         0.0,         0.0
"Line.L71"              ,   2,        -8.9,        -4.5
"Line.L72"              ,   1,        26.7,        13.4,         0.0,         0.0,         0.0,         0.0
"Line.L72"              ,   2,       -26.7,       -13.4
"Line.L73"              ,   1,        71.6,      -152.8,         0.0,         0.0,         0.0,         0.0
"Line.L73"              ,   2,       -71.6,       152.9
"Line.L74"              ,   1,        17.8,         8.9,         0.0,         0.0,         0.0,         0.0
"Line.L74"              ,   2,       -17.8,        -8.9
"Line.L75"              ,   1,         8.9,         4.5,         0.0,         0.0,         0.0,         0.0
"Line.L75"              ,   2,        -8.9,        -4.5
"Line.L76"              ,   1,        54.1,      -172.0,         0.0,         0.0,         0.0,         0.0
"Line.L76"              ,   2,       -53.9,       172.3
"Line.L77"              ,   1,        44.6,       -21.0,         0.0,         0.0,         0.0,         0.0
"Line.L77"              ,   2,       -44.6,        21.0
"Line.L78"              ,   1,        45.0,      -176.8,         0.0,         0.0,         0.0,         0.0
"Line.L78"              ,   2,       -45.0,       176.8
"Line.L79"              ,   1,         8.9,         4.5,         0.0,         0.0,         0.0,         0.0
"Line.L79"              ,   2,        -8.9,        -4.5
"Line.L80"              ,   1,        36.1,      -181.3,         0.0,         0.0,         0.0,         0.0
"Line.L80"              ,   2,       -35.9,       181.6
"Line.L81"              ,   1,        27.0,      -186.1,         0.0,         0.0,         0.0,         0.0
"Line.L81"              ,   2,       -26.9,       186.2
"Line.L82"              ,   1,        13.6,      -192.9,         0.0,         0.0,         0.0,         0.0
"Line.L82"              ,   2,       -13.5,       193.1
"Line.L83"              ,   1,        13.4,         6.7,         0.0,         0.0,         0.0,         0.0
"Line.L83"              ,   2,       -13.4,        -6.7
"Line.L84"              ,   1,         4.6,      -197.6,         0.0,         0.0,         0.0,         0.0
"Line.L84"              ,   2,        -4.5,       197.8
"Line.L85"              ,   1,         8.9,         4.5,         0.0,         0.0,         0.0,         0.0
"Line.L85"              ,   2,        -8.9,        -4.5
"Line.L86"              ,   1,        40.1,       -23.2,         0.0,         0.0,         0.0,         0.0
"Line.L86"              ,   2,       -40.1,        23.3
"Line.L87"              ,   1,         8.9,       -12.2,         0.0,         0.0,         0.0,         0.0
"Line.L87"              ,   2,        -8.9,        12.2
"Line.L88"              ,   1,        35.6,       -15.5,         0.0,         0.0,         0.0,         0.0
"Line.L88"              ,   2,       -35.6,        15.5
"Line.L89"              ,   1,         8.9,       -12.2,         0.0,         0.0,         0.0,         0.0
"Line.L89"              ,   2,        -8.9,        12.2
"Line.L90"              ,   1,        26.7,        -3.3,         0.0,         0.0,         0.0,         0.0
"Line.L90"              ,   2,       -26.7,         3.3
"Line.L91"              ,   1,         8.9,       -12.2,         0.0,         0.0,         0.0,         0.0
"Line.L91"              ,   2,        -8.9,        12.2
"Line.L92"              ,   1,        17.8,         8.9,         0.0,         0.0,         0.0,         0.0
"Line.L92"              ,   2,       -17.8,        -8.9
"Line.L93"              ,   1,         8.9,         4.5,         0.0,         0.0,         0.0,         0.0
"Line.L93"              ,   2,        -8.9,        -4.5
"Line.L94"              ,   1,         8.9,         4.5,         0.0,         0.0,         0.0,         0.0
"Line.L94"              ,   2,        -8.9,        -4.5
"Line.L95"              ,   1,         4.5,         2.2,         0.0,         0.0,         0.0,         0.0
"Line.L95"              ,   2,        -4.5,        -2.2
"Line.L96"              ,   1,        13.4,        13.4,         0.0,         0.0,         0.0,         0.0
"Line.L96"              ,   2,       -13.4,       -13.4
"Line.L97"              ,   1,         4.5,         8.9,         0.0,         0.0,         0.0,         0.0
"Line.L97"              ,   2,        -4.5,        -8.9
"Line.L98"              ,   1,        -4.4,         4.4,         0.0,         0.0,         0.0,         0.0
"Line.L98"              ,   2,         4.4,        -4.4
"Line.L99"              ,   1,         0.0,        -0.0,         0.0,         0.0,         0.0,         0.0
"Line.L99"              ,   2,        -0.0,        -0.0
"Line.L118"             ,   1,        71.3,        35.7,         0.0,         0.0,         0.0,         0.0
"Line.L118"             ,   2,       -71.3,       -35.7
"Line.L100"             ,   1,        22.3,        11.1,         0.0,         0.0,         0.0,         0.0
"Line.L100"             ,   2,       -22.3,       -11.1
"Line.L101"             ,   1,        49.0,        24.5,         0.0,         0.0,         0.0,         0.0
"Line.L101"             ,   2,       -49.0,       -24.5
"Line.L102"             ,   1,        17.8,         8.9,         0.0,         0.0,         0.0,         0.0
"Line.L102"             ,   2,       -17.8,        -8.9
"Line.L103"             ,   1,         8.9,         4.5,         0.0,         0.0,         0.0,         0.0
"Line.L103"             ,   2,        -8.9,        -4.5
"Line.L104"             ,   1,        17.8,         8.9,         0.0,         0.0,         0.0,         0.0
"Line.L104"             ,   2,       -17.8,        -8.9
"Line.L105"             ,   1,        31.2,        15.6,         0.0,         0.0,         0.0,         0.0
"Line.L105"             ,   2,       -31.2,       -15.6
"Line.L106"             ,   1,         8.9,         4.5,         0.0,         0.0,         0.0,         0.0
"Line.L106"             ,   2,        -8.9,        -4.5
"Line.L107"             ,   1,        31.2,        15.6,         0.0,         0.0,         0.0,         0.0
"Line.L107"             ,   2,       -31.2,       -15.6
"Line.L108"             ,   1,         0.0,        -0.0,         0.0,         0.0,         0.0,         0.0
"Line.L108"             ,   2,         0.0,        -0.0
"Line.L109"             ,   1,        22.3,        11.1,         0.0,         0.0,         0.0,         0.0
"Line.L109"             ,   2,       -22.3,       -11.1
"Line.L110"             ,   1,         4.5,         2.2,         0.0,         0.0,         0.0,         0.0
"Line.L110"             ,   2,        -4.5,        -2.2
"Line.L111"             ,   1,        17.8,         8.9,         0.0,         0.0,         0.0,         0.0
"Line.L111"             ,   2,       -17.8,        -8.9
"Line.L112"             ,   1,        13.4,         6.7,         0.0,         0.0,         0.0,         0.0
"Line.L112"             ,   2,       -13.4,        -6.7
"Line.L113"             ,   1,         4.5,         2.2,         0.0,         0.0,         0.0,         0.0
"Line.L113"             ,   2,        -4.5,        -2.2
"Line.L114"             ,   1,        98.3,       105.0,         0.0,         0.0,         0.0,         0.0
"Line.L114"             ,   2,       -98.2,      -104.9
"Line.L116"             ,   1,       280.6,        -7.1,         0.0,         0.0,         0.0,         0.0
"Line.L116"             ,   2,      -280.3,         7.7
"Line.L117"             ,   1,       210.1,       -76.4,         0.0,         0.0,         0.0,         0.0
"Line.L117"             ,   2,      -209.9,        76.8
"Line.SW1"              ,   1,       525.3,       190.2,         0.0,         0.0,         0.0,         0.0
"Line.SW1"              ,   2,      -525.3,      -190.2
"Line.SW2"              ,   1,       280.6,        -7.1,         0.0,         0.0,         0.0,         0.0
"Line.SW2"              ,   2,      -280.6,         7.1
"Line.SW3"              ,   1,        98.3,       105.0,         0.0,         0.0,         0.0,         0.0
"Line.SW3"              ,   2,       -98.3,      -105.0
