Element, Terminal, P(kW), Q(kvar),  P_Normal, Q_Normal, P_Emergency, Q_Emergency
"Line.L115"             ,   1,      1168.1,       479.8,       274.5,       112.8,         0.0,         0.0
"Line.L115"             ,   2,     -1161.8,      -466.8
"Line.L1"               ,   1,         6.7,         3.3,         0.0,         0.0,         0.0,         0.0
"Line.L1"               ,   2,        -6.7,        -3.3
"Line.L2"               ,   1,        33.4,        16.7,         0.0,         0.0,         0.0,         0.0
"Line.L2"               ,   2,       -33.3,       -16.7
"Line.L3"               ,   1,      1108.4,       440.1,       218.2,        86.7,         0.0,         0.0
"Line.L3"               ,   2,     -1104.1,      -431.3
"Line.L4"               ,   1,        13.3,         6.7,         0.0,         0.0,         0.0,         0.0
"Line.L4"               ,   2,       -13.3,        -6.7
"Line.L5"               ,   1,        20.0,        10.0,         0.0,         0.0,         0.0,         0.0
"Line.L5"               ,   2,       -20.0,       -10.0
"Line.L6"               ,   1,        13.3,         6.7,         0.0,         0.0,         0.0,         0.0
"Line.L6"               ,   2,       -13.3,        -6.7
"Line.L7"               ,   1,      1097.4,       428.0,       210.5,        82.1,         0.0,         0.0
"Line.L7"               ,   2,     -1094.6,      -422.1
"Line.L8"               ,   1,         6.7,         3.3,         0.0,         0.0,         0.0,         0.0
"Line.L8"               ,   2,        -6.7,        -3.3
"Line.L9"               ,   1,        32.0,        16.7,         0.0,         0.0,         0.0,         0.0
"Line.L9"               ,   2,       -32.0,       -16.7
"Line.L10"              ,   1,      1055.9,       402.1,       169.9,        64.7,         0.0,         0.0
"Line.L10"              ,   2,     -1051.9,      -394.0
"Line.L11"              ,   1,        20.0,        10.0,         0.0,         0.0,         0.0,         0.0
"Line.L11"              ,   2,       -20.0,       -10.0
"Line.L12"              ,   1,        33.3,        16.7,         0.0,         0.0,         0.0,         0.0
"Line.L12"              ,   2,       -33.3,       -16.7
"Line.L13"              ,   1,       365.9,       221.9,         0.0,         0.0,         0.0,         0.0
"Line.L13"              ,   2,      -364.3,      -218.6
"Line.L14"              ,   1,        13.3,         6.7,         0.0,         0.0,         0.0,         0.0
"Line.L14"              ,   2,       -13.3,        -6.7
"Line.L15"              ,   1,         6.7,         3.3,         0.0,         0.0,         0.0,         0.0
"Line.L15"              ,   2,        -6.7,        -3.3
"Line.L16"              ,   1,        13.3,         6.7,         0.0,         0.0,         0.0,         0.0
"Line.L16"              ,   2,       -13.3,        -6.7
"Line.L17"              ,   1,         6.7,         3.3,         0.0,         0.0,         0.0,         0.0
"Line.L17"              ,   2,        -6.7,        -3.3
"Line.L18"              ,   1,        26.7,        13.3,         0.0,         0.0,         0.0,         0.0
"Line.L18"              ,   2,       -26.7,       -13.3
"Line.L19"              ,   1,        92.1,        46.8,         0.0,         0.0,         0.0,         0.0
"Line.L19"              ,   2,       -92.1,       -46.8
"Line.L20"              ,   1,        13.3,         6.7,         0.0,         0.0,         0.0,         0.0
"Line.L20"              ,   2,       -13.3,        -6.7
"Line.L21"              ,   1,        13.3,         6.7,         0.0,         0.0,         0.0,         0.0
"Line.L21"              ,   2,       -13.3,        -6.7
"Line.L22"              ,   1,        78.7,        40.1,         0.0,         0.0,         0.0,         0.0
"Line.L22"              ,   2,       -78.7,       -40.0
"Line.L23"              ,   1,        13.3,         6.7,         0.0,         0.0,         0.0,         0.0
"Line.L23"              ,   2,       -13.3,        -6.7
"Line.L24"              ,   1,        65.4,        33.4,         0.0,         0.0,         0.0,         0.0
"Line.L24"              ,   2,       -65.3,       -33.3
"Line.L25"              ,   1,        26.7,        13.3,         0.0,         0.0,         0.0,         0.0
"Line.L25"              ,   2,       -26.7,       -13.3
"Line.L26"              ,   1,        38.7,        20.0,         0.0,         0.0,         0.0,         0.0
"Line.L26"              ,   2,       -38.7,       -20.0
"Line.L27"              ,   1,        13.3,         6.7,         0.0,         0.0,         0.0,         0.0
"Line.L27"              ,   2,       -13.3,        -6.7
"Line.L28"              ,   1,        13.3,         6.7,         0.0,         0.0,         0.0,         0.0
"Line.L28"              ,   2,       -13.3,        -6.7
"Line.L29"              ,   1,        13.3,         6.7,         0.0,         0.0,         0.0,         0.0
"Line.L29"              ,   2,       -13.3,        -6.7
"Line.L30"              ,   1,        26.7,        13.3,         0.0,         0.0,         0.0,         0.0
"Line.L30"              ,   2,       -26.7,       -13.3
"Line.L31"              ,   1,        13.3,         6.7,         0.0,         0.0,         0.0,         0.0
"Line.L31"              ,   2,       -13.3,        -6.7
"Line.L32"              ,   1,        -0.0,        -0.0,         0.0,         0.0,         0.0,         0.0
"Line.L32"              ,   2,         0.0,        -0.0
"Line.L33"              ,   1,         6.7,         3.3,         0.0,         0.0,         0.0,         0.0
"Line.L33"              ,   2,        -6.7,        -3.3
"Line.L34"              ,   1,        20.0,        10.0,         0.0,         0.0,         0.0,         0.0
"Line.L34"              ,   2,       -20.0,       -10.0
"Line.L35"              ,   1,        26.7,        13.3,         0.0,         0.0,         0.0,         0.0
"Line.L35"              ,   2,       -26.7,       -13.3
"Line.L36"              ,   1,       205.2,       137.8,         0.0,         0.0,         0.0,         0.0
"Line.L36"              ,   2,      -205.1,      -137.4
"Line.L37"              ,   1,        13.3,         6.7,         0.0,         0.0,         0.0,         0.0
"Line.L37"              ,   2,       -13.3,        -6.7
"Line.L38"              ,   1,        13.3,         6.7,         0.0,         0.0,         0.0,         0.0
"Line.L38"              ,   2,       -13.3,        -6.7
"Line.L39"              ,   1,         6.7,         3.3,         0.0,         0.0,         0.0,         0.0
"Line.L39"              ,   2,        -6.7,        -3.3
"Line.L40"              ,   1,         6.7,         3.3,         0.0,         0.0,         0.0,         0.0
"Line.L40"              ,   2,        -6.7,        -3.3
"Line.L41"              ,   1,       198.4,       134.1,         0.0,         0.0,         0.0,         0.0
"Line.L41"              ,   2,      -198.2,      -133.8
"Line.L42"              ,   1,        13.3,         6.7,         0.0,         0.0,         0.0,         0.0
"Line.L42"              ,   2,       -13.3,        -6.7
"Line.L43"              ,   1,       178.2,       123.8,         0.0,         0.0,         0.0,         0.0
"Line.L43"              ,   2,      -178.1,      -123.6
"Line.L44"              ,   1,        13.3,         6.7,         0.0,         0.0,         0.0,         0.0
"Line.L44"              ,   2,       -13.3,        -6.7
"Line.L45"              ,   1,       164.8,       116.9,         0.0,         0.0,         0.0,         0.0
"Line.L45"              ,   2,      -164.7,      -116.7
"Line.L46"              ,   1,         6.7,         3.3,         0.0,         0.0,         0.0,         0.0
"Line.L46"              ,   2,        -6.7,        -3.3
"Line.L47"              ,   1,        63.0,        50.0,         0.0,         0.0,         0.0,         0.0
"Line.L47"              ,   2,       -63.0,       -50.0
"Line.L48"              ,   1,        66.7,        41.7,         0.0,         0.0,         0.0,         0.0
"Line.L48"              ,   2,       -66.7,       -41.7
"Line.L49"              ,   1,        20.0,        10.0,         0.0,         0.0,         0.0,         0.0
"Line.L49"              ,   2,       -20.0,       -10.0
"Line.L50"              ,   1,         6.7,         3.3,         0.0,         0.0,         0.0,         0.0
"Line.L50"              ,   2,        -6.7,        -3.3
"Line.L51"              ,   1,         0.0,        -0.0,         0.0,         0.0,         0.0,         0.0
"Line.L51"              ,   2,         0.0,         0.0
"Line.L52"              ,   1,       637.4,       145.0,         0.0,         0.0,         0.0,         0.0
"Line.L52"              ,   2,      -636.6,      -143.1
"Line.L53"              ,   1,       623.2,       136.4,         0.0,         0.0,         0.0,         0.0
"Line.L53"              ,   2,      -622.7,      -135.3
"Line.L54"              ,   1,        13.3,         6.7,         0.0,         0.0,         0.0,         0.0
"Line.L54"              ,   2,       -13.3,        -6.7
"Line.L55"              ,   1,       609.3,       128.7,         0.0,         0.0,         0.0,         0.0
"Line.L55"              ,   2,      -607.9,      -125.7
"Line.L56"              ,   1,         6.7,         3.3,         0.0,         0.0,         0.0,         0.0
"Line.L56"              ,   2,        -6.7,        -3.3
"Line.L57"              ,   1,        12.7,         6.7,         0.0,         0.0,         0.0,         0.0
"Line.L57"              ,   2,       -12.7,        -6.7
"Line.L58"              ,   1,       595.2,       119.1,         0.0,         0.0,         0.0,         0.0
"Line.L58"              ,   2,      -592.3,      -113.0
"Line.L59"              ,   1,         6.7,         3.3,         0.0,         0.0,         0.0,         0.0
"Line.L59"              ,   2,        -6.7,        -3.3
"Line.L60"              ,   1,         0.0,        -0.0,         0.0,         0.0,         0.0,         0.0
"Line.L60"              ,   2,        -0.0,         0.0
"Line.L61"              ,   1,       119.2,        70.1,         0.0,         0.0,         0.0,         0.0
"Line.L61"              ,   2,      -119.0,       -70.1
"Line.L62"              ,   1,       105.7,        63.4,         0.0,         0.0,         0.0,         0.0
"Line.L62"              ,   2,      -105.6,       -63.4
"Line.L63"              ,   1,        92.2,        56.7,         0.0,         0.0,         0.0,         0.0
"Line.L63"              ,   2,       -92.1,       -56.7
"Line.L64"              ,   1,        67.1,        45.0,         0.0,         0.0,         0.0,         0.0
"Line.L64"              ,   2,       -67.0,       -45.0
"Line.L65"              ,   1,        25.0,        11.6,         0.0,         0.0,         0.0,         0.0
"Line.L65"              ,   2,       -25.0,       -11.7
"Line.L66"              ,   1,        40.0,        20.0,         0.0,         0.0,         0.0,         0.0
"Line.L66"              ,   2,       -40.0,       -20.0
"Line.L67"              ,   1,       279.9,       -56.0,         0.0,         0.0,         0.0,         0.0
"Line.L67"              ,   2,      -279.6,        56.6
"Line.L68"              ,   1,       145.6,        73.8,         0.0,         0.0,         0.0,         0.0
"Line.L68"              ,   2,      -145.6,       -73.6
"Line.L69"              ,   1,        33.4,        16.7,         0.0,         0.0,         0.0,         0.0
"Line.L69"              ,   2,       -33.3,       -16.7
"Line.L70"              ,   1,        20.0,        10.0,         0.0,         0.0,         0.0,         0.0
"Line.L70"              ,   2,       -20.0,       -10.0
"Line.L71"              ,   1,        13.3,         6.7,         0.0,         0.0,         0.0,         0.0
"Line.L71"              ,   2,       -13.3,        -6.7
"Line.L72"              ,   1,        40.0,        20.0,         0.0,         0.0,         0.0,         0.0
"Line.L72"              ,   2,       -40.0,       -20.0
"Line.L73"              ,   1,       239.6,       -76.6,         0.0,         0.0,         0.0,         0.0
"Line.L73"              ,   2,      -239.5,        76.9
"Line.L74"              ,   1,        26.7,        13.3,         0.0,         0.0,         0.0,         0.0
"Line.L74"              ,   2,       -26.7,       -13.3
"Line.L75"              ,   1,        13.3,         6.7,         0.0,         0.0,         0.0,         0.0
"Line.L75"              ,   2,       -13.3,        -6.7
"Line.L76"              ,   1,        80.5,      -136.6,         0.0,         0.0,         0.0,         0.0
"Line.L76"              ,   2,       -80.4,       136.8
"Line.L77"              ,   1,        85.4,        -0.3,         0.0,         0.0,         0.0,         0.0
"Line.L77"              ,   2,       -85.4,         0.4
"Line.L78"              ,   1,        67.1,      -143.5,         0.0,         0.0,         0.0,         0.0
"Line.L78"              ,   2,       -67.0,       143.5
"Line.L79"              ,   1,        13.3,         6.7,         0.0,         0.0,         0.0,         0.0
"Line.L79"              ,   2,       -13.3,        -6.7
"Line.L80"              ,   1,        53.7,      -150.2,         0.0,         0.0,         0.0,         0.0
"Line.L80"              ,   2,       -53.6,       150.5
"Line.L81"              ,   1,        40.2,      -157.2,         0.0,         0.0,         0.0,         0.0
"Line.L81"              ,   2,       -40.2,       157.3
"Line.L82"              ,   1,        20.2,      -167.3,         0.0,         0.0,         0.0,         0.0
"Line.L82"              ,   2,       -20.1,       167.4
"Line.L83"              ,   1,        20.0,        10.0,         0.0,         0.0,         0.0,         0.0
"Line.L83"              ,   2,       -20.0,       -10.0
"Line.L84"              ,   1,         6.8,      -174.1,         0.0,         0.0,         0.0,         0.0
"Line.L84"              ,   2,        -6.7,       174.3
"Line.L85"              ,   1,        13.3,         6.7,         0.0,         0.0,         0.0,         0.0
"Line.L85"              ,   2,       -13.3,        -6.7
"Line.L86"              ,   1,        78.7,        -3.8,         0.0,         0.0,         0.0,         0.0
"Line.L86"              ,   2,       -78.7,         3.8
"Line.L87"              ,   1,        13.3,        -8.0,         0.0,         0.0,         0.0,         0.0
"Line.L87"              ,   2,       -13.3,         8.0
"Line.L88"              ,   1,        53.4,        -2.5,         0.0,         0.0,         0.0,         0.0
"Line.L88"              ,   2,       -53.3,         2.5
"Line.L89"              ,   1,        13.3,        -7.9,         0.0,         0.0,         0.0,         0.0
"Line.L89"              ,   2,       -13.3,         8.0
"Line.L90"              ,   1,        40.0,         5.4,         0.0,         0.0,         0.0,         0.0
"Line.L90"              ,   2,       -40.0,        -5.4
"Line.L91"              ,   1,        13.3,        -7.9,         0.0,         0.0,         0.0,         0.0
"Line.L91"              ,   2,       -13.3,         7.9
"Line.L92"              ,   1,        26.7,        13.3,         0.0,         0.0,         0.0,         0.0
"Line.L92"              ,   2,       -26.7,       -13.3
"Line.L93"              ,   1,        13.3,         6.7,         0.0,         0.0,         0.0,         0.0
"Line.L93"              ,   2,       -13.3,        -6.7
"Line.L94"              ,   1,        13.3,         6.7,         0.0,         0.0,         0.0,         0.0
"Line.L94"              ,   2,       -13.3,        -6.7
"Line.L95"              ,   1,         6.7,         3.3,         0.0,         0.0,         0.0,         0.0
"Line.L95"              ,   2,        -6.7,        -3.3
"Line.L96"              ,   1,        38.7,        20.0,         0.0,         0.0,         0.0,         0.0
"Line.L96"              ,   2,       -38.7,       -20.0
"Line.L97"              ,   1,        25.3,        13.3,         0.0,         0.0,         0.0,         0.0
"Line.L97"              ,   2,       -25.3,       -13.3
"Line.L98"              ,   1,        12.0,         6.7,         0.0,         0.0,         0.0,         0.0
"Line.L98"              ,   2,       -12.0,        -6.7
"Line.L99"              ,   1,         0.0,        -0.0,         0.0,         0.0,         0.0,         0.0
"Line.L99"              ,   2,         0.0,         0.0
"Line.L118"             ,   1,       106.9,        53.6,         0.0,         0.0,         0.0,         0.0
"Line.L118"             ,   2,      -106.8,       -53.5
"Line.L100"             ,   1,        33.4,        16.7,         0.0,         0.0,         0.0,         0.0
"Line.L100"             ,   2,       -33.4,       -16.7
"Line.L101"             ,   1,        73.5,        36.8,         0.0,         0.0,         0.0,         0.0
"Line.L101"             ,   2,       -73.5,       -36.8
"Line.L102"             ,   1,        26.7,        13.3,         0.0,         0.0,         0.0,         0.0
"Line.L102"             ,   2,       -26.7,       -13.3
"Line.L103"             ,   1,        13.3,         6.7,         0.0,         0.0,         0.0,         0.0
"Line.L103"             ,   2,       -13.3,        -6.7
"Line.L104"             ,   1,        26.7,        13.3,         0.0,         0.0,         0.0,         0.0
"Line.L104"             ,   2,       -26.7,       -13.3
"Line.L105"             ,   1,        46.8,        23.4,         0.0,         0.0,         0.0,         0.0
"Line.L105"             ,   2,       -46.8,       -23.4
"Line.L106"             ,   1,        13.3,         6.7,         0.0,         0.0,         0.0,         0.0
"Line.L106"             ,   2,       -13.3,        -6.7
"Line.L107"             ,   1,        46.8,        23.4,         0.0,         0.0,         0.0,         0.0
"Line.L107"             ,   2,       -46.7,       -23.4
"Line.L108"             ,   1,         0.0,        -0.0,         0.0,         0.0,         0.0,         0.0
"Line.L108"             ,   2,         0.0,        -0.0
"Line.L109"             ,   1,        33.4,        16.7,         0.0,         0.0,         0.0,         0.0
"Line.L109"             ,   2,       -33.4,       -16.7
"Line.L110"             ,   1,         6.7,         3.3,         0.0,         0.0,         0.0,         0.0
"Line.L110"             ,   2,        -6.7,        -3.3
"Line.L111"             ,   1,        26.7,        13.3,         0.0,         0.0,         0.0,         0.0
"Line.L111"             ,   2,       -26.7,       -13.3
"Line.L112"             ,   1,        20.0,        10.0,         0.0,         0.0,         0.0,         0.0
"Line.L112"             ,   2,       -20.0,       -10.0
"Line.L113"             ,   1,         6.7,         3.3,         0.0,         0.0,         0.0,         0.0
"Line.L113"             ,   2,        -6.7,        -3.3
"Line.L114"             ,   1,       245.6,       158.5,         0.0,         0.0,         0.0,         0.0
"Line.L114"             ,   2,      -245.2,      -157.8
"Line.L116"             ,   1,       652.7,       155.5,         0.0,         0.0,         0.0,         0.0
"Line.L116"             ,   2,      -650.8,      -151.6
"Line.L117"             ,   1,       466.4,        39.6,         0.0,         0.0,         0.0,         0.0
"Line.L117"             ,   2,      -465.6,       -37.8
"Line.SW1"              ,   1,      1168.1,       479.8,       274.5,       112.8,         0.0,         0.0
"Line.SW1"              ,   2,     -1168.1,      -479.8
"Line.SW2"              ,   1,       652.7,       155.5,         0.0,         0.0,         0.0,         0.0
"Line.SW2"              ,   2,      -652.7,      -155.5
"Line.SW3"              ,   1,       245.6,       158.5,         0.0,         0.0,         0.0,         0.0
"Line.SW3"              ,   2,      -245.6,      -158.5
