Element, Terminal, P(kW), Q(kvar),  P_Normal, Q_Normal, P_Emergency, Q_Emergency
"Line.L115"             ,   1,       829.3,       349.6,         0.0,         0.0,         0.0,         0.0
"Line.L115"             ,   2,      -826.1,      -343.0
"Line.L1"               ,   1,         5.7,         2.8,         0.0,         0.0,         0.0,         0.0
"Line.L1"               ,   2,        -5.7,        -2.8
"Line.L2"               ,   1,        28.5,        14.3,         0.0,         0.0,         0.0,         0.0
"Line.L2"               ,   2,       -28.5,       -14.3
"Line.L3"               ,   1,       780.5,       320.1,         0.0,         0.0,         0.0,         0.0
"Line.L3"               ,   2,      -778.3,      -315.7
"Line.L4"               ,   1,        11.4,         5.7,         0.0,         0.0,         0.0,         0.0
"Line.L4"               ,   2,       -11.4,        -5.7
"Line.L5"               ,   1,        17.1,         8.6,         0.0,         0.0,         0.0,         0.0
"Line.L5"               ,   2,       -17.1,        -8.6
"Line.L6"               ,   1,        11.4,         5.7,         0.0,         0.0,         0.0,         0.0
"Line.L6"               ,   2,       -11.4,        -5.7
"Line.L7"               ,   1,       772.6,       312.9,         0.0,         0.0,         0.0,         0.0
"Line.L7"               ,   2,      -771.2,      -310.0
"Line.L8"               ,   1,         5.7,         2.8,         0.0,         0.0,         0.0,         0.0
"Line.L8"               ,   2,        -5.7,        -2.8
"Line.L9"               ,   1,        19.2,        14.3,         0.0,         0.0,         0.0,         0.0
"Line.L9"               ,   2,       -19.2,       -14.3
"Line.L10"              ,   1,       746.3,       292.9,         0.0,         0.0,         0.0,         0.0
"Line.L10"              ,   2,      -744.3,      -288.9
"Line.L11"              ,   1,        17.1,         8.6,         0.0,         0.0,         0.0,         0.0
"Line.L11"              ,   2,       -17.1,        -8.6
"Line.L12"              ,   1,        28.5,        14.3,         0.0,         0.0,         0.0,         0.0
"Line.L12"              ,   2,       -28.5,       -14.3
"Line.L13"              ,   1,       260.9,       188.0,         0.0,         0.0,         0.0,         0.0
"Line.L13"              ,   2,      -260.0,      -186.3
"Line.L14"              ,   1,        11.4,         5.7,         0.0,         0.0,         0.0,         0.0
"Line.L14"              ,   2,       -11.4,        -5.7
"Line.L15"              ,   1,         5.7,         2.8,         0.0,         0.0,         0.0,         0.0
"Line.L15"              ,   2,        -5.7,        -2.8
"Line.L16"              ,   1,        11.4,         5.7,         0.0,         0.0,         0.0,         0.0
"Line.L16"              ,   2,       -11.4,        -5.7
"Line.L17"              ,   1,         5.7,         2.8,         0.0,         0.0,         0.0,         0.0
"Line.L17"              ,   2,        -5.7,        -2.8
"Line.L18"              ,   1,        22.8,        11.4,         0.0,         0.0,         0.0,         0.0
"Line.L18"              ,   2,       -22.8,       -11.4
"Line.L19"              ,   1,        70.5,        40.0,         0.0,         0.0,         0.0,         0.0
"Line.L19"              ,   2,       -70.5,       -39.9
"Line.L20"              ,   1,        11.4,         5.7,         0.0,         0.0,         0.0,         0.0
"Line.L20"              ,   2,       -11.4,        -5.7
"Line.L21"              ,   1,        11.4,         5.7,         0.0,         0.0,         0.0,         0.0
"Line.L21"              ,   2,       -11.4,        -5.7
"Line.L22"              ,   1,        59.1,        34.2,         0.0,         0.0,         0.0,         0.0
"Line.L22"              ,   2,       -59.1,       -34.2
"Line.L23"              ,   1,        11.4,         5.7,         0.0,         0.0,         0.0,         0.0
"Line.L23"              ,   2,       -11.4,        -5.7
"Line.L24"              ,   1,        47.7,        28.5,         0.0,         0.0,         0.0,         0.0
"Line.L24"              ,   2,       -47.7,       -28.5
"Line.L25"              ,   1,        22.8,        11.4,         0.0,         0.0,         0.0,         0.0
"Line.L25"              ,   2,       -22.8,       -11.4
"Line.L26"              ,   1,        24.9,        17.1,         0.0,         0.0,         0.0,         0.0
"Line.L26"              ,   2,       -24.9,       -17.1
"Line.L27"              ,   1,        11.4,         5.7,         0.0,         0.0,         0.0,         0.0
"Line.L27"              ,   2,       -11.4,        -5.7
"Line.L28"              ,   1,        11.4,         5.7,         0.0,         0.0,         0.0,         0.0
"Line.L28"              ,   2,       -11.4,        -5.7
"Line.L29"              ,   1,        11.4,         5.7,         0.0,         0.0,         0.0,         0.0
"Line.L29"              ,   2,       -11.4,        -5.7
"Line.L30"              ,   1,        22.8,        11.4,         0.0,         0.0,         0.0,         0.0
"Line.L30"              ,   2,       -22.8,       -11.4
"Line.L31"              ,   1,        11.4,         5.7,         0.0,         0.0,         0.0,         0.0
"Line.L31"              ,   2,       -11.4,        -5.7
"Line.L32"              ,   1,         0.0,        -0.0,         0.0,         0.0,         0.0,         0.0
"Line.L32"              ,   2,        -0.0,         0.0
"Line.L33"              ,   1,         5.7,         2.8,         0.0,         0.0,         0.0,         0.0
"Line.L33"              ,   2,        -5.7,        -2.8
"Line.L34"              ,   1,        17.1,         8.6,         0.0,         0.0,         0.0,         0.0
"Line.L34"              ,   2,       -17.1,        -8.5
"Line.L35"              ,   1,        22.8,        11.4,         0.0,         0.0,         0.0,         0.0
"Line.L35"              ,   2,       -22.8,       -11.4
"Line.L36"              ,   1,       132.3,       117.4,         0.0,         0.0,         0.0,         0.0
"Line.L36"              ,   2,      -132.2,      -117.2
"Line.L37"              ,   1,        11.4,         5.7,         0.0,         0.0,         0.0,         0.0
"Line.L37"              ,   2,       -11.4,        -5.7
"Line.L38"              ,   1,        11.4,         5.7,         0.0,         0.0,         0.0,         0.0
"Line.L38"              ,   2,       -11.4,        -5.7
"Line.L39"              ,   1,         5.7,         2.8,         0.0,         0.0,         0.0,         0.0
"Line.L39"              ,   2,        -5.7,        -2.8
"Line.L40"              ,   1,         5.7,         2.8,         0.0,         0.0,         0.0,         0.0
"Line.L40"              ,   2,        -5.7,        -2.8
"Line.L41"              ,   1,       126.5,       114.4,         0.0,         0.0,         0.0,         0.0
"Line.L41"              ,   2,      -126.4,      -114.2
"Line.L42"              ,   1,        11.4,         5.7,         0.0,         0.0,         0.0,         0.0
"Line.L42"              ,   2,       -11.4,        -5.7
"Line.L43"              ,   1,       109.3,       105.7,         0.0,         0.0,         0.0,         0.0
"Line.L43"              ,   2,      -109.2,      -105.6
"Line.L44"              ,   1,        11.4,         5.7,         0.0,         0.0,         0.0,         0.0
"Line.L44"              ,   2,       -11.4,        -5.7
"Line.L45"              ,   1,        97.8,        99.9,         0.0,         0.0,         0.0,         0.0
"Line.L45"              ,   2,       -97.8,       -99.8
"Line.L46"              ,   1,         5.7,         2.8,         0.0,         0.0,         0.0,         0.0
"Line.L46"              ,   2,        -5.7,        -2.8
"Line.L47"              ,   1,        10.9,        42.8,         0.0,         0.0,         0.0,         0.0
"Line.L47"              ,   2,       -10.8,       -42.7
"Line.L48"              ,   1,        57.0,        35.6,         0.0,         0.0,         0.0,         0.0
"Line.L48"              ,   2,       -57.0,       -35.6
"Line.L49"              ,   1,        17.1,         8.5,         0.0,         0.0,         0.0,         0.0
"Line.L49"              ,   2,       -17.1,        -8.5
"Line.L50"              ,   1,         5.7,         2.8,         0.0,         0.0,         0.0,         0.0
"Line.L50"              ,   2,        -5.7,        -2.8
"Line.L51"              ,   1,         0.0,        -0.0,         0.0,         0.0,         0.0,         0.0
"Line.L51"              ,   2,         0.0,         0.0
"Line.L52"              ,   1,       442.7,        79.1,         0.0,         0.0,         0.0,         0.0
"Line.L52"              ,   2,      -442.3,       -78.2
"Line.L53"              ,   1,       430.9,        72.5,         0.0,         0.0,         0.0,         0.0
"Line.L53"              ,   2,      -430.6,       -72.0
"Line.L54"              ,   1,        11.4,         5.7,         0.0,         0.0,         0.0,         0.0
"Line.L54"              ,   2,       -11.4,        -5.7
"Line.L55"              ,   1,       419.2,        66.3,         0.0,         0.0,         0.0,         0.0
"Line.L55"              ,   2,      -418.6,       -65.0
"Line.L56"              ,   1,         5.7,         2.8,         0.0,         0.0,         0.0,         0.0
"Line.L56"              ,   2,        -5.7,        -2.8
"Line.L57"              ,   1,         6.7,         5.7,         0.0,         0.0,         0.0,         0.0
"Line.L57"              ,   2,        -6.7,        -5.7
"Line.L58"              ,   1,       411.8,        59.3,         0.0,         0.0,         0.0,         0.0
"Line.L58"              ,   2,      -410.5,       -56.5
"Line.L59"              ,   1,         5.7,         2.8,         0.0,         0.0,         0.0,         0.0
"Line.L59"              ,   2,        -5.7,        -2.8
"Line.L60"              ,   1,         0.0,        -0.0,         0.0,         0.0,         0.0,         0.0
"Line.L60"              ,   2,        -0.0,         0.0
"Line.L61"              ,   1,        73.0,        59.8,         0.0,         0.0,         0.0,         0.0
"Line.L61"              ,   2,       -72.9,       -59.8
"Line.L62"              ,   1,        61.5,        54.1,         0.0,         0.0,         0.0,         0.0
"Line.L62"              ,   2,       -61.5,       -54.1
"Line.L63"              ,   1,        50.1,        48.4,         0.0,         0.0,         0.0,         0.0
"Line.L63"              ,   2,       -50.0,       -48.4
"Line.L64"              ,   1,        28.6,        38.4,         0.0,         0.0,         0.0,         0.0
"Line.L64"              ,   2,       -28.6,       -38.5
"Line.L65"              ,   1,        21.4,        10.0,         0.0,         0.0,         0.0,         0.0
"Line.L65"              ,   2,       -21.4,       -10.0
"Line.L66"              ,   1,        34.2,        17.1,         0.0,         0.0,         0.0,         0.0
"Line.L66"              ,   2,       -34.2,       -17.1
"Line.L67"              ,   1,       180.9,       -87.2,         0.0,         0.0,         0.0,         0.0
"Line.L67"              ,   2,      -180.7,        87.4
"Line.L68"              ,   1,       116.3,        63.0,         0.0,         0.0,         0.0,         0.0
"Line.L68"              ,   2,      -116.2,       -62.9
"Line.L69"              ,   1,        28.5,        14.3,         0.0,         0.0,         0.0,         0.0
"Line.L69"              ,   2,       -28.5,       -14.3
"Line.L70"              ,   1,        17.1,         8.6,         0.0,         0.0,         0.0,         0.0
"Line.L70"              ,   2,       -17.1,        -8.6
"Line.L71"              ,   1,        11.4,         5.7,         0.0,         0.0,         0.0,         0.0
"Line.L71"              ,   2,       -11.4,        -5.7
"Line.L72"              ,   1,        34.2,        17.1,         0.0,         0.0,         0.0,         0.0
"Line.L72"              ,   2,       -34.2,       -17.1
"Line.L73"              ,   1,       146.5,      -104.6,         0.0,         0.0,         0.0,         0.0
"Line.L73"              ,   2,      -146.4,       104.7
"Line.L74"              ,   1,        22.8,        11.4,         0.0,         0.0,         0.0,         0.0
"Line.L74"              ,   2,       -22.8,       -11.4
"Line.L75"              ,   1,        11.4,         5.7,         0.0,         0.0,         0.0,         0.0
"Line.L75"              ,   2,       -11.4,        -5.7
"Line.L76"              ,   1,        68.9,      -147.9,         0.0,         0.0,         0.0,         0.0
"Line.L76"              ,   2,       -68.8,       148.2
"Line.L77"              ,   1,        64.8,        -8.1,         0.0,         0.0,         0.0,         0.0
"Line.L77"              ,   2,       -64.8,         8.2
"Line.L78"              ,   1,        57.4,      -153.9,         0.0,         0.0,         0.0,         0.0
"Line.L78"              ,   2,       -57.4,       153.9
"Line.L79"              ,   1,        11.4,         5.7,         0.0,         0.0,         0.0,         0.0
"Line.L79"              ,   2,       -11.4,        -5.7
"Line.L80"              ,   1,        46.0,      -159.6,         0.0,         0.0,         0.0,         0.0
"Line.L80"              ,   2,       -45.8,       159.9
"Line.L81"              ,   1,        34.4,      -165.6,         0.0,         0.0,         0.0,         0.0
"Line.L81"              ,   2,       -34.4,       165.7
"Line.L82"              ,   1,        17.3,      -174.3,         0.0,         0.0,         0.0,         0.0
"Line.L82"              ,   2,       -17.2,       174.5
"Line.L83"              ,   1,        17.1,         8.6,         0.0,         0.0,         0.0,         0.0
"Line.L83"              ,   2,       -17.1,        -8.6
"Line.L84"              ,   1,         5.8,      -180.2,         0.0,         0.0,         0.0,         0.0
"Line.L84"              ,   2,        -5.7,       180.4
"Line.L85"              ,   1,        11.4,         5.7,         0.0,         0.0,         0.0,         0.0
"Line.L85"              ,   2,       -11.4,        -5.7
"Line.L86"              ,   1,        59.1,       -11.0,         0.0,         0.0,         0.0,         0.0
"Line.L86"              ,   2,       -59.1,        11.0
"Line.L87"              ,   1,        11.4,        -9.4,         0.0,         0.0,         0.0,         0.0
"Line.L87"              ,   2,       -11.4,         9.4
"Line.L88"              ,   1,        45.6,        -7.3,         0.0,         0.0,         0.0,         0.0
"Line.L88"              ,   2,       -45.6,         7.4
"Line.L89"              ,   1,        11.4,        -9.4,         0.0,         0.0,         0.0,         0.0
"Line.L89"              ,   2,       -11.4,         9.4
"Line.L90"              ,   1,        34.2,         2.0,         0.0,         0.0,         0.0,         0.0
"Line.L90"              ,   2,       -34.2,        -2.0
"Line.L91"              ,   1,        11.4,        -9.4,         0.0,         0.0,         0.0,         0.0
"Line.L91"              ,   2,       -11.4,         9.4
"Line.L92"              ,   1,        22.8,        11.4,         0.0,         0.0,         0.0,         0.0
"Line.L92"              ,   2,       -22.8,       -11.4
"Line.L93"              ,   1,        11.4,         5.7,         0.0,         0.0,         0.0,         0.0
"Line.L93"              ,   2,       -11.4,        -5.7
"Line.L94"              ,   1,        11.4,         5.7,         0.0,         0.0,         0.0,         0.0
"Line.L94"              ,   2,       -11.4,        -5.7
"Line.L95"              ,   1,         5.7,         2.8,         0.0,         0.0,         0.0,         0.0
"Line.L95"              ,   2,        -5.7,        -2.8
"Line.L96"              ,   1,        24.9,        17.1,         0.0,         0.0,         0.0,         0.0
"Line.L96"              ,   2,       -24.9,       -17.1
"Line.L97"              ,   1,        13.5,        11.4,         0.0,         0.0,         0.0,         0.0
"Line.L97"              ,   2,       -13.5,       -11.4
"Line.L98"              ,   1,         2.1,         5.7,         0.0,         0.0,         0.0,         0.0
"Line.L98"              ,   2,        -2.1,        -5.7
"Line.L99"              ,   1,         0.0,        -0.0,         0.0,         0.0,         0.0,         0.0
"Line.L99"              ,   2,         0.0,        -0.0
"Line.L118"             ,   1,        91.4,        45.8,         0.0,         0.0,         0.0,         0.0
"Line.L118"             ,   2,       -91.3,       -45.7
"Line.L100"             ,   1,        28.5,        14.3,         0.0,         0.0,         0.0,         0.0
"Line.L100"             ,   2,       -28.5,       -14.3
"Line.L101"             ,   1,        62.8,        31.5,         0.0,         0.0,         0.0,         0.0
"Line.L101"             ,   2,       -62.8,       -31.4
"Line.L102"             ,   1,        22.8,        11.4,         0.0,         0.0,         0.0,         0.0
"Line.L102"             ,   2,       -22.8,       -11.4
"Line.L103"             ,   1,        11.4,         5.7,         0.0,         0.0,         0.0,         0.0
"Line.L103"             ,   2,       -11.4,        -5.7
"Line.L104"             ,   1,        22.8,        11.4,         0.0,         0.0,         0.0,         0.0
"Line.L104"             ,   2,       -22.8,       -11.4
"Line.L105"             ,   1,        40.0,        20.0,         0.0,         0.0,         0.0,         0.0
"Line.L105"             ,   2,       -40.0,       -20.0
"Line.L106"             ,   1,        11.4,         5.7,         0.0,         0.0,         0.0,         0.0
"Line.L106"             ,   2,       -11.4,        -5.7
"Line.L107"             ,   1,        40.0,        20.0,         0.0,         0.0,         0.0,         0.0
"Line.L107"             ,   2,       -39.9,       -20.0
"Line.L108"             ,   1,         0.0,        -0.0,         0.0,         0.0,         0.0,         0.0
"Line.L108"             ,   2,         0.0,         0.0
"Line.L109"             ,   1,        28.5,        14.3,         0.0,         0.0,         0.0,         0.0
"Line.L109"             ,   2,       -28.5,       -14.3
"Line.L110"             ,   1,         5.7,         2.8,         0.0,         0.0,         0.0,         0.0
"Line.L110"             ,   2,        -5.7,        -2.8
"Line.L111"             ,   1,        22.8,        11.4,         0.0,         0.0,         0.0,         0.0
"Line.L111"             ,   2,       -22.8,       -11.4
"Line.L112"             ,   1,        17.1,         8.6,         0.0,         0.0,         0.0,         0.0
"Line.L112"             ,   2,       -17.1,        -8.5
"Line.L113"             ,   1,         5.7,         2.8,         0.0,         0.0,         0.0,         0.0
"Line.L113"             ,   2,        -5.7,        -2.8
"Line.L114"             ,   1,       166.6,       134.9,         0.0,         0.0,         0.0,         0.0
"Line.L114"             ,   2,      -166.5,      -134.5
"Line.L116"             ,   1,       455.0,        86.6,         0.0,         0.0,         0.0,         0.0
"Line.L116"             ,   2,      -454.1,       -84.8
"Line.L117"             ,   1,       331.8,        -6.2,         0.0,         0.0,         0.0,         0.0
"Line.L117"             ,   2,      -331.4,         7.1
"Line.SW1"              ,   1,       829.3,       349.6,         0.0,         0.0,         0.0,         0.0
"Line.SW1"              ,   2,      -829.3,      -349.6
"Line.SW2"              ,   1,       455.0,        86.6,         0.0,         0.0,         0.0,         0.0
"Line.SW2"              ,   2,      -455.0,       -86.6
"Line.SW3"              ,   1,       166.6,       134.9,         0.0,         0.0,         0.0,         0.0
"Line.SW3"              ,   2,      -166.6,      -134.9
