Element, Terminal, P(kW), Q(kvar),  P_Normal, Q_Normal, P_Emergency, Q_Emergency
"Line.L115"             ,   1,       863.9,       392.0,         0.0,         0.0,         0.0,         0.0
"Line.L115"             ,   2,      -860.3,      -384.7
"Line.L1"               ,   1,         6.3,         3.2,         0.0,         0.0,         0.0,         0.0
"Line.L1"               ,   2,        -6.3,        -3.2
"Line.L2"               ,   1,        31.7,        15.9,         0.0,         0.0,         0.0,         0.0
"Line.L2"               ,   2,       -31.7,       -15.8
"Line.L3"               ,   1,       809.7,       359.3,         0.0,         0.0,         0.0,         0.0
"Line.L3"               ,   2,      -807.3,      -354.5
"Line.L4"               ,   1,        12.7,         6.3,         0.0,         0.0,         0.0,         0.0
"Line.L4"               ,   2,       -12.7,        -6.3
"Line.L5"               ,   1,        19.0,         9.5,         0.0,         0.0,         0.0,         0.0
"Line.L5"               ,   2,       -19.0,        -9.5
"Line.L6"               ,   1,        12.7,         6.3,         0.0,         0.0,         0.0,         0.0
"Line.L6"               ,   2,       -12.7,        -6.3
"Line.L7"               ,   1,       801.0,       351.3,         0.0,         0.0,         0.0,         0.0
"Line.L7"               ,   2,      -799.4,      -348.1
"Line.L8"               ,   1,         6.3,         3.2,         0.0,         0.0,         0.0,         0.0
"Line.L8"               ,   2,        -6.3,        -3.2
"Line.L9"               ,   1,        18.4,        15.8,         0.0,         0.0,         0.0,         0.0
"Line.L9"               ,   2,       -18.3,       -15.8
"Line.L10"              ,   1,       774.7,       329.1,         0.0,         0.0,         0.0,         0.0
"Line.L10"              ,   2,      -772.5,      -324.7
"Line.L11"              ,   1,        19.0,         9.5,         0.0,         0.0,         0.0,         0.0
"Line.L11"              ,   2,       -19.0,        -9.5
"Line.L12"              ,   1,        31.7,        15.8,         0.0,         0.0,         0.0,         0.0
"Line.L12"              ,   2,       -31.7,       -15.8
"Line.L13"              ,   1,       271.4,       209.0,         0.0,         0.0,         0.0,         0.0
"Line.L13"              ,   2,      -270.4,      -207.0
"Line.L14"              ,   1,        12.7,         6.3,         0.0,         0.0,         0.0,         0.0
"Line.L14"              ,   2,       -12.7,        -6.3
"Line.L15"              ,   1,         6.3,         3.2,         0.0,         0.0,         0.0,         0.0
"Line.L15"              ,   2,        -6.3,        -3.2
"Line.L16"              ,   1,        12.7,         6.3,         0.0,         0.0,         0.0,         0.0
"Line.L16"              ,   2,       -12.7,        -6.3
"Line.L17"              ,   1,         6.3,         3.2,         0.0,         0.0,         0.0,         0.0
"Line.L17"              ,   2,        -6.3,        -3.2
"Line.L18"              ,   1,        25.3,        12.7,         0.0,         0.0,         0.0,         0.0
"Line.L18"              ,   2,       -25.3,       -12.7
"Line.L19"              ,   1,        75.4,        44.4,         0.0,         0.0,         0.0,         0.0
"Line.L19"              ,   2,       -75.4,       -44.4
"Line.L20"              ,   1,        12.7,         6.3,         0.0,         0.0,         0.0,         0.0
"Line.L20"              ,   2,       -12.7,        -6.3
"Line.L21"              ,   1,        12.7,         6.3,         0.0,         0.0,         0.0,         0.0
"Line.L21"              ,   2,       -12.7,        -6.3
"Line.L22"              ,   1,        62.7,        38.1,         0.0,         0.0,         0.0,         0.0
"Line.L22"              ,   2,       -62.7,       -38.0
"Line.L23"              ,   1,        12.7,         6.3,         0.0,         0.0,         0.0,         0.0
"Line.L23"              ,   2,       -12.7,        -6.3
"Line.L24"              ,   1,        50.0,        31.7,         0.0,         0.0,         0.0,         0.0
"Line.L24"              ,   2,       -50.0,       -31.7
"Line.L25"              ,   1,        25.3,        12.7,         0.0,         0.0,         0.0,         0.0
"Line.L25"              ,   2,       -25.3,       -12.7
"Line.L26"              ,   1,        24.7,        19.0,         0.0,         0.0,         0.0,         0.0
"Line.L26"              ,   2,       -24.7,       -19.0
"Line.L27"              ,   1,        12.7,         6.3,         0.0,         0.0,         0.0,         0.0
"Line.L27"              ,   2,       -12.7,        -6.3
"Line.L28"              ,   1,        12.7,         6.3,         0.0,         0.0,         0.0,         0.0
"Line.L28"              ,   2,       -12.7,        -6.3
"Line.L29"              ,   1,        12.7,         6.3,         0.0,         0.0,         0.0,         0.0
"Line.L29"              ,   2,       -12.7,        -6.3
"Line.L30"              ,   1,        25.3,        12.7,         0.0,         0.0,         0.0,         0.0
"Line.L30"              ,   2,       -25.3,       -12.7
"Line.L31"              ,   1,        12.7,         6.3,         0.0,         0.0,         0.0,         0.0
"Line.L31"              ,   2,       -12.7,        -6.3
"Line.L32"              ,   1,         0.0,        -0.0,         0.0,         0.0,         0.0,         0.0
"Line.L32"              ,   2,        -0.0,        -0.0
"Line.L33"              ,   1,         6.3,         3.2,         0.0,         0.0,         0.0,         0.0
"Line.L33"              ,   2,        -6.3,        -3.2
"Line.L34"              ,   1,        19.0,         9.5,         0.0,         0.0,         0.0,         0.0
"Line.L34"              ,   2,       -19.0,        -9.5
"Line.L35"              ,   1,        25.3,        12.7,         0.0,         0.0,         0.0,         0.0
"Line.L35"              ,   2,       -25.3,       -12.7
"Line.L36"              ,   1,       131.4,       130.4,         0.0,         0.0,         0.0,         0.0
"Line.L36"              ,   2,      -131.3,      -130.3
"Line.L37"              ,   1,        12.7,         6.3,         0.0,         0.0,         0.0,         0.0
"Line.L37"              ,   2,       -12.7,        -6.3
"Line.L38"              ,   1,        12.7,         6.3,         0.0,         0.0,         0.0,         0.0
"Line.L38"              ,   2,       -12.7,        -6.3
"Line.L39"              ,   1,         6.3,         3.2,         0.0,         0.0,         0.0,         0.0
"Line.L39"              ,   2,        -6.3,        -3.2
"Line.L40"              ,   1,         6.3,         3.2,         0.0,         0.0,         0.0,         0.0
"Line.L40"              ,   2,        -6.3,        -3.2
"Line.L41"              ,   1,       125.0,       127.1,         0.0,         0.0,         0.0,         0.0
"Line.L41"              ,   2,      -124.9,      -126.9
"Line.L42"              ,   1,        12.7,         6.3,         0.0,         0.0,         0.0,         0.0
"Line.L42"              ,   2,       -12.7,        -6.3
"Line.L43"              ,   1,       105.9,       117.4,         0.0,         0.0,         0.0,         0.0
"Line.L43"              ,   2,      -105.8,      -117.3
"Line.L44"              ,   1,        12.7,         6.3,         0.0,         0.0,         0.0,         0.0
"Line.L44"              ,   2,       -12.7,        -6.3
"Line.L45"              ,   1,        93.2,       111.0,         0.0,         0.0,         0.0,         0.0
"Line.L45"              ,   2,       -93.1,      -110.9
"Line.L46"              ,   1,         6.3,         3.2,         0.0,         0.0,         0.0,         0.0
"Line.L46"              ,   2,        -6.3,        -3.2
"Line.L47"              ,   1,        -3.5,        47.5,         0.0,         0.0,         0.0,         0.0
"Line.L47"              ,   2,         3.5,       -47.5
"Line.L48"              ,   1,        63.3,        39.6,         0.0,         0.0,         0.0,         0.0
"Line.L48"              ,   2,       -63.3,       -39.6
"Line.L49"              ,   1,        19.0,         9.5,         0.0,         0.0,         0.0,         0.0
"Line.L49"              ,   2,       -19.0,        -9.5
"Line.L50"              ,   1,         6.3,         3.2,         0.0,         0.0,         0.0,         0.0
"Line.L50"              ,   2,        -6.3,        -3.2
"Line.L51"              ,   1,         0.0,        -0.0,         0.0,         0.0,         0.0,         0.0
"Line.L51"              ,   2,        -0.0,         0.0
"Line.L52"              ,   1,       455.9,        91.5,         0.0,         0.0,         0.0,         0.0
"Line.L52"              ,   2,      -455.4,       -90.6
"Line.L53"              ,   1,       442.8,        84.3,         0.0,         0.0,         0.0,         0.0
"Line.L53"              ,   2,      -442.5,       -83.7
"Line.L54"              ,   1,        12.7,         6.3,         0.0,         0.0,         0.0,         0.0
"Line.L54"              ,   2,       -12.7,        -6.3
"Line.L55"              ,   1,       429.8,        77.4,         0.0,         0.0,         0.0,         0.0
"Line.L55"              ,   2,      -429.1,       -76.0
"Line.L56"              ,   1,         6.3,         3.2,         0.0,         0.0,         0.0,         0.0
"Line.L56"              ,   2,        -6.3,        -3.2
"Line.L57"              ,   1,         6.0,         6.3,         0.0,         0.0,         0.0,         0.0
"Line.L57"              ,   2,        -6.0,        -6.3
"Line.L58"              ,   1,       423.1,        69.7,         0.0,         0.0,         0.0,         0.0
"Line.L58"              ,   2,      -421.7,       -66.7
"Line.L59"              ,   1,         6.3,         3.2,         0.0,         0.0,         0.0,         0.0
"Line.L59"              ,   2,        -6.3,        -3.2
"Line.L60"              ,   1,         0.0,        -0.0,         0.0,         0.0,         0.0,         0.0
"Line.L60"              ,   2,        -0.0,         0.0
"Line.L61"              ,   1,        70.7,        66.5,         0.0,         0.0,         0.0,         0.0
"Line.L61"              ,   2,       -70.6,       -66.5
"Line.L62"              ,   1,        58.0,        60.1,         0.0,         0.0,         0.0,         0.0
"Line.L62"              ,   2,       -57.9,       -60.1
"Line.L63"              ,   1,        45.3,        53.8,         0.0,         0.0,         0.0,         0.0
"Line.L63"              ,   2,       -45.2,       -53.8
"Line.L64"              ,   1,        21.5,        42.7,         0.0,         0.0,         0.0,         0.0
"Line.L64"              ,   2,       -21.4,       -42.7
"Line.L65"              ,   1,        23.8,        11.1,         0.0,         0.0,         0.0,         0.0
"Line.L65"              ,   2,       -23.7,       -11.1
"Line.L66"              ,   1,        38.0,        19.0,         0.0,         0.0,         0.0,         0.0
"Line.L66"              ,   2,       -38.0,       -19.0
"Line.L67"              ,   1,       179.9,       -93.0,         0.0,         0.0,         0.0,         0.0
"Line.L67"              ,   2,      -179.8,        93.2
"Line.L68"              ,   1,       126.3,        70.0,         0.0,         0.0,         0.0,         0.0
"Line.L68"              ,   2,      -126.2,       -69.9
"Line.L69"              ,   1,        31.7,        15.9,         0.0,         0.0,         0.0,         0.0
"Line.L69"              ,   2,       -31.7,       -15.8
"Line.L70"              ,   1,        19.0,         9.5,         0.0,         0.0,         0.0,         0.0
"Line.L70"              ,   2,       -19.0,        -9.5
"Line.L71"              ,   1,        12.7,         6.3,         0.0,         0.0,         0.0,         0.0
"Line.L71"              ,   2,       -12.7,        -6.3
"Line.L72"              ,   1,        38.0,        19.0,         0.0,         0.0,         0.0,         0.0
"Line.L72"              ,   2,       -38.0,       -19.0
"Line.L73"              ,   1,       141.7,      -112.3,         0.0,         0.0,         0.0,         0.0
"Line.L73"              ,   2,      -141.6,       112.4
"Line.L74"              ,   1,        25.3,        12.7,         0.0,         0.0,         0.0,         0.0
"Line.L74"              ,   2,       -25.3,       -12.7
"Line.L75"              ,   1,        12.7,         6.3,         0.0,         0.0,         0.0,         0.0
"Line.L75"              ,   2,       -12.7,        -6.3
"Line.L76"              ,   1,        76.6,      -160.7,         0.0,         0.0,         0.0,         0.0
"Line.L76"              ,   2,       -76.5,       161.0
"Line.L77"              ,   1,        69.1,        -8.7,         0.0,         0.0,         0.0,         0.0
"Line.L77"              ,   2,       -69.0,         8.8
"Line.L78"              ,   1,        63.8,      -167.3,         0.0,         0.0,         0.0,         0.0
"Line.L78"              ,   2,       -63.8,       167.4
"Line.L79"              ,   1,        12.7,         6.3,         0.0,         0.0,         0.0,         0.0
"Line.L79"              ,   2,       -12.7,        -6.3
"Line.L80"              ,   1,        51.1,      -173.7,         0.0,         0.0,         0.0,         0.0
"Line.L80"              ,   2,       -51.0,       174.1
"Line.L81"              ,   1,        38.3,      -180.4,         0.0,         0.0,         0.0,         0.0
"Line.L81"              ,   2,       -38.2,       180.6
"Line.L82"              ,   1,        19.2,      -190.1,         0.0,         0.0,         0.0,         0.0
"Line.L82"              ,   2,       -19.1,       190.3
"Line.L83"              ,   1,        19.0,         9.5,         0.0,         0.0,         0.0,         0.0
"Line.L83"              ,   2,       -19.0,        -9.5
"Line.L84"              ,   1,         6.4,      -196.6,         0.0,         0.0,         0.0,         0.0
"Line.L84"              ,   2,        -6.3,       196.8
"Line.L85"              ,   1,        12.7,         6.3,         0.0,         0.0,         0.0,         0.0
"Line.L85"              ,   2,       -12.7,        -6.3
"Line.L86"              ,   1,        62.7,       -11.9,         0.0,         0.0,         0.0,         0.0
"Line.L86"              ,   2,       -62.7,        12.0
"Line.L87"              ,   1,        12.7,       -10.3,         0.0,         0.0,         0.0,         0.0
"Line.L87"              ,   2,       -12.7,        10.3
"Line.L88"              ,   1,        50.7,        -8.0,         0.0,         0.0,         0.0,         0.0
"Line.L88"              ,   2,       -50.7,         8.0
"Line.L89"              ,   1,        12.7,       -10.3,         0.0,         0.0,         0.0,         0.0
"Line.L89"              ,   2,       -12.7,        10.3
"Line.L90"              ,   1,        38.0,         2.3,         0.0,         0.0,         0.0,         0.0
"Line.L90"              ,   2,       -38.0,        -2.3
"Line.L91"              ,   1,        12.7,       -10.3,         0.0,         0.0,         0.0,         0.0
"Line.L91"              ,   2,       -12.7,        10.3
"Line.L92"              ,   1,        25.3,        12.7,         0.0,         0.0,         0.0,         0.0
"Line.L92"              ,   2,       -25.3,       -12.7
"Line.L93"              ,   1,        12.7,         6.3,         0.0,         0.0,         0.0,         0.0
"Line.L93"              ,   2,       -12.7,        -6.3
"Line.L94"              ,   1,        12.7,         6.3,         0.0,         0.0,         0.0,         0.0
"Line.L94"              ,   2,       -12.7,        -6.3
"Line.L95"              ,   1,         6.3,         3.2,         0.0,         0.0,         0.0,         0.0
"Line.L95"              ,   2,        -6.3,        -3.2
"Line.L96"              ,   1,        24.7,        19.0,         0.0,         0.0,         0.0,         0.0
"Line.L96"              ,   2,       -24.7,       -19.0
"Line.L97"              ,   1,        12.0,        12.7,         0.0,         0.0,         0.0,         0.0
"Line.L97"              ,   2,       -12.0,       -12.7
"Line.L98"              ,   1,        -0.7,         6.3,         0.0,         0.0,         0.0,         0.0
"Line.L98"              ,   2,         0.7,        -6.3
"Line.L99"              ,   1,         0.0,        -0.0,         0.0,         0.0,         0.0,         0.0
"Line.L99"              ,   2,         0.0,         0.0
"Line.L118"             ,   1,       101.5,        50.9,         0.0,         0.0,         0.0,         0.0
"Line.L118"             ,   2,      -101.5,       -50.8
"Line.L100"             ,   1,        31.7,        15.9,         0.0,         0.0,         0.0,         0.0
"Line.L100"             ,   2,       -31.7,       -15.8
"Line.L101"             ,   1,        69.8,        35.0,         0.0,         0.0,         0.0,         0.0
"Line.L101"             ,   2,       -69.8,       -34.9
"Line.L102"             ,   1,        25.4,        12.7,         0.0,         0.0,         0.0,         0.0
"Line.L102"             ,   2,       -25.3,       -12.7
"Line.L103"             ,   1,        12.7,         6.3,         0.0,         0.0,         0.0,         0.0
"Line.L103"             ,   2,       -12.7,        -6.3
"Line.L104"             ,   1,        25.3,        12.7,         0.0,         0.0,         0.0,         0.0
"Line.L104"             ,   2,       -25.3,       -12.7
"Line.L105"             ,   1,        44.4,        22.3,         0.0,         0.0,         0.0,         0.0
"Line.L105"             ,   2,       -44.4,       -22.2
"Line.L106"             ,   1,        12.7,         6.3,         0.0,         0.0,         0.0,         0.0
"Line.L106"             ,   2,       -12.7,        -6.3
"Line.L107"             ,   1,        44.4,        22.2,         0.0,         0.0,         0.0,         0.0
"Line.L107"             ,   2,       -44.4,       -22.2
"Line.L108"             ,   1,         0.0,        -0.0,         0.0,         0.0,         0.0,         0.0
"Line.L108"             ,   2,         0.0,         0.0
"Line.L109"             ,   1,        31.7,        15.9,         0.0,         0.0,         0.0,         0.0
"Line.L109"             ,   2,       -31.7,       -15.8
"Line.L110"             ,   1,         6.3,         3.2,         0.0,         0.0,         0.0,         0.0
"Line.L110"             ,   2,        -6.3,        -3.2
"Line.L111"             ,   1,        25.3,        12.7,         0.0,         0.0,         0.0,         0.0
"Line.L111"             ,   2,       -25.3,       -12.7
"Line.L112"             ,   1,        19.0,         9.5,         0.0,         0.0,         0.0,         0.0
"Line.L112"             ,   2,       -19.0,        -9.5
"Line.L113"             ,   1,         6.3,         3.2,         0.0,         0.0,         0.0,         0.0
"Line.L113"             ,   2,        -6.3,        -3.2
"Line.L114"             ,   1,       169.6,       149.8,         0.0,         0.0,         0.0,         0.0
"Line.L114"             ,   2,      -169.4,      -149.4
"Line.L116"             ,   1,       469.5,        99.8,         0.0,         0.0,         0.0,         0.0
"Line.L116"             ,   2,      -468.6,       -97.9
"Line.L117"             ,   1,       344.6,        -3.0,         0.0,         0.0,         0.0,         0.0
"Line.L117"             ,   2,      -344.2,         3.9
"Line.SW1"              ,   1,       863.9,       392.0,         0.0,         0.0,         0.0,         0.0
"Line.SW1"              ,   2,      -863.9,      -392.0
"Line.SW2"              ,   1,       469.5,        99.8,         0.0,         0.0,         0.0,         0.0
"Line.SW2"              ,   2,      -469.5,       -99.8
"Line.SW3"              ,   1,       169.6,       149.8,         0.0,         0.0,         0.0,         0.0
"Line.SW3"              ,   2,      -169.6,      -149.8
