Element, Terminal, P(kW), Q(kvar),  P_Normal, Q_Normal, P_Emergency, Q_Emergency
"Line.L115"             ,   1,      1011.4,       363.0,       102.2,        36.7,         0.0,         0.0
"Line.L115"             ,   2,     -1006.8,      -353.6
"Line.L1"               ,   1,         5.7,         2.8,         0.0,         0.0,         0.0,         0.0
"Line.L1"               ,   2,        -5.7,        -2.8
"Line.L2"               ,   1,        28.4,        14.2,         0.0,         0.0,         0.0,         0.0
"Line.L2"               ,   2,       -28.3,       -14.2
"Line.L3"               ,   1,       961.4,       330.9,        54.4,        18.7,         0.0,         0.0
"Line.L3"               ,   2,      -958.3,      -324.5
"Line.L4"               ,   1,        11.3,         5.7,         0.0,         0.0,         0.0,         0.0
"Line.L4"               ,   2,       -11.3,        -5.7
"Line.L5"               ,   1,        17.0,         8.5,         0.0,         0.0,         0.0,         0.0
"Line.L5"               ,   2,       -17.0,        -8.5
"Line.L6"               ,   1,        11.3,         5.7,         0.0,         0.0,         0.0,         0.0
"Line.L6"               ,   2,       -11.3,        -5.7
"Line.L7"               ,   1,       952.7,       321.7,        48.3,        16.3,         0.0,         0.0
"Line.L7"               ,   2,      -950.6,      -317.4
"Line.L8"               ,   1,         5.7,         2.8,         0.0,         0.0,         0.0,         0.0
"Line.L8"               ,   2,        -5.7,        -2.8
"Line.L9"               ,   1,        28.4,        14.2,         0.0,         0.0,         0.0,         0.0
"Line.L9"               ,   2,       -28.3,       -14.2
"Line.L10"              ,   1,       916.6,       300.4,        12.5,         4.1,         0.0,         0.0
"Line.L10"              ,   2,      -913.7,      -294.6
"Line.L11"              ,   1,        17.0,         8.5,         0.0,         0.0,         0.0,         0.0
"Line.L11"              ,   2,       -17.0,        -8.5
"Line.L12"              ,   1,        28.3,        14.2,         0.0,         0.0,         0.0,         0.0
"Line.L12"              ,   2,       -28.3,       -14.2
"Line.L13"              ,   1,       317.9,       188.0,         0.0,         0.0,         0.0,         0.0
"Line.L13"              ,   2,      -316.7,      -185.6
"Line.L14"              ,   1,        11.3,         5.7,         0.0,         0.0,         0.0,         0.0
"Line.L14"              ,   2,       -11.3,        -5.7
"Line.L15"              ,   1,         5.7,         2.8,         0.0,         0.0,         0.0,         0.0
"Line.L15"              ,   2,        -5.7,        -2.8
"Line.L16"              ,   1,        11.3,         5.7,         0.0,         0.0,         0.0,         0.0
"Line.L16"              ,   2,       -11.3,        -5.7
"Line.L17"              ,   1,         5.7,         2.8,         0.0,         0.0,         0.0,         0.0
"Line.L17"              ,   2,        -5.7,        -2.8
"Line.L18"              ,   1,        22.7,        11.3,         0.0,         0.0,         0.0,         0.0
"Line.L18"              ,   2,       -22.7,       -11.3
"Line.L19"              ,   1,        79.4,        39.8,         0.0,         0.0,         0.0,         0.0
"Line.L19"              ,   2,       -79.4,       -39.7
"Line.L20"              ,   1,        11.3,         5.7,         0.0,         0.0,         0.0,         0.0
"Line.L20"              ,   2,       -11.3,        -5.7
"Line.L21"              ,   1,        11.3,         5.7,         0.0,         0.0,         0.0,         0.0
"Line.L21"              ,   2,       -11.3,        -5.7
"Line.L22"              ,   1,        68.0,        34.1,         0.0,         0.0,         0.0,         0.0
"Line.L22"              ,   2,       -68.0,       -34.0
"Line.L23"              ,   1,        11.3,         5.7,         0.0,         0.0,         0.0,         0.0
"Line.L23"              ,   2,       -11.3,        -5.7
"Line.L24"              ,   1,        56.7,        28.4,         0.0,         0.0,         0.0,         0.0
"Line.L24"              ,   2,       -56.7,       -28.3
"Line.L25"              ,   1,        22.7,        11.3,         0.0,         0.0,         0.0,         0.0
"Line.L25"              ,   2,       -22.7,       -11.3
"Line.L26"              ,   1,        34.0,        17.0,         0.0,         0.0,         0.0,         0.0
"Line.L26"              ,   2,       -34.0,       -17.0
"Line.L27"              ,   1,        11.3,         5.7,         0.0,         0.0,         0.0,         0.0
"Line.L27"              ,   2,       -11.3,        -5.7
"Line.L28"              ,   1,        11.3,         5.7,         0.0,         0.0,         0.0,         0.0
"Line.L28"              ,   2,       -11.3,        -5.7
"Line.L29"              ,   1,        11.3,         5.7,         0.0,         0.0,         0.0,         0.0
"Line.L29"              ,   2,       -11.3,        -5.7
"Line.L30"              ,   1,        22.7,        11.3,         0.0,         0.0,         0.0,         0.0
"Line.L30"              ,   2,       -22.7,       -11.3
"Line.L31"              ,   1,        11.3,         5.7,         0.0,         0.0,         0.0,         0.0
"Line.L31"              ,   2,       -11.3,        -5.7
"Line.L32"              ,   1,        -0.0,        -0.0,         0.0,         0.0,         0.0,         0.0
"Line.L32"              ,   2,         0.0,         0.0
"Line.L33"              ,   1,         5.7,         2.8,         0.0,         0.0,         0.0,         0.0
"Line.L33"              ,   2,        -5.7,        -2.8
"Line.L34"              ,   1,        17.0,         8.5,         0.0,         0.0,         0.0,         0.0
"Line.L34"              ,   2,       -17.0,        -8.5
"Line.L35"              ,   1,        22.7,        11.3,         0.0,         0.0,         0.0,         0.0
"Line.L35"              ,   2,       -22.7,       -11.3
"Line.L36"              ,   1,       180.3,       117.0,         0.0,         0.0,         0.0,         0.0
"Line.L36"              ,   2,      -180.2,      -116.8
"Line.L37"              ,   1,        11.3,         5.7,         0.0,         0.0,         0.0,         0.0
"Line.L37"              ,   2,       -11.3,        -5.7
"Line.L38"              ,   1,        11.3,         5.7,         0.0,         0.0,         0.0,         0.0
"Line.L38"              ,   2,       -11.3,        -5.7
"Line.L39"              ,   1,         5.7,         2.8,         0.0,         0.0,         0.0,         0.0
"Line.L39"              ,   2,        -5.7,        -2.8
"Line.L40"              ,   1,         5.7,         2.8,         0.0,         0.0,         0.0,         0.0
"Line.L40"              ,   2,        -5.7,        -2.8
"Line.L41"              ,   1,       174.6,       113.9,         0.0,         0.0,         0.0,         0.0
"Line.L41"              ,   2,      -174.4,      -113.7
"Line.L42"              ,   1,        11.3,         5.7,         0.0,         0.0,         0.0,         0.0
"Line.L42"              ,   2,       -11.3,        -5.7
"Line.L43"              ,   1,       157.4,       105.2,         0.0,         0.0,         0.0,         0.0
"Line.L43"              ,   2,      -157.4,      -105.0
"Line.L44"              ,   1,        11.3,         5.7,         0.0,         0.0,         0.0,         0.0
"Line.L44"              ,   2,       -11.3,        -5.7
"Line.L45"              ,   1,       146.0,        99.4,         0.0,         0.0,         0.0,         0.0
"Line.L45"              ,   2,      -145.9,       -99.2
"Line.L46"              ,   1,         5.7,         2.8,         0.0,         0.0,         0.0,         0.0
"Line.L46"              ,   2,        -5.7,        -2.8
"Line.L47"              ,   1,        59.5,        42.5,         0.0,         0.0,         0.0,         0.0
"Line.L47"              ,   2,       -59.5,       -42.5
"Line.L48"              ,   1,        56.7,        35.4,         0.0,         0.0,         0.0,         0.0
"Line.L48"              ,   2,       -56.7,       -35.4
"Line.L49"              ,   1,        17.0,         8.5,         0.0,         0.0,         0.0,         0.0
"Line.L49"              ,   2,       -17.0,        -8.5
"Line.L50"              ,   1,         5.7,         2.8,         0.0,         0.0,         0.0,         0.0
"Line.L50"              ,   2,        -5.7,        -2.8
"Line.L51"              ,   1,         0.0,        -0.0,         0.0,         0.0,         0.0,         0.0
"Line.L51"              ,   2,        -0.0,         0.0
"Line.L52"              ,   1,       554.8,        83.9,         0.0,         0.0,         0.0,         0.0
"Line.L52"              ,   2,      -554.2,       -82.6
"Line.L53"              ,   1,       542.8,        76.9,         0.0,         0.0,         0.0,         0.0
"Line.L53"              ,   2,      -542.4,       -76.1
"Line.L54"              ,   1,        11.3,         5.7,         0.0,         0.0,         0.0,         0.0
"Line.L54"              ,   2,       -11.3,        -5.7
"Line.L55"              ,   1,       531.1,        70.4,         0.0,         0.0,         0.0,         0.0
"Line.L55"              ,   2,      -530.1,       -68.3
"Line.L56"              ,   1,         5.7,         2.8,         0.0,         0.0,         0.0,         0.0
"Line.L56"              ,   2,        -5.7,        -2.8
"Line.L57"              ,   1,        11.3,         5.7,         0.0,         0.0,         0.0,         0.0
"Line.L57"              ,   2,       -11.3,        -5.7
"Line.L58"              ,   1,       518.7,        62.6,         0.0,         0.0,         0.0,         0.0
"Line.L58"              ,   2,      -516.6,       -58.2
"Line.L59"              ,   1,         5.7,         2.8,         0.0,         0.0,         0.0,         0.0
"Line.L59"              ,   2,        -5.7,        -2.8
"Line.L60"              ,   1,         0.0,        -0.0,         0.0,         0.0,         0.0,         0.0
"Line.L60"              ,   2,        -0.0,         0.0
"Line.L61"              ,   1,       105.2,        59.6,         0.0,         0.0,         0.0,         0.0
"Line.L61"              ,   2,      -105.1,       -59.5
"Line.L62"              ,   1,        93.8,        53.9,         0.0,         0.0,         0.0,         0.0
"Line.L62"              ,   2,       -93.7,       -53.9
"Line.L63"              ,   1,        82.4,        48.2,         0.0,         0.0,         0.0,         0.0
"Line.L63"              ,   2,       -82.3,       -48.2
"Line.L64"              ,   1,        61.0,        38.2,         0.0,         0.0,         0.0,         0.0
"Line.L64"              ,   2,       -60.9,       -38.2
"Line.L65"              ,   1,        21.3,         9.9,         0.0,         0.0,         0.0,         0.0
"Line.L65"              ,   2,       -21.3,        -9.9
"Line.L66"              ,   1,        34.0,        17.0,         0.0,         0.0,         0.0,         0.0
"Line.L66"              ,   2,       -34.0,       -17.0
"Line.L67"              ,   1,       246.1,       -85.2,         0.0,         0.0,         0.0,         0.0
"Line.L67"              ,   2,      -245.9,        85.6
"Line.L68"              ,   1,       124.9,        62.6,         0.0,         0.0,         0.0,         0.0
"Line.L68"              ,   2,      -124.8,       -62.5
"Line.L69"              ,   1,        28.4,        14.2,         0.0,         0.0,         0.0,         0.0
"Line.L69"              ,   2,       -28.3,       -14.2
"Line.L70"              ,   1,        17.0,         8.5,         0.0,         0.0,         0.0,         0.0
"Line.L70"              ,   2,       -17.0,        -8.5
"Line.L71"              ,   1,        11.3,         5.7,         0.0,         0.0,         0.0,         0.0
"Line.L71"              ,   2,       -11.3,        -5.7
"Line.L72"              ,   1,        34.0,        17.0,         0.0,         0.0,         0.0,         0.0
"Line.L72"              ,   2,       -34.0,       -17.0
"Line.L73"              ,   1,       211.8,      -102.7,         0.0,         0.0,         0.0,         0.0
"Line.L73"              ,   2,      -211.7,       102.9
"Line.L74"              ,   1,        22.7,        11.3,         0.0,         0.0,         0.0,         0.0
"Line.L74"              ,   2,       -22.7,       -11.3
"Line.L75"              ,   1,        11.3,         5.7,         0.0,         0.0,         0.0,         0.0
"Line.L75"              ,   2,       -11.3,        -5.7
"Line.L76"              ,   1,        68.5,      -146.2,         0.0,         0.0,         0.0,         0.0
"Line.L76"              ,   2,       -68.4,       146.4
"Line.L77"              ,   1,        73.8,        -7.8,         0.0,         0.0,         0.0,         0.0
"Line.L77"              ,   2,       -73.7,         7.8
"Line.L78"              ,   1,        57.1,      -152.1,         0.0,         0.0,         0.0,         0.0
"Line.L78"              ,   2,       -57.1,       152.1
"Line.L79"              ,   1,        11.3,         5.7,         0.0,         0.0,         0.0,         0.0
"Line.L79"              ,   2,       -11.3,        -5.7
"Line.L80"              ,   1,        45.7,      -157.8,         0.0,         0.0,         0.0,         0.0
"Line.L80"              ,   2,       -45.6,       158.1
"Line.L81"              ,   1,        34.2,      -163.7,         0.0,         0.0,         0.0,         0.0
"Line.L81"              ,   2,       -34.2,       163.9
"Line.L82"              ,   1,        17.2,      -172.4,         0.0,         0.0,         0.0,         0.0
"Line.L82"              ,   2,       -17.1,       172.5
"Line.L83"              ,   1,        17.0,         8.5,         0.0,         0.0,         0.0,         0.0
"Line.L83"              ,   2,       -17.0,        -8.5
"Line.L84"              ,   1,         5.8,      -178.2,         0.0,         0.0,         0.0,         0.0
"Line.L84"              ,   2,        -5.7,       178.4
"Line.L85"              ,   1,        11.3,         5.7,         0.0,         0.0,         0.0,         0.0
"Line.L85"              ,   2,       -11.3,        -5.7
"Line.L86"              ,   1,        68.0,       -10.7,         0.0,         0.0,         0.0,         0.0
"Line.L86"              ,   2,       -68.0,        10.7
"Line.L87"              ,   1,        11.3,        -9.3,         0.0,         0.0,         0.0,         0.0
"Line.L87"              ,   2,       -11.3,         9.3
"Line.L88"              ,   1,        45.4,        -7.1,         0.0,         0.0,         0.0,         0.0
"Line.L88"              ,   2,       -45.3,         7.2
"Line.L89"              ,   1,        11.3,        -9.2,         0.0,         0.0,         0.0,         0.0
"Line.L89"              ,   2,       -11.3,         9.3
"Line.L90"              ,   1,        34.0,         2.1,         0.0,         0.0,         0.0,         0.0
"Line.L90"              ,   2,       -34.0,        -2.1
"Line.L91"              ,   1,        11.3,        -9.2,         0.0,         0.0,         0.0,         0.0
"Line.L91"              ,   2,       -11.3,         9.2
"Line.L92"              ,   1,        22.7,        11.3,         0.0,         0.0,         0.0,         0.0
"Line.L92"              ,   2,       -22.7,       -11.3
"Line.L93"              ,   1,        11.3,         5.7,         0.0,         0.0,         0.0,         0.0
"Line.L93"              ,   2,       -11.3,        -5.7
"Line.L94"              ,   1,        11.3,         5.7,         0.0,         0.0,         0.0,         0.0
"Line.L94"              ,   2,       -11.3,        -5.7
"Line.L95"              ,   1,         5.7,         2.8,         0.0,         0.0,         0.0,         0.0
"Line.L95"              ,   2,        -5.7,        -2.8
"Line.L96"              ,   1,        34.0,        17.0,         0.0,         0.0,         0.0,         0.0
"Line.L96"              ,   2,       -34.0,       -17.0
"Line.L97"              ,   1,        22.7,        11.3,         0.0,         0.0,         0.0,         0.0
"Line.L97"              ,   2,       -22.7,       -11.3
"Line.L98"              ,   1,        11.3,         5.7,         0.0,         0.0,         0.0,         0.0
"Line.L98"              ,   2,       -11.3,        -5.7
"Line.L99"              ,   1,         0.0,        -0.0,         0.0,         0.0,         0.0,         0.0
"Line.L99"              ,   2,         0.0,         0.0
"Line.L118"             ,   1,        90.8,        45.5,         0.0,         0.0,         0.0,         0.0
"Line.L118"             ,   2,       -90.8,       -45.5
"Line.L100"             ,   1,        28.4,        14.2,         0.0,         0.0,         0.0,         0.0
"Line.L100"             ,   2,       -28.4,       -14.2
"Line.L101"             ,   1,        62.4,        31.3,         0.0,         0.0,         0.0,         0.0
"Line.L101"             ,   2,       -62.4,       -31.2
"Line.L102"             ,   1,        22.7,        11.3,         0.0,         0.0,         0.0,         0.0
"Line.L102"             ,   2,       -22.7,       -11.3
"Line.L103"             ,   1,        11.3,         5.7,         0.0,         0.0,         0.0,         0.0
"Line.L103"             ,   2,       -11.3,        -5.7
"Line.L104"             ,   1,        22.7,        11.3,         0.0,         0.0,         0.0,         0.0
"Line.L104"             ,   2,       -22.7,       -11.3
"Line.L105"             ,   1,        39.7,        19.9,         0.0,         0.0,         0.0,         0.0
"Line.L105"             ,   2,       -39.7,       -19.9
"Line.L106"             ,   1,        11.3,         5.7,         0.0,         0.0,         0.0,         0.0
"Line.L106"             ,   2,       -11.3,        -5.7
"Line.L107"             ,   1,        39.7,        19.9,         0.0,         0.0,         0.0,         0.0
"Line.L107"             ,   2,       -39.7,       -19.9
"Line.L108"             ,   1,         0.0,        -0.0,         0.0,         0.0,         0.0,         0.0
"Line.L108"             ,   2,        -0.0,         0.0
"Line.L109"             ,   1,        28.4,        14.2,         0.0,         0.0,         0.0,         0.0
"Line.L109"             ,   2,       -28.3,       -14.2
"Line.L110"             ,   1,         5.7,         2.8,         0.0,         0.0,         0.0,         0.0
"Line.L110"             ,   2,        -5.7,        -2.8
"Line.L111"             ,   1,        22.7,        11.3,         0.0,         0.0,         0.0,         0.0
"Line.L111"             ,   2,       -22.7,       -11.3
"Line.L112"             ,   1,        17.0,         8.5,         0.0,         0.0,         0.0,         0.0
"Line.L112"             ,   2,       -17.0,        -8.5
"Line.L113"             ,   1,         5.7,         2.8,         0.0,         0.0,         0.0,         0.0
"Line.L113"             ,   2,        -5.7,        -2.8
"Line.L114"             ,   1,       214.6,       134.5,         0.0,         0.0,         0.0,         0.0
"Line.L114"             ,   2,      -214.4,      -134.0
"Line.L116"             ,   1,       567.5,        92.4,         0.0,         0.0,         0.0,         0.0
"Line.L116"             ,   2,      -566.2,       -89.6
"Line.L117"             ,   1,       405.7,        -4.2,         0.0,         0.0,         0.0,         0.0
"Line.L117"             ,   2,      -405.0,         5.5
"Line.SW1"              ,   1,      1011.4,       363.0,       102.2,        36.7,         0.0,         0.0
"Line.SW1"              ,   2,     -1011.4,      -363.0
"Line.SW2"              ,   1,       567.5,        92.4,         0.0,         0.0,         0.0,         0.0
"Line.SW2"              ,   2,      -567.5,       -92.4
"Line.SW3"              ,   1,       214.6,       134.5,         0.0,         0.0,         0.0,         0.0
"Line.SW3"              ,   2,      -214.6,      -134.5
