Element, Terminal, P(kW), Q(kvar),  P_Normal, Q_Normal, P_Emergency, Q_Emergency
"Line.L115"             ,   1,       442.2,       142.1,         0.0,         0.0,         0.0,         0.0
"Line.L115"             ,   2,      -441.3,      -140.3
"Line.L1"               ,   1,         4.0,         2.0,         0.0,         0.0,         0.0,         0.0
"Line.L1"               ,   2,        -4.0,        -2.0
"Line.L2"               ,   1,        19.9,        10.0,         0.0,         0.0,         0.0,         0.0
"Line.L2"               ,   2,       -19.9,       -10.0
"Line.L3"               ,   1,       409.4,       124.4,         0.0,         0.0,         0.0,         0.0
"Line.L3"               ,   2,      -408.9,      -123.2
"Line.L4"               ,   1,         8.0,         4.0,         0.0,         0.0,         0.0,         0.0
"Line.L4"               ,   2,        -8.0,        -4.0
"Line.L5"               ,   1,        12.0,         6.0,         0.0,         0.0,         0.0,         0.0
"Line.L5"               ,   2,       -12.0,        -6.0
"Line.L6"               ,   1,         8.0,         4.0,         0.0,         0.0,         0.0,         0.0
"Line.L6"               ,   2,        -8.0,        -4.0
"Line.L7"               ,   1,       404.9,       121.2,         0.0,         0.0,         0.0,         0.0
"Line.L7"               ,   2,      -404.5,      -120.5
"Line.L8"               ,   1,         4.0,         2.0,         0.0,         0.0,         0.0,         0.0
"Line.L8"               ,   2,        -4.0,        -2.0
"Line.L9"               ,   1,         6.6,        10.0,         0.0,         0.0,         0.0,         0.0
"Line.L9"               ,   2,        -6.6,       -10.0
"Line.L10"              ,   1,       393.9,       108.5,         0.0,         0.0,         0.0,         0.0
"Line.L10"              ,   2,      -393.4,      -107.5
"Line.L11"              ,   1,        12.0,         6.0,         0.0,         0.0,         0.0,         0.0
"Line.L11"              ,   2,       -12.0,        -6.0
"Line.L12"              ,   1,        19.9,        10.0,         0.0,         0.0,         0.0,         0.0
"Line.L12"              ,   2,       -19.9,       -10.0
"Line.L13"              ,   1,       139.4,       130.5,         0.0,         0.0,         0.0,         0.0
"Line.L13"              ,   2,      -139.1,      -129.9
"Line.L14"              ,   1,         8.0,         4.0,         0.0,         0.0,         0.0,         0.0
"Line.L14"              ,   2,        -8.0,        -4.0
"Line.L15"              ,   1,         4.0,         2.0,         0.0,         0.0,         0.0,         0.0
"Line.L15"              ,   2,        -4.0,        -2.0
"Line.L16"              ,   1,         8.0,         4.0,         0.0,         0.0,         0.0,         0.0
"Line.L16"              ,   2,        -8.0,        -4.0
"Line.L17"              ,   1,         4.0,         2.0,         0.0,         0.0,         0.0,         0.0
"Line.L17"              ,   2,        -4.0,        -2.0
"Line.L18"              ,   1,        16.0,         8.0,         0.0,         0.0,         0.0,         0.0
"Line.L18"              ,   2,       -15.9,        -8.0
"Line.L19"              ,   1,        42.5,        27.9,         0.0,         0.0,         0.0,         0.0
"Line.L19"              ,   2,       -42.5,       -27.9
"Line.L20"              ,   1,         8.0,         4.0,         0.0,         0.0,         0.0,         0.0
"Line.L20"              ,   2,        -8.0,        -4.0
"Line.L21"              ,   1,         8.0,         4.0,         0.0,         0.0,         0.0,         0.0
"Line.L21"              ,   2,        -8.0,        -4.0
"Line.L22"              ,   1,        34.5,        23.9,         0.0,         0.0,         0.0,         0.0
"Line.L22"              ,   2,       -34.5,       -23.9
"Line.L23"              ,   1,         8.0,         4.0,         0.0,         0.0,         0.0,         0.0
"Line.L23"              ,   2,        -8.0,        -4.0
"Line.L24"              ,   1,        26.5,        19.9,         0.0,         0.0,         0.0,         0.0
"Line.L24"              ,   2,       -26.5,       -19.9
"Line.L25"              ,   1,        16.0,         8.0,         0.0,         0.0,         0.0,         0.0
"Line.L25"              ,   2,       -15.9,        -8.0
"Line.L26"              ,   1,        10.6,        12.0,         0.0,         0.0,         0.0,         0.0
"Line.L26"              ,   2,       -10.6,       -12.0
"Line.L27"              ,   1,         8.0,         4.0,         0.0,         0.0,         0.0,         0.0
"Line.L27"              ,   2,        -8.0,        -4.0
"Line.L28"              ,   1,         8.0,         4.0,         0.0,         0.0,         0.0,         0.0
"Line.L28"              ,   2,        -8.0,        -4.0
"Line.L29"              ,   1,         8.0,         4.0,         0.0,         0.0,         0.0,         0.0
"Line.L29"              ,   2,        -8.0,        -4.0
"Line.L30"              ,   1,        15.9,         8.0,         0.0,         0.0,         0.0,         0.0
"Line.L30"              ,   2,       -15.9,        -8.0
"Line.L31"              ,   1,         8.0,         4.0,         0.0,         0.0,         0.0,         0.0
"Line.L31"              ,   2,        -8.0,        -4.0
"Line.L32"              ,   1,         0.0,        -0.0,         0.0,         0.0,         0.0,         0.0
"Line.L32"              ,   2,        -0.0,        -0.0
"Line.L33"              ,   1,         4.0,         2.0,         0.0,         0.0,         0.0,         0.0
"Line.L33"              ,   2,        -4.0,        -2.0
"Line.L34"              ,   1,        12.0,         6.0,         0.0,         0.0,         0.0,         0.0
"Line.L34"              ,   2,       -12.0,        -6.0
"Line.L35"              ,   1,        16.0,         8.0,         0.0,         0.0,         0.0,         0.0
"Line.L35"              ,   2,       -15.9,        -8.0
"Line.L36"              ,   1,        56.7,        81.9,         0.0,         0.0,         0.0,         0.0
"Line.L36"              ,   2,       -56.6,       -81.8
"Line.L37"              ,   1,         8.0,         4.0,         0.0,         0.0,         0.0,         0.0
"Line.L37"              ,   2,        -8.0,        -4.0
"Line.L38"              ,   1,         8.0,         4.0,         0.0,         0.0,         0.0,         0.0
"Line.L38"              ,   2,        -8.0,        -4.0
"Line.L39"              ,   1,         4.0,         2.0,         0.0,         0.0,         0.0,         0.0
"Line.L39"              ,   2,        -4.0,        -2.0
"Line.L40"              ,   1,         4.0,         2.0,         0.0,         0.0,         0.0,         0.0
"Line.L40"              ,   2,        -4.0,        -2.0
"Line.L41"              ,   1,        52.7,        79.8,         0.0,         0.0,         0.0,         0.0
"Line.L41"              ,   2,       -52.6,       -79.8
"Line.L42"              ,   1,         8.0,         4.0,         0.0,         0.0,         0.0,         0.0
"Line.L42"              ,   2,        -8.0,        -4.0
"Line.L43"              ,   1,        40.7,        73.8,         0.0,         0.0,         0.0,         0.0
"Line.L43"              ,   2,       -40.7,       -73.8
"Line.L44"              ,   1,         8.0,         4.0,         0.0,         0.0,         0.0,         0.0
"Line.L44"              ,   2,        -8.0,        -4.0
"Line.L45"              ,   1,        32.7,        69.8,         0.0,         0.0,         0.0,         0.0
"Line.L45"              ,   2,       -32.7,       -69.8
"Line.L46"              ,   1,         4.0,         2.0,         0.0,         0.0,         0.0,         0.0
"Line.L46"              ,   2,        -4.0,        -2.0
"Line.L47"              ,   1,       -28.1,        29.9,         0.0,         0.0,         0.0,         0.0
"Line.L47"              ,   2,        28.1,       -29.9
"Line.L48"              ,   1,        39.9,        24.9,         0.0,         0.0,         0.0,         0.0
"Line.L48"              ,   2,       -39.9,       -24.9
"Line.L49"              ,   1,        12.0,         6.0,         0.0,         0.0,         0.0,         0.0
"Line.L49"              ,   2,       -12.0,        -6.0
"Line.L50"              ,   1,         4.0,         2.0,         0.0,         0.0,         0.0,         0.0
"Line.L50"              ,   2,        -4.0,        -2.0
"Line.L51"              ,   1,         0.0,        -0.0,         0.0,         0.0,         0.0,         0.0
"Line.L51"              ,   2,        -0.0,         0.0
"Line.L52"              ,   1,       225.9,       -37.4,         0.0,         0.0,         0.0,         0.0
"Line.L52"              ,   2,      -225.8,        37.6
"Line.L53"              ,   1,       217.8,       -41.6,         0.0,         0.0,         0.0,         0.0
"Line.L53"              ,   2,      -217.7,        41.7
"Line.L54"              ,   1,         8.0,         4.0,         0.0,         0.0,         0.0,         0.0
"Line.L54"              ,   2,        -8.0,        -4.0
"Line.L55"              ,   1,       209.8,       -45.7,         0.0,         0.0,         0.0,         0.0
"Line.L55"              ,   2,      -209.6,        46.0
"Line.L56"              ,   1,         4.0,         2.0,         0.0,         0.0,         0.0,         0.0
"Line.L56"              ,   2,        -4.0,        -2.0
"Line.L57"              ,   1,         1.3,         4.0,         0.0,         0.0,         0.0,         0.0
"Line.L57"              ,   2,        -1.3,        -4.0
"Line.L58"              ,   1,       208.3,       -50.0,         0.0,         0.0,         0.0,         0.0
"Line.L58"              ,   2,      -207.9,        50.7
"Line.L59"              ,   1,         4.0,         2.0,         0.0,         0.0,         0.0,         0.0
"Line.L59"              ,   2,        -4.0,        -2.0
"Line.L60"              ,   1,         0.0,        -0.0,         0.0,         0.0,         0.0,         0.0
"Line.L60"              ,   2,        -0.0,         0.0
"Line.L61"              ,   1,        27.1,        41.8,         0.0,         0.0,         0.0,         0.0
"Line.L61"              ,   2,       -27.1,       -41.8
"Line.L62"              ,   1,        19.2,        37.8,         0.0,         0.0,         0.0,         0.0
"Line.L62"              ,   2,       -19.1,       -37.8
"Line.L63"              ,   1,        11.2,        33.8,         0.0,         0.0,         0.0,         0.0
"Line.L63"              ,   2,       -11.2,       -33.8
"Line.L64"              ,   1,        -3.8,        26.9,         0.0,         0.0,         0.0,         0.0
"Line.L64"              ,   2,         3.8,       -26.9
"Line.L65"              ,   1,        15.0,         7.0,         0.0,         0.0,         0.0,         0.0
"Line.L65"              ,   2,       -14.9,        -7.0
"Line.L66"              ,   1,        23.9,        12.0,         0.0,         0.0,         0.0,         0.0
"Line.L66"              ,   2,       -23.9,       -12.0
"Line.L67"              ,   1,        78.2,      -150.7,         0.0,         0.0,         0.0,         0.0
"Line.L67"              ,   2,       -78.2,       150.9
"Line.L68"              ,   1,        74.5,        44.0,         0.0,         0.0,         0.0,         0.0
"Line.L68"              ,   2,       -74.4,       -43.9
"Line.L69"              ,   1,        19.9,        10.0,         0.0,         0.0,         0.0,         0.0
"Line.L69"              ,   2,       -19.9,       -10.0
"Line.L70"              ,   1,        12.0,         6.0,         0.0,         0.0,         0.0,         0.0
"Line.L70"              ,   2,       -12.0,        -6.0
"Line.L71"              ,   1,         8.0,         4.0,         0.0,         0.0,         0.0,         0.0
"Line.L71"              ,   2,        -8.0,        -4.0
"Line.L72"              ,   1,        23.9,        12.0,         0.0,         0.0,         0.0,         0.0
"Line.L72"              ,   2,       -23.9,       -12.0
"Line.L73"              ,   1,        54.2,      -162.8,         0.0,         0.0,         0.0,         0.0
"Line.L73"              ,   2,       -54.2,       163.0
"Line.L74"              ,   1,        16.0,         8.0,         0.0,         0.0,         0.0,         0.0
"Line.L74"              ,   2,       -15.9,        -8.0
"Line.L75"              ,   1,         8.0,         4.0,         0.0,         0.0,         0.0,         0.0
"Line.L75"              ,   2,        -8.0,        -4.0
"Line.L76"              ,   1,        48.5,      -174.8,         0.0,         0.0,         0.0,         0.0
"Line.L76"              ,   2,       -48.3,       175.1
"Line.L77"              ,   1,        38.5,       -24.0,         0.0,         0.0,         0.0,         0.0
"Line.L77"              ,   2,       -38.5,        24.1
"Line.L78"              ,   1,        40.4,      -179.1,         0.0,         0.0,         0.0,         0.0
"Line.L78"              ,   2,       -40.3,       179.2
"Line.L79"              ,   1,         8.0,         4.0,         0.0,         0.0,         0.0,         0.0
"Line.L79"              ,   2,        -8.0,        -4.0
"Line.L80"              ,   1,        32.3,      -183.2,         0.0,         0.0,         0.0,         0.0
"Line.L80"              ,   2,       -32.2,       183.5
"Line.L81"              ,   1,        24.2,      -187.5,         0.0,         0.0,         0.0,         0.0
"Line.L81"              ,   2,       -24.1,       187.6
"Line.L82"              ,   1,        12.2,      -193.6,         0.0,         0.0,         0.0,         0.0
"Line.L82"              ,   2,       -12.1,       193.8
"Line.L83"              ,   1,        12.0,         6.0,         0.0,         0.0,         0.0,         0.0
"Line.L83"              ,   2,       -12.0,        -6.0
"Line.L84"              ,   1,         4.1,      -197.8,         0.0,         0.0,         0.0,         0.0
"Line.L84"              ,   2,        -4.0,       198.0
"Line.L85"              ,   1,         8.0,         4.0,         0.0,         0.0,         0.0,         0.0
"Line.L85"              ,   2,        -8.0,        -4.0
"Line.L86"              ,   1,        34.5,       -26.1,         0.0,         0.0,         0.0,         0.0
"Line.L86"              ,   2,       -34.5,        26.1
"Line.L87"              ,   1,         8.0,       -12.7,         0.0,         0.0,         0.0,         0.0
"Line.L87"              ,   2,        -8.0,        12.7
"Line.L88"              ,   1,        31.9,       -17.4,         0.0,         0.0,         0.0,         0.0
"Line.L88"              ,   2,       -31.9,        17.4
"Line.L89"              ,   1,         8.0,       -12.7,         0.0,         0.0,         0.0,         0.0
"Line.L89"              ,   2,        -8.0,        12.7
"Line.L90"              ,   1,        23.9,        -4.7,         0.0,         0.0,         0.0,         0.0
"Line.L90"              ,   2,       -23.9,         4.7
"Line.L91"              ,   1,         8.0,       -12.7,         0.0,         0.0,         0.0,         0.0
"Line.L91"              ,   2,        -8.0,        12.7
"Line.L92"              ,   1,        15.9,         8.0,         0.0,         0.0,         0.0,         0.0
"Line.L92"              ,   2,       -15.9,        -8.0
"Line.L93"              ,   1,         8.0,         4.0,         0.0,         0.0,         0.0,         0.0
"Line.L93"              ,   2,        -8.0,        -4.0
"Line.L94"              ,   1,         8.0,         4.0,         0.0,         0.0,         0.0,         0.0
"Line.L94"              ,   2,        -8.0,        -4.0
"Line.L95"              ,   1,         4.0,         2.0,         0.0,         0.0,         0.0,         0.0
"Line.L95"              ,   2,        -4.0,        -2.0
"Line.L96"              ,   1,        10.6,        12.0,         0.0,         0.0,         0.0,         0.0
"Line.L96"              ,   2,       -10.6,       -12.0
"Line.L97"              ,   1,         2.6,         8.0,         0.0,         0.0,         0.0,         0.0
"Line.L97"              ,   2,        -2.6,        -8.0
"Line.L98"              ,   1,        -5.4,         4.0,         0.0,         0.0,         0.0,         0.0
"Line.L98"              ,   2,         5.4,        -4.0
"Line.L99"              ,   1,         0.0,        -0.0,         0.0,         0.0,         0.0,         0.0
"Line.L99"              ,   2,        -0.0,         0.0
"Line.L118"             ,   1,        63.9,        32.0,         0.0,         0.0,         0.0,         0.0
"Line.L118"             ,   2,       -63.8,       -31.9
"Line.L100"             ,   1,        19.9,        10.0,         0.0,         0.0,         0.0,         0.0
"Line.L100"             ,   2,       -19.9,       -10.0
"Line.L101"             ,   1,        43.9,        22.0,         0.0,         0.0,         0.0,         0.0
"Line.L101"             ,   2,       -43.9,       -22.0
"Line.L102"             ,   1,        16.0,         8.0,         0.0,         0.0,         0.0,         0.0
"Line.L102"             ,   2,       -15.9,        -8.0
"Line.L103"             ,   1,         8.0,         4.0,         0.0,         0.0,         0.0,         0.0
"Line.L103"             ,   2,        -8.0,        -4.0
"Line.L104"             ,   1,        16.0,         8.0,         0.0,         0.0,         0.0,         0.0
"Line.L104"             ,   2,       -15.9,        -8.0
"Line.L105"             ,   1,        27.9,        14.0,         0.0,         0.0,         0.0,         0.0
"Line.L105"             ,   2,       -27.9,       -14.0
"Line.L106"             ,   1,         8.0,         4.0,         0.0,         0.0,         0.0,         0.0
"Line.L106"             ,   2,        -8.0,        -4.0
"Line.L107"             ,   1,        27.9,        14.0,         0.0,         0.0,         0.0,         0.0
"Line.L107"             ,   2,       -27.9,       -14.0
"Line.L108"             ,   1,         0.0,        -0.0,         0.0,         0.0,         0.0,         0.0
"Line.L108"             ,   2,         0.0,        -0.0
"Line.L109"             ,   1,        19.9,        10.0,         0.0,         0.0,         0.0,         0.0
"Line.L109"             ,   2,       -19.9,       -10.0
"Line.L110"             ,   1,         4.0,         2.0,         0.0,         0.0,         0.0,         0.0
"Line.L110"             ,   2,        -4.0,        -2.0
"Line.L111"             ,   1,        16.0,         8.0,         0.0,         0.0,         0.0,         0.0
"Line.L111"             ,   2,       -16.0,        -8.0
"Line.L112"             ,   1,        12.0,         6.0,         0.0,         0.0,         0.0,         0.0
"Line.L112"             ,   2,       -12.0,        -6.0
"Line.L113"             ,   1,         4.0,         2.0,         0.0,         0.0,         0.0,         0.0
"Line.L113"             ,   2,        -4.0,        -2.0
"Line.L114"             ,   1,        80.6,        94.0,         0.0,         0.0,         0.0,         0.0
"Line.L114"             ,   2,       -80.6,       -93.8
"Line.L116"             ,   1,       234.1,       -32.9,         0.0,         0.0,         0.0,         0.0
"Line.L116"             ,   2,      -233.8,        33.4
"Line.L117"             ,   1,       176.8,       -94.5,         0.0,         0.0,         0.0,         0.0
"Line.L117"             ,   2,      -176.7,        94.8
"Line.SW1"              ,   1,       442.2,       142.1,         0.0,         0.0,         0.0,         0.0
"Line.SW1"              ,   2,      -442.2,      -142.1
"Line.SW2"              ,   1,       234.1,       -32.9,         0.0,         0.0,         0.0,         0.0
"Line.SW2"              ,   2,      -234.1,        32.9
"Line.SW3"              ,   1,        80.6,        94.0,         0.0,         0.0,         0.0,         0.0
"Line.SW3"              ,   2,       -80.6,       -94.0
