Element, Terminal, P(kW), Q(kvar),  P_Normal, Q_Normal, P_Emergency, Q_Emergency
"Line.L115"             ,   1,       704.8,       300.8,         0.0,         0.0,         0.0,         0.0
"Line.L115"             ,   2,      -702.5,      -296.0
"Line.L1"               ,   1,         5.3,         2.7,         0.0,         0.0,         0.0,         0.0
"Line.L1"               ,   2,        -5.3,        -2.7
"Line.L2"               ,   1,        26.5,        13.3,         0.0,         0.0,         0.0,         0.0
"Line.L2"               ,   2,       -26.5,       -13.3
"Line.L3"               ,   1,       660.0,       274.7,         0.0,         0.0,         0.0,         0.0
"Line.L3"               ,   2,      -658.5,      -271.6
"Line.L4"               ,   1,        10.6,         5.3,         0.0,         0.0,         0.0,         0.0
"Line.L4"               ,   2,       -10.6,        -5.3
"Line.L5"               ,   1,        15.9,         8.0,         0.0,         0.0,         0.0,         0.0
"Line.L5"               ,   2,       -15.9,        -8.0
"Line.L6"               ,   1,        10.6,         5.3,         0.0,         0.0,         0.0,         0.0
"Line.L6"               ,   2,       -10.6,        -5.3
"Line.L7"               ,   1,       653.2,       268.9,         0.0,         0.0,         0.0,         0.0
"Line.L7"               ,   2,      -652.2,      -266.9
"Line.L8"               ,   1,         5.3,         2.7,         0.0,         0.0,         0.0,         0.0
"Line.L8"               ,   2,        -5.3,        -2.7
"Line.L9"               ,   1,        14.5,        13.3,         0.0,         0.0,         0.0,         0.0
"Line.L9"               ,   2,       -14.5,       -13.3
"Line.L10"              ,   1,       632.3,       250.9,         0.0,         0.0,         0.0,         0.0
"Line.L10"              ,   2,      -630.9,      -248.0
"Line.L11"              ,   1,        15.9,         8.0,         0.0,         0.0,         0.0,         0.0
"Line.L11"              ,   2,       -15.9,        -8.0
"Line.L12"              ,   1,        26.5,        13.3,         0.0,         0.0,         0.0,         0.0
"Line.L12"              ,   2,       -26.5,       -13.3
"Line.L13"              ,   1,       221.9,       174.6,         0.0,         0.0,         0.0,         0.0
"Line.L13"              ,   2,      -221.3,      -173.2
"Line.L14"              ,   1,        10.6,         5.3,         0.0,         0.0,         0.0,         0.0
"Line.L14"              ,   2,       -10.6,        -5.3
"Line.L15"              ,   1,         5.3,         2.7,         0.0,         0.0,         0.0,         0.0
"Line.L15"              ,   2,        -5.3,        -2.7
"Line.L16"              ,   1,        10.6,         5.3,         0.0,         0.0,         0.0,         0.0
"Line.L16"              ,   2,       -10.6,        -5.3
"Line.L17"              ,   1,         5.3,         2.7,         0.0,         0.0,         0.0,         0.0
"Line.L17"              ,   2,        -5.3,        -2.7
"Line.L18"              ,   1,        21.2,        10.6,         0.0,         0.0,         0.0,         0.0
"Line.L18"              ,   2,       -21.2,       -10.6
"Line.L19"              ,   1,        62.3,        37.2,         0.0,         0.0,         0.0,         0.0
"Line.L19"              ,   2,       -62.3,       -37.2
"Line.L20"              ,   1,        10.6,         5.3,         0.0,         0.0,         0.0,         0.0
"Line.L20"              ,   2,       -10.6,        -5.3
"Line.L21"              ,   1,        10.6,         5.3,         0.0,         0.0,         0.0,         0.0
"Line.L21"              ,   2,       -10.6,        -5.3
"Line.L22"              ,   1,        51.7,        31.9,         0.0,         0.0,         0.0,         0.0
"Line.L22"              ,   2,       -51.7,       -31.9
"Line.L23"              ,   1,        10.6,         5.3,         0.0,         0.0,         0.0,         0.0
"Line.L23"              ,   2,       -10.6,        -5.3
"Line.L24"              ,   1,        41.1,        26.5,         0.0,         0.0,         0.0,         0.0
"Line.L24"              ,   2,       -41.1,       -26.5
"Line.L25"              ,   1,        21.2,        10.6,         0.0,         0.0,         0.0,         0.0
"Line.L25"              ,   2,       -21.2,       -10.6
"Line.L26"              ,   1,        19.8,        15.9,         0.0,         0.0,         0.0,         0.0
"Line.L26"              ,   2,       -19.8,       -15.9
"Line.L27"              ,   1,        10.6,         5.3,         0.0,         0.0,         0.0,         0.0
"Line.L27"              ,   2,       -10.6,        -5.3
"Line.L28"              ,   1,        10.6,         5.3,         0.0,         0.0,         0.0,         0.0
"Line.L28"              ,   2,       -10.6,        -5.3
"Line.L29"              ,   1,        10.6,         5.3,         0.0,         0.0,         0.0,         0.0
"Line.L29"              ,   2,       -10.6,        -5.3
"Line.L30"              ,   1,        21.2,        10.6,         0.0,         0.0,         0.0,         0.0
"Line.L30"              ,   2,       -21.2,       -10.6
"Line.L31"              ,   1,        10.6,         5.3,         0.0,         0.0,         0.0,         0.0
"Line.L31"              ,   2,       -10.6,        -5.3
"Line.L32"              ,   1,         0.0,        -0.0,         0.0,         0.0,         0.0,         0.0
"Line.L32"              ,   2,        -0.0,        -0.0
"Line.L33"              ,   1,         5.3,         2.7,         0.0,         0.0,         0.0,         0.0
"Line.L33"              ,   2,        -5.3,        -2.7
"Line.L34"              ,   1,        15.9,         8.0,         0.0,         0.0,         0.0,         0.0
"Line.L34"              ,   2,       -15.9,        -8.0
"Line.L35"              ,   1,        21.2,        10.6,         0.0,         0.0,         0.0,         0.0
"Line.L35"              ,   2,       -21.2,       -10.6
"Line.L36"              ,   1,       105.7,       109.2,         0.0,         0.0,         0.0,         0.0
"Line.L36"              ,   2,      -105.6,      -109.1
"Line.L37"              ,   1,        10.6,         5.3,         0.0,         0.0,         0.0,         0.0
"Line.L37"              ,   2,       -10.6,        -5.3
"Line.L38"              ,   1,        10.6,         5.3,         0.0,         0.0,         0.0,         0.0
"Line.L38"              ,   2,       -10.6,        -5.3
"Line.L39"              ,   1,         5.3,         2.7,         0.0,         0.0,         0.0,         0.0
"Line.L39"              ,   2,        -5.3,        -2.7
"Line.L40"              ,   1,         5.3,         2.7,         0.0,         0.0,         0.0,         0.0
"Line.L40"              ,   2,        -5.3,        -2.7
"Line.L41"              ,   1,       100.3,       106.4,         0.0,         0.0,         0.0,         0.0
"Line.L41"              ,   2,      -100.3,      -106.3
"Line.L42"              ,   1,        10.6,         5.3,         0.0,         0.0,         0.0,         0.0
"Line.L42"              ,   2,       -10.6,        -5.3
"Line.L43"              ,   1,        84.3,        98.3,         0.0,         0.0,         0.0,         0.0
"Line.L43"              ,   2,       -84.3,       -98.3
"Line.L44"              ,   1,        10.6,         5.3,         0.0,         0.0,         0.0,         0.0
"Line.L44"              ,   2,       -10.6,        -5.3
"Line.L45"              ,   1,        73.7,        93.0,         0.0,         0.0,         0.0,         0.0
"Line.L45"              ,   2,       -73.7,       -92.9
"Line.L46"              ,   1,         5.3,         2.7,         0.0,         0.0,         0.0,         0.0
"Line.L46"              ,   2,        -5.3,        -2.7
"Line.L47"              ,   1,        -7.3,        39.8,         0.0,         0.0,         0.0,         0.0
"Line.L47"              ,   2,         7.3,       -39.8
"Line.L48"              ,   1,        53.1,        33.2,         0.0,         0.0,         0.0,         0.0
"Line.L48"              ,   2,       -53.1,       -33.2
"Line.L49"              ,   1,        15.9,         8.0,         0.0,         0.0,         0.0,         0.0
"Line.L49"              ,   2,       -15.9,        -8.0
"Line.L50"              ,   1,         5.3,         2.6,         0.0,         0.0,         0.0,         0.0
"Line.L50"              ,   2,        -5.3,        -2.7
"Line.L51"              ,   1,         0.0,        -0.0,         0.0,         0.0,         0.0,         0.0
"Line.L51"              ,   2,         0.0,        -0.0
"Line.L52"              ,   1,       371.2,        53.6,         0.0,         0.0,         0.0,         0.0
"Line.L52"              ,   2,      -370.9,       -53.0
"Line.L53"              ,   1,       360.3,        47.7,         0.0,         0.0,         0.0,         0.0
"Line.L53"              ,   2,      -360.1,       -47.4
"Line.L54"              ,   1,        10.6,         5.3,         0.0,         0.0,         0.0,         0.0
"Line.L54"              ,   2,       -10.6,        -5.3
"Line.L55"              ,   1,       349.5,        42.1,         0.0,         0.0,         0.0,         0.0
"Line.L55"              ,   2,      -349.1,       -41.2
"Line.L56"              ,   1,         5.3,         2.7,         0.0,         0.0,         0.0,         0.0
"Line.L56"              ,   2,        -5.3,        -2.7
"Line.L57"              ,   1,         4.6,         5.3,         0.0,         0.0,         0.0,         0.0
"Line.L57"              ,   2,        -4.6,        -5.3
"Line.L58"              ,   1,       344.5,        35.9,         0.0,         0.0,         0.0,         0.0
"Line.L58"              ,   2,      -343.5,       -34.0
"Line.L59"              ,   1,         5.3,         2.7,         0.0,         0.0,         0.0,         0.0
"Line.L59"              ,   2,        -5.3,        -2.7
"Line.L60"              ,   1,         0.0,        -0.0,         0.0,         0.0,         0.0,         0.0
"Line.L60"              ,   2,        -0.0,         0.0
"Line.L61"              ,   1,        56.3,        55.7,         0.0,         0.0,         0.0,         0.0
"Line.L61"              ,   2,       -56.3,       -55.7
"Line.L62"              ,   1,        45.7,        50.4,         0.0,         0.0,         0.0,         0.0
"Line.L62"              ,   2,       -45.6,       -50.4
"Line.L63"              ,   1,        35.0,        45.1,         0.0,         0.0,         0.0,         0.0
"Line.L63"              ,   2,       -35.0,       -45.1
"Line.L64"              ,   1,        15.1,        35.8,         0.0,         0.0,         0.0,         0.0
"Line.L64"              ,   2,       -15.1,       -35.8
"Line.L65"              ,   1,        19.9,         9.3,         0.0,         0.0,         0.0,         0.0
"Line.L65"              ,   2,       -19.9,        -9.3
"Line.L66"              ,   1,        31.9,        15.9,         0.0,         0.0,         0.0,         0.0
"Line.L66"              ,   2,       -31.9,       -15.9
"Line.L67"              ,   1,       144.8,       -99.6,         0.0,         0.0,         0.0,         0.0
"Line.L67"              ,   2,      -144.7,        99.7
"Line.L68"              ,   1,       104.9,        58.6,         0.0,         0.0,         0.0,         0.0
"Line.L68"              ,   2,      -104.9,       -58.5
"Line.L69"              ,   1,        26.6,        13.3,         0.0,         0.0,         0.0,         0.0
"Line.L69"              ,   2,       -26.5,       -13.3
"Line.L70"              ,   1,        15.9,         8.0,         0.0,         0.0,         0.0,         0.0
"Line.L70"              ,   2,       -15.9,        -8.0
"Line.L71"              ,   1,        10.6,         5.3,         0.0,         0.0,         0.0,         0.0
"Line.L71"              ,   2,       -10.6,        -5.3
"Line.L72"              ,   1,        31.9,        15.9,         0.0,         0.0,         0.0,         0.0
"Line.L72"              ,   2,       -31.9,       -15.9
"Line.L73"              ,   1,       112.8,      -115.7,         0.0,         0.0,         0.0,         0.0
"Line.L73"              ,   2,      -112.8,       115.8
"Line.L74"              ,   1,        21.2,        10.6,         0.0,         0.0,         0.0,         0.0
"Line.L74"              ,   2,       -21.2,       -10.6
"Line.L75"              ,   1,        10.6,         5.3,         0.0,         0.0,         0.0,         0.0
"Line.L75"              ,   2,       -10.6,        -5.3
"Line.L76"              ,   1,        64.2,      -152.4,         0.0,         0.0,         0.0,         0.0
"Line.L76"              ,   2,       -64.1,       152.6
"Line.L77"              ,   1,        57.0,       -11.2,         0.0,         0.0,         0.0,         0.0
"Line.L77"              ,   2,       -57.0,        11.2
"Line.L78"              ,   1,        53.5,      -157.9,         0.0,         0.0,         0.0,         0.0
"Line.L78"              ,   2,       -53.5,       158.0
"Line.L79"              ,   1,        10.6,         5.3,         0.0,         0.0,         0.0,         0.0
"Line.L79"              ,   2,       -10.6,        -5.3
"Line.L80"              ,   1,        42.8,      -163.3,         0.0,         0.0,         0.0,         0.0
"Line.L80"              ,   2,       -42.7,       163.6
"Line.L81"              ,   1,        32.1,      -168.9,         0.0,         0.0,         0.0,         0.0
"Line.L81"              ,   2,       -32.0,       169.0
"Line.L82"              ,   1,        16.1,      -177.0,         0.0,         0.0,         0.0,         0.0
"Line.L82"              ,   2,       -16.0,       177.2
"Line.L83"              ,   1,        15.9,         8.0,         0.0,         0.0,         0.0,         0.0
"Line.L83"              ,   2,       -15.9,        -8.0
"Line.L84"              ,   1,         5.4,      -182.5,         0.0,         0.0,         0.0,         0.0
"Line.L84"              ,   2,        -5.3,       182.6
"Line.L85"              ,   1,        10.6,         5.3,         0.0,         0.0,         0.0,         0.0
"Line.L85"              ,   2,       -10.6,        -5.3
"Line.L86"              ,   1,        51.7,       -13.9,         0.0,         0.0,         0.0,         0.0
"Line.L86"              ,   2,       -51.7,        13.9
"Line.L87"              ,   1,        10.6,       -10.0,         0.0,         0.0,         0.0,         0.0
"Line.L87"              ,   2,       -10.6,        10.0
"Line.L88"              ,   1,        42.5,        -9.3,         0.0,         0.0,         0.0,         0.0
"Line.L88"              ,   2,       -42.5,         9.3
"Line.L89"              ,   1,        10.6,       -10.0,         0.0,         0.0,         0.0,         0.0
"Line.L89"              ,   2,       -10.6,        10.0
"Line.L90"              ,   1,        31.8,         0.7,         0.0,         0.0,         0.0,         0.0
"Line.L90"              ,   2,       -31.8,        -0.7
"Line.L91"              ,   1,        10.6,       -10.0,         0.0,         0.0,         0.0,         0.0
"Line.L91"              ,   2,       -10.6,        10.0
"Line.L92"              ,   1,        21.2,        10.6,         0.0,         0.0,         0.0,         0.0
"Line.L92"              ,   2,       -21.2,       -10.6
"Line.L93"              ,   1,        10.6,         5.3,         0.0,         0.0,         0.0,         0.0
"Line.L93"              ,   2,       -10.6,        -5.3
"Line.L94"              ,   1,        10.6,         5.3,         0.0,         0.0,         0.0,         0.0
"Line.L94"              ,   2,       -10.6,        -5.3
"Line.L95"              ,   1,         5.3,         2.7,         0.0,         0.0,         0.0,         0.0
"Line.L95"              ,   2,        -5.3,        -2.7
"Line.L96"              ,   1,        19.8,        15.9,         0.0,         0.0,         0.0,         0.0
"Line.L96"              ,   2,       -19.8,       -15.9
"Line.L97"              ,   1,         9.2,        10.6,         0.0,         0.0,         0.0,         0.0
"Line.L97"              ,   2,        -9.2,       -10.6
"Line.L98"              ,   1,        -1.4,         5.3,         0.0,         0.0,         0.0,         0.0
"Line.L98"              ,   2,         1.4,        -5.3
"Line.L99"              ,   1,         0.0,        -0.0,         0.0,         0.0,         0.0,         0.0
"Line.L99"              ,   2,         0.0,         0.0
"Line.L118"             ,   1,        85.0,        42.6,         0.0,         0.0,         0.0,         0.0
"Line.L118"             ,   2,       -85.0,       -42.6
"Line.L100"             ,   1,        26.6,        13.3,         0.0,         0.0,         0.0,         0.0
"Line.L100"             ,   2,       -26.5,       -13.3
"Line.L101"             ,   1,        58.5,        29.3,         0.0,         0.0,         0.0,         0.0
"Line.L101"             ,   2,       -58.5,       -29.3
"Line.L102"             ,   1,        21.2,        10.6,         0.0,         0.0,         0.0,         0.0
"Line.L102"             ,   2,       -21.2,       -10.6
"Line.L103"             ,   1,        10.6,         5.3,         0.0,         0.0,         0.0,         0.0
"Line.L103"             ,   2,       -10.6,        -5.3
"Line.L104"             ,   1,        21.2,        10.6,         0.0,         0.0,         0.0,         0.0
"Line.L104"             ,   2,       -21.2,       -10.6
"Line.L105"             ,   1,        37.2,        18.6,         0.0,         0.0,         0.0,         0.0
"Line.L105"             ,   2,       -37.2,       -18.6
"Line.L106"             ,   1,        10.6,         5.3,         0.0,         0.0,         0.0,         0.0
"Line.L106"             ,   2,       -10.6,        -5.3
"Line.L107"             ,   1,        37.2,        18.6,         0.0,         0.0,         0.0,         0.0
"Line.L107"             ,   2,       -37.2,       -18.6
"Line.L108"             ,   1,         0.0,        -0.0,         0.0,         0.0,         0.0,         0.0
"Line.L108"             ,   2,         0.0,         0.0
"Line.L109"             ,   1,        26.6,        13.3,         0.0,         0.0,         0.0,         0.0
"Line.L109"             ,   2,       -26.5,       -13.3
"Line.L110"             ,   1,         5.3,         2.7,         0.0,         0.0,         0.0,         0.0
"Line.L110"             ,   2,        -5.3,        -2.7
"Line.L111"             ,   1,        21.2,        10.6,         0.0,         0.0,         0.0,         0.0
"Line.L111"             ,   2,       -21.2,       -10.6
"Line.L112"             ,   1,        15.9,         8.0,         0.0,         0.0,         0.0,         0.0
"Line.L112"             ,   2,       -15.9,        -8.0
"Line.L113"             ,   1,         5.3,         2.7,         0.0,         0.0,         0.0,         0.0
"Line.L113"             ,   2,        -5.3,        -2.7
"Line.L114"             ,   1,       137.7,       125.4,         0.0,         0.0,         0.0,         0.0
"Line.L114"             ,   2,      -137.5,      -125.1
"Line.L116"             ,   1,       382.4,        60.2,         0.0,         0.0,         0.0,         0.0
"Line.L116"             ,   2,      -381.8,       -58.9
"Line.L117"             ,   1,       281.9,       -24.4,         0.0,         0.0,         0.0,         0.0
"Line.L117"             ,   2,      -281.6,        25.0
"Line.SW1"              ,   1,       704.8,       300.8,         0.0,         0.0,         0.0,         0.0
"Line.SW1"              ,   2,      -704.8,      -300.8
"Line.SW2"              ,   1,       382.4,        60.2,         0.0,         0.0,         0.0,         0.0
"Line.SW2"              ,   2,      -382.4,       -60.2
"Line.SW3"              ,   1,       137.7,       125.4,         0.0,         0.0,         0.0,         0.0
"Line.SW3"              ,   2,      -137.7,      -125.4
