Element, Terminal, P(kW), Q(kvar),  P_Normal, Q_Normal, P_Emergency, Q_Emergency
"Line.L115"             ,   1,       929.8,       310.6,        13.6,         4.5,         0.0,         0.0
"Line.L115"             ,   2,      -926.0,      -302.8
"Line.L1"               ,   1,         5.2,         2.6,         0.0,         0.0,         0.0,         0.0
"Line.L1"               ,   2,        -5.2,        -2.6
"Line.L2"               ,   1,        26.1,        13.1,         0.0,         0.0,         0.0,         0.0
"Line.L2"               ,   2,       -26.1,       -13.1
"Line.L3"               ,   1,       884.2,       281.9,         0.0,         0.0,         0.0,         0.0
"Line.L3"               ,   2,      -881.6,      -276.6
"Line.L4"               ,   1,        10.4,         5.2,         0.0,         0.0,         0.0,         0.0
"Line.L4"               ,   2,       -10.4,        -5.2
"Line.L5"               ,   1,        15.7,         7.8,         0.0,         0.0,         0.0,         0.0
"Line.L5"               ,   2,       -15.7,        -7.8
"Line.L6"               ,   1,        10.4,         5.2,         0.0,         0.0,         0.0,         0.0
"Line.L6"               ,   2,       -10.4,        -5.2
"Line.L7"               ,   1,       876.4,       274.0,         0.0,         0.0,         0.0,         0.0
"Line.L7"               ,   2,      -874.7,      -270.5
"Line.L8"               ,   1,         5.2,         2.6,         0.0,         0.0,         0.0,         0.0
"Line.L8"               ,   2,        -5.2,        -2.6
"Line.L9"               ,   1,        26.1,        13.1,         0.0,         0.0,         0.0,         0.0
"Line.L9"               ,   2,       -26.1,       -13.1
"Line.L10"              ,   1,       843.3,       254.8,         0.0,         0.0,         0.0,         0.0
"Line.L10"              ,   2,      -840.9,      -249.9
"Line.L11"              ,   1,        15.7,         7.8,         0.0,         0.0,         0.0,         0.0
"Line.L11"              ,   2,       -15.7,        -7.8
"Line.L12"              ,   1,        26.1,        13.1,         0.0,         0.0,         0.0,         0.0
"Line.L12"              ,   2,       -26.1,       -13.1
"Line.L13"              ,   1,       292.6,       172.9,         0.0,         0.0,         0.0,         0.0
"Line.L13"              ,   2,      -291.7,      -170.9
"Line.L14"              ,   1,        10.4,         5.2,         0.0,         0.0,         0.0,         0.0
"Line.L14"              ,   2,       -10.4,        -5.2
"Line.L15"              ,   1,         5.2,         2.6,         0.0,         0.0,         0.0,         0.0
"Line.L15"              ,   2,        -5.2,        -2.6
"Line.L16"              ,   1,        10.4,         5.2,         0.0,         0.0,         0.0,         0.0
"Line.L16"              ,   2,       -10.4,        -5.2
"Line.L17"              ,   1,         5.2,         2.6,         0.0,         0.0,         0.0,         0.0
"Line.L17"              ,   2,        -5.2,        -2.6
"Line.L18"              ,   1,        20.9,        10.4,         0.0,         0.0,         0.0,         0.0
"Line.L18"              ,   2,       -20.9,       -10.4
"Line.L19"              ,   1,        73.1,        36.6,         0.0,         0.0,         0.0,         0.0
"Line.L19"              ,   2,       -73.1,       -36.6
"Line.L20"              ,   1,        10.4,         5.2,         0.0,         0.0,         0.0,         0.0
"Line.L20"              ,   2,       -10.4,        -5.2
"Line.L21"              ,   1,        10.4,         5.2,         0.0,         0.0,         0.0,         0.0
"Line.L21"              ,   2,       -10.4,        -5.2
"Line.L22"              ,   1,        62.7,        31.4,         0.0,         0.0,         0.0,         0.0
"Line.L22"              ,   2,       -62.7,       -31.3
"Line.L23"              ,   1,        10.4,         5.2,         0.0,         0.0,         0.0,         0.0
"Line.L23"              ,   2,       -10.4,        -5.2
"Line.L24"              ,   1,        52.2,        26.1,         0.0,         0.0,         0.0,         0.0
"Line.L24"              ,   2,       -52.2,       -26.1
"Line.L25"              ,   1,        20.9,        10.4,         0.0,         0.0,         0.0,         0.0
"Line.L25"              ,   2,       -20.9,       -10.4
"Line.L26"              ,   1,        31.3,        15.7,         0.0,         0.0,         0.0,         0.0
"Line.L26"              ,   2,       -31.3,       -15.7
"Line.L27"              ,   1,        10.4,         5.2,         0.0,         0.0,         0.0,         0.0
"Line.L27"              ,   2,       -10.4,        -5.2
"Line.L28"              ,   1,        10.4,         5.2,         0.0,         0.0,         0.0,         0.0
"Line.L28"              ,   2,       -10.4,        -5.2
"Line.L29"              ,   1,        10.4,         5.2,         0.0,         0.0,         0.0,         0.0
"Line.L29"              ,   2,       -10.4,        -5.2
"Line.L30"              ,   1,        20.9,        10.4,         0.0,         0.0,         0.0,         0.0
"Line.L30"              ,   2,       -20.9,       -10.4
"Line.L31"              ,   1,        10.4,         5.2,         0.0,         0.0,         0.0,         0.0
"Line.L31"              ,   2,       -10.4,        -5.2
"Line.L32"              ,   1,        -0.0,        -0.0,         0.0,         0.0,         0.0,         0.0
"Line.L32"              ,   2,         0.0,         0.0
"Line.L33"              ,   1,         5.2,         2.6,         0.0,         0.0,         0.0,         0.0
"Line.L33"              ,   2,        -5.2,        -2.6
"Line.L34"              ,   1,        15.7,         7.8,         0.0,         0.0,         0.0,         0.0
"Line.L34"              ,   2,       -15.7,        -7.8
"Line.L35"              ,   1,        20.9,        10.4,         0.0,         0.0,         0.0,         0.0
"Line.L35"              ,   2,       -20.9,       -10.4
"Line.L36"              ,   1,       166.1,       107.7,         0.0,         0.0,         0.0,         0.0
"Line.L36"              ,   2,      -166.0,      -107.5
"Line.L37"              ,   1,        10.4,         5.2,         0.0,         0.0,         0.0,         0.0
"Line.L37"              ,   2,       -10.4,        -5.2
"Line.L38"              ,   1,        10.4,         5.2,         0.0,         0.0,         0.0,         0.0
"Line.L38"              ,   2,       -10.4,        -5.2
"Line.L39"              ,   1,         5.2,         2.6,         0.0,         0.0,         0.0,         0.0
"Line.L39"              ,   2,        -5.2,        -2.6
"Line.L40"              ,   1,         5.2,         2.6,         0.0,         0.0,         0.0,         0.0
"Line.L40"              ,   2,        -5.2,        -2.6
"Line.L41"              ,   1,       160.8,       104.9,         0.0,         0.0,         0.0,         0.0
"Line.L41"              ,   2,      -160.7,      -104.7
"Line.L42"              ,   1,        10.4,         5.2,         0.0,         0.0,         0.0,         0.0
"Line.L42"              ,   2,       -10.4,        -5.2
"Line.L43"              ,   1,       145.0,        96.9,         0.0,         0.0,         0.0,         0.0
"Line.L43"              ,   2,      -144.9,       -96.7
"Line.L44"              ,   1,        10.4,         5.2,         0.0,         0.0,         0.0,         0.0
"Line.L44"              ,   2,       -10.4,        -5.2
"Line.L45"              ,   1,       134.5,        91.5,         0.0,         0.0,         0.0,         0.0
"Line.L45"              ,   2,      -134.4,       -91.4
"Line.L46"              ,   1,         5.2,         2.6,         0.0,         0.0,         0.0,         0.0
"Line.L46"              ,   2,        -5.2,        -2.6
"Line.L47"              ,   1,        54.8,        39.2,         0.0,         0.0,         0.0,         0.0
"Line.L47"              ,   2,       -54.8,       -39.1
"Line.L48"              ,   1,        52.2,        32.6,         0.0,         0.0,         0.0,         0.0
"Line.L48"              ,   2,       -52.2,       -32.6
"Line.L49"              ,   1,        15.7,         7.8,         0.0,         0.0,         0.0,         0.0
"Line.L49"              ,   2,       -15.7,        -7.8
"Line.L50"              ,   1,         5.2,         2.6,         0.0,         0.0,         0.0,         0.0
"Line.L50"              ,   2,        -5.2,        -2.6
"Line.L51"              ,   1,         0.0,        -0.0,         0.0,         0.0,         0.0,         0.0
"Line.L51"              ,   2,        -0.0,         0.0
"Line.L52"              ,   1,       510.6,        56.4,         0.0,         0.0,         0.0,         0.0
"Line.L52"              ,   2,      -510.1,       -55.3
"Line.L53"              ,   1,       499.6,        50.1,         0.0,         0.0,         0.0,         0.0
"Line.L53"              ,   2,      -499.3,       -49.4
"Line.L54"              ,   1,        10.4,         5.2,         0.0,         0.0,         0.0,         0.0
"Line.L54"              ,   2,       -10.4,        -5.2
"Line.L55"              ,   1,       488.9,        44.2,         0.0,         0.0,         0.0,         0.0
"Line.L55"              ,   2,      -488.0,       -42.4
"Line.L56"              ,   1,         5.2,         2.6,         0.0,         0.0,         0.0,         0.0
"Line.L56"              ,   2,        -5.2,        -2.6
"Line.L57"              ,   1,        10.4,         5.2,         0.0,         0.0,         0.0,         0.0
"Line.L57"              ,   2,       -10.4,        -5.2
"Line.L58"              ,   1,       477.5,        37.2,         0.0,         0.0,         0.0,         0.0
"Line.L58"              ,   2,      -475.7,       -33.5
"Line.L59"              ,   1,         5.2,         2.6,         0.0,         0.0,         0.0,         0.0
"Line.L59"              ,   2,        -5.2,        -2.6
"Line.L60"              ,   1,         0.0,        -0.0,         0.0,         0.0,         0.0,         0.0
"Line.L60"              ,   2,        -0.0,         0.0
"Line.L61"              ,   1,        96.9,        54.9,         0.0,         0.0,         0.0,         0.0
"Line.L61"              ,   2,       -96.8,       -54.8
"Line.L62"              ,   1,        86.4,        49.6,         0.0,         0.0,         0.0,         0.0
"Line.L62"              ,   2,       -86.3,       -49.6
"Line.L63"              ,   1,        75.9,        44.4,         0.0,         0.0,         0.0,         0.0
"Line.L63"              ,   2,       -75.8,       -44.4
"Line.L64"              ,   1,        56.2,        35.2,         0.0,         0.0,         0.0,         0.0
"Line.L64"              ,   2,       -56.1,       -35.2
"Line.L65"              ,   1,        19.6,         9.1,         0.0,         0.0,         0.0,         0.0
"Line.L65"              ,   2,       -19.6,        -9.1
"Line.L66"              ,   1,        31.3,        15.7,         0.0,         0.0,         0.0,         0.0
"Line.L66"              ,   2,       -31.3,       -15.7
"Line.L67"              ,   1,       226.7,       -98.4,         0.0,         0.0,         0.0,         0.0
"Line.L67"              ,   2,      -226.5,        98.8
"Line.L68"              ,   1,       115.0,        57.7,         0.0,         0.0,         0.0,         0.0
"Line.L68"              ,   2,      -115.0,       -57.6
"Line.L69"              ,   1,        26.1,        13.1,         0.0,         0.0,         0.0,         0.0
"Line.L69"              ,   2,       -26.1,       -13.1
"Line.L70"              ,   1,        15.7,         7.8,         0.0,         0.0,         0.0,         0.0
"Line.L70"              ,   2,       -15.7,        -7.8
"Line.L71"              ,   1,        10.4,         5.2,         0.0,         0.0,         0.0,         0.0
"Line.L71"              ,   2,       -10.4,        -5.2
"Line.L72"              ,   1,        31.3,        15.7,         0.0,         0.0,         0.0,         0.0
"Line.L72"              ,   2,       -31.3,       -15.7
"Line.L73"              ,   1,       195.2,      -114.5,         0.0,         0.0,         0.0,         0.0
"Line.L73"              ,   2,      -195.1,       114.7
"Line.L74"              ,   1,        20.9,        10.4,         0.0,         0.0,         0.0,         0.0
"Line.L74"              ,   2,       -20.9,       -10.4
"Line.L75"              ,   1,        10.4,         5.2,         0.0,         0.0,         0.0,         0.0
"Line.L75"              ,   2,       -10.4,        -5.2
"Line.L76"              ,   1,        63.2,      -150.6,         0.0,         0.0,         0.0,         0.0
"Line.L76"              ,   2,       -63.1,       150.8
"Line.L77"              ,   1,        67.9,       -11.1,         0.0,         0.0,         0.0,         0.0
"Line.L77"              ,   2,       -67.9,        11.2
"Line.L78"              ,   1,        52.6,      -156.0,         0.0,         0.0,         0.0,         0.0
"Line.L78"              ,   2,       -52.6,       156.1
"Line.L79"              ,   1,        10.4,         5.2,         0.0,         0.0,         0.0,         0.0
"Line.L79"              ,   2,       -10.4,        -5.2
"Line.L80"              ,   1,        42.1,      -161.3,         0.0,         0.0,         0.0,         0.0
"Line.L80"              ,   2,       -42.0,       161.6
"Line.L81"              ,   1,        31.6,      -166.8,         0.0,         0.0,         0.0,         0.0
"Line.L81"              ,   2,       -31.5,       166.9
"Line.L82"              ,   1,        15.8,      -174.8,         0.0,         0.0,         0.0,         0.0
"Line.L82"              ,   2,       -15.7,       174.9
"Line.L83"              ,   1,        15.7,         7.8,         0.0,         0.0,         0.0,         0.0
"Line.L83"              ,   2,       -15.7,        -7.8
"Line.L84"              ,   1,         5.3,      -180.2,         0.0,         0.0,         0.0,         0.0
"Line.L84"              ,   2,        -5.2,       180.3
"Line.L85"              ,   1,        10.4,         5.2,         0.0,         0.0,         0.0,         0.0
"Line.L85"              ,   2,       -10.4,        -5.2
"Line.L86"              ,   1,        62.7,       -13.8,         0.0,         0.0,         0.0,         0.0
"Line.L86"              ,   2,       -62.7,        13.9
"Line.L87"              ,   1,        10.4,        -9.8,         0.0,         0.0,         0.0,         0.0
"Line.L87"              ,   2,       -10.4,         9.8
"Line.L88"              ,   1,        41.8,        -9.2,         0.0,         0.0,         0.0,         0.0
"Line.L88"              ,   2,       -41.8,         9.2
"Line.L89"              ,   1,        10.4,        -9.8,         0.0,         0.0,         0.0,         0.0
"Line.L89"              ,   2,       -10.4,         9.8
"Line.L90"              ,   1,        31.3,         0.6,         0.0,         0.0,         0.0,         0.0
"Line.L90"              ,   2,       -31.3,        -0.6
"Line.L91"              ,   1,        10.4,        -9.8,         0.0,         0.0,         0.0,         0.0
"Line.L91"              ,   2,       -10.4,         9.8
"Line.L92"              ,   1,        20.9,        10.4,         0.0,         0.0,         0.0,         0.0
"Line.L92"              ,   2,       -20.9,       -10.4
"Line.L93"              ,   1,        10.4,         5.2,         0.0,         0.0,         0.0,         0.0
"Line.L93"              ,   2,       -10.4,        -5.2
"Line.L94"              ,   1,        10.4,         5.2,         0.0,         0.0,         0.0,         0.0
"Line.L94"              ,   2,       -10.4,        -5.2
"Line.L95"              ,   1,         5.2,         2.6,         0.0,         0.0,         0.0,         0.0
"Line.L95"              ,   2,        -5.2,        -2.6
"Line.L96"              ,   1,        31.3,        15.7,         0.0,         0.0,         0.0,         0.0
"Line.L96"              ,   2,       -31.3,       -15.7
"Line.L97"              ,   1,        20.9,        10.4,         0.0,         0.0,         0.0,         0.0
"Line.L97"              ,   2,       -20.9,       -10.4
"Line.L98"              ,   1,        10.4,         5.2,         0.0,         0.0,         0.0,         0.0
"Line.L98"              ,   2,       -10.4,        -5.2
"Line.L99"              ,   1,         0.0,        -0.0,         0.0,         0.0,         0.0,         0.0
"Line.L99"              ,   2,         0.0,         0.0
"Line.L118"             ,   1,        83.7,        41.9,         0.0,         0.0,         0.0,         0.0
"Line.L118"             ,   2,       -83.6,       -41.9
"Line.L100"             ,   1,        26.1,        13.1,         0.0,         0.0,         0.0,         0.0
"Line.L100"             ,   2,       -26.1,       -13.1
"Line.L101"             ,   1,        57.5,        28.8,         0.0,         0.0,         0.0,         0.0
"Line.L101"             ,   2,       -57.5,       -28.8
"Line.L102"             ,   1,        20.9,        10.4,         0.0,         0.0,         0.0,         0.0
"Line.L102"             ,   2,       -20.9,       -10.4
"Line.L103"             ,   1,        10.4,         5.2,         0.0,         0.0,         0.0,         0.0
"Line.L103"             ,   2,       -10.4,        -5.2
"Line.L104"             ,   1,        20.9,        10.4,         0.0,         0.0,         0.0,         0.0
"Line.L104"             ,   2,       -20.9,       -10.4
"Line.L105"             ,   1,        36.6,        18.3,         0.0,         0.0,         0.0,         0.0
"Line.L105"             ,   2,       -36.6,       -18.3
"Line.L106"             ,   1,        10.4,         5.2,         0.0,         0.0,         0.0,         0.0
"Line.L106"             ,   2,       -10.4,        -5.2
"Line.L107"             ,   1,        36.6,        18.3,         0.0,         0.0,         0.0,         0.0
"Line.L107"             ,   2,       -36.6,       -18.3
"Line.L108"             ,   1,         0.0,        -0.0,         0.0,         0.0,         0.0,         0.0
"Line.L108"             ,   2,         0.0,         0.0
"Line.L109"             ,   1,        26.1,        13.1,         0.0,         0.0,         0.0,         0.0
"Line.L109"             ,   2,       -26.1,       -13.1
"Line.L110"             ,   1,         5.2,         2.6,         0.0,         0.0,         0.0,         0.0
"Line.L110"             ,   2,        -5.2,        -2.6
"Line.L111"             ,   1,        20.9,        10.4,         0.0,         0.0,         0.0,         0.0
"Line.L111"             ,   2,       -20.9,       -10.4
"Line.L112"             ,   1,        15.7,         7.8,         0.0,         0.0,         0.0,         0.0
"Line.L112"             ,   2,       -15.7,        -7.8
"Line.L113"             ,   1,         5.2,         2.6,         0.0,         0.0,         0.0,         0.0
"Line.L113"             ,   2,        -5.2,        -2.6
"Line.L114"             ,   1,       197.6,       123.8,         0.0,         0.0,         0.0,         0.0
"Line.L114"             ,   2,      -197.4,      -123.4
"Line.L116"             ,   1,       522.2,        64.0,         0.0,         0.0,         0.0,         0.0
"Line.L116"             ,   2,      -521.1,       -61.7
"Line.L117"             ,   1,       373.6,       -23.9,         0.0,         0.0,         0.0,         0.0
"Line.L117"             ,   2,      -373.1,        25.1
"Line.SW1"              ,   1,       929.8,       310.6,        13.6,         4.5,         0.0,         0.0
"Line.SW1"              ,   2,      -929.8,      -310.6
"Line.SW2"              ,   1,       522.2,        64.0,         0.0,         0.0,         0.0,         0.0
"Line.SW2"              ,   2,      -522.2,       -64.0
"Line.SW3"              ,   1,       197.6,       123.8,         0.0,         0.0,         0.0,         0.0
"Line.SW3"              ,   2,      -197.6,      -123.8
