Element, Terminal, P(kW), Q(kvar),  P_Normal, Q_Normal, P_Emergency, Q_Emergency
"Line.L115"             ,   1,       740.9,       323.3,         0.0,         0.0,         0.0,         0.0
"Line.L115"             ,   2,      -738.3,      -318.0
"Line.L1"               ,   1,         5.5,         2.8,         0.0,         0.0,         0.0,         0.0
"Line.L1"               ,   2,        -5.5,        -2.8
"Line.L2"               ,   1,        27.6,        13.8,         0.0,         0.0,         0.0,         0.0
"Line.L2"               ,   2,       -27.5,       -13.8
"Line.L3"               ,   1,       694.2,       295.9,         0.0,         0.0,         0.0,         0.0
"Line.L3"               ,   2,      -692.5,      -292.4
"Line.L4"               ,   1,        11.0,         5.5,         0.0,         0.0,         0.0,         0.0
"Line.L4"               ,   2,       -11.0,        -5.5
"Line.L5"               ,   1,        16.5,         8.3,         0.0,         0.0,         0.0,         0.0
"Line.L5"               ,   2,       -16.5,        -8.3
"Line.L6"               ,   1,        11.0,         5.5,         0.0,         0.0,         0.0,         0.0
"Line.L6"               ,   2,       -11.0,        -5.5
"Line.L7"               ,   1,       687.0,       289.7,         0.0,         0.0,         0.0,         0.0
"Line.L7"               ,   2,      -685.9,      -287.4
"Line.L8"               ,   1,         5.5,         2.8,         0.0,         0.0,         0.0,         0.0
"Line.L8"               ,   2,        -5.5,        -2.8
"Line.L9"               ,   1,        15.5,        13.8,         0.0,         0.0,         0.0,         0.0
"Line.L9"               ,   2,       -15.5,       -13.8
"Line.L10"              ,   1,       664.8,       270.8,         0.0,         0.0,         0.0,         0.0
"Line.L10"              ,   2,      -663.3,      -267.6
"Line.L11"              ,   1,        16.5,         8.3,         0.0,         0.0,         0.0,         0.0
"Line.L11"              ,   2,       -16.5,        -8.3
"Line.L12"              ,   1,        27.5,        13.8,         0.0,         0.0,         0.0,         0.0
"Line.L12"              ,   2,       -27.5,       -13.8
"Line.L13"              ,   1,       233.2,       181.3,         0.0,         0.0,         0.0,         0.0
"Line.L13"              ,   2,      -232.4,      -179.8
"Line.L14"              ,   1,        11.0,         5.5,         0.0,         0.0,         0.0,         0.0
"Line.L14"              ,   2,       -11.0,        -5.5
"Line.L15"              ,   1,         5.5,         2.8,         0.0,         0.0,         0.0,         0.0
"Line.L15"              ,   2,        -5.5,        -2.8
"Line.L16"              ,   1,        11.0,         5.5,         0.0,         0.0,         0.0,         0.0
"Line.L16"              ,   2,       -11.0,        -5.5
"Line.L17"              ,   1,         5.5,         2.8,         0.0,         0.0,         0.0,         0.0
"Line.L17"              ,   2,        -5.5,        -2.8
"Line.L18"              ,   1,        22.0,        11.0,         0.0,         0.0,         0.0,         0.0
"Line.L18"              ,   2,       -22.0,       -11.0
"Line.L19"              ,   1,        65.1,        38.6,         0.0,         0.0,         0.0,         0.0
"Line.L19"              ,   2,       -65.1,       -38.6
"Line.L20"              ,   1,        11.0,         5.5,         0.0,         0.0,         0.0,         0.0
"Line.L20"              ,   2,       -11.0,        -5.5
"Line.L21"              ,   1,        11.0,         5.5,         0.0,         0.0,         0.0,         0.0
"Line.L21"              ,   2,       -11.0,        -5.5
"Line.L22"              ,   1,        54.1,        33.1,         0.0,         0.0,         0.0,         0.0
"Line.L22"              ,   2,       -54.1,       -33.1
"Line.L23"              ,   1,        11.0,         5.5,         0.0,         0.0,         0.0,         0.0
"Line.L23"              ,   2,       -11.0,        -5.5
"Line.L24"              ,   1,        43.1,        27.5,         0.0,         0.0,         0.0,         0.0
"Line.L24"              ,   2,       -43.1,       -27.5
"Line.L25"              ,   1,        22.0,        11.0,         0.0,         0.0,         0.0,         0.0
"Line.L25"              ,   2,       -22.0,       -11.0
"Line.L26"              ,   1,        21.0,        16.5,         0.0,         0.0,         0.0,         0.0
"Line.L26"              ,   2,       -21.0,       -16.5
"Line.L27"              ,   1,        11.0,         5.5,         0.0,         0.0,         0.0,         0.0
"Line.L27"              ,   2,       -11.0,        -5.5
"Line.L28"              ,   1,        11.0,         5.5,         0.0,         0.0,         0.0,         0.0
"Line.L28"              ,   2,       -11.0,        -5.5
"Line.L29"              ,   1,        11.0,         5.5,         0.0,         0.0,         0.0,         0.0
"Line.L29"              ,   2,       -11.0,        -5.5
"Line.L30"              ,   1,        22.0,        11.0,         0.0,         0.0,         0.0,         0.0
"Line.L30"              ,   2,       -22.0,       -11.0
"Line.L31"              ,   1,        11.0,         5.5,         0.0,         0.0,         0.0,         0.0
"Line.L31"              ,   2,       -11.0,        -5.5
"Line.L32"              ,   1,         0.0,        -0.0,         0.0,         0.0,         0.0,         0.0
"Line.L32"              ,   2,        -0.0,        -0.0
"Line.L33"              ,   1,         5.5,         2.8,         0.0,         0.0,         0.0,         0.0
"Line.L33"              ,   2,        -5.5,        -2.8
"Line.L34"              ,   1,        16.5,         8.3,         0.0,         0.0,         0.0,         0.0
"Line.L34"              ,   2,       -16.5,        -8.3
"Line.L35"              ,   1,        22.0,        11.0,         0.0,         0.0,         0.0,         0.0
"Line.L35"              ,   2,       -22.0,       -11.0
"Line.L36"              ,   1,       112.1,       113.3,         0.0,         0.0,         0.0,         0.0
"Line.L36"              ,   2,      -112.0,      -113.2
"Line.L37"              ,   1,        11.0,         5.5,         0.0,         0.0,         0.0,         0.0
"Line.L37"              ,   2,       -11.0,        -5.5
"Line.L38"              ,   1,        11.0,         5.5,         0.0,         0.0,         0.0,         0.0
"Line.L38"              ,   2,       -11.0,        -5.5
"Line.L39"              ,   1,         5.5,         2.8,         0.0,         0.0,         0.0,         0.0
"Line.L39"              ,   2,        -5.5,        -2.8
"Line.L40"              ,   1,         5.5,         2.8,         0.0,         0.0,         0.0,         0.0
"Line.L40"              ,   2,        -5.5,        -2.8
"Line.L41"              ,   1,       106.5,       110.4,         0.0,         0.0,         0.0,         0.0
"Line.L41"              ,   2,      -106.4,      -110.3
"Line.L42"              ,   1,        11.0,         5.5,         0.0,         0.0,         0.0,         0.0
"Line.L42"              ,   2,       -11.0,        -5.5
"Line.L43"              ,   1,        89.9,       102.1,         0.0,         0.0,         0.0,         0.0
"Line.L43"              ,   2,       -89.9,      -102.0
"Line.L44"              ,   1,        11.0,         5.5,         0.0,         0.0,         0.0,         0.0
"Line.L44"              ,   2,       -11.0,        -5.5
"Line.L45"              ,   1,        78.9,        96.5,         0.0,         0.0,         0.0,         0.0
"Line.L45"              ,   2,       -78.8,       -96.4
"Line.L46"              ,   1,         5.5,         2.8,         0.0,         0.0,         0.0,         0.0
"Line.L46"              ,   2,        -5.5,        -2.8
"Line.L47"              ,   1,        -5.2,        41.3,         0.0,         0.0,         0.0,         0.0
"Line.L47"              ,   2,         5.2,       -41.3
"Line.L48"              ,   1,        55.1,        34.4,         0.0,         0.0,         0.0,         0.0
"Line.L48"              ,   2,       -55.1,       -34.4
"Line.L49"              ,   1,        16.5,         8.3,         0.0,         0.0,         0.0,         0.0
"Line.L49"              ,   2,       -16.5,        -8.3
"Line.L50"              ,   1,         5.5,         2.7,         0.0,         0.0,         0.0,         0.0
"Line.L50"              ,   2,        -5.5,        -2.7
"Line.L51"              ,   1,         0.0,        -0.0,         0.0,         0.0,         0.0,         0.0
"Line.L51"              ,   2,        -0.0,        -0.0
"Line.L52"              ,   1,       390.8,        65.6,         0.0,         0.0,         0.0,         0.0
"Line.L52"              ,   2,      -390.5,       -65.0
"Line.L53"              ,   1,       379.5,        59.5,         0.0,         0.0,         0.0,         0.0
"Line.L53"              ,   2,      -379.3,       -59.1
"Line.L54"              ,   1,        11.0,         5.5,         0.0,         0.0,         0.0,         0.0
"Line.L54"              ,   2,       -11.0,        -5.5
"Line.L55"              ,   1,       368.3,        53.6,         0.0,         0.0,         0.0,         0.0
"Line.L55"              ,   2,      -367.8,       -52.6
"Line.L56"              ,   1,         5.5,         2.8,         0.0,         0.0,         0.0,         0.0
"Line.L56"              ,   2,        -5.5,        -2.8
"Line.L57"              ,   1,         5.0,         5.5,         0.0,         0.0,         0.0,         0.0
"Line.L57"              ,   2,        -5.0,        -5.5
"Line.L58"              ,   1,       362.8,        47.0,         0.0,         0.0,         0.0,         0.0
"Line.L58"              ,   2,      -361.7,       -44.9
"Line.L59"              ,   1,         5.5,         2.8,         0.0,         0.0,         0.0,         0.0
"Line.L59"              ,   2,        -5.5,        -2.8
"Line.L60"              ,   1,         0.0,        -0.0,         0.0,         0.0,         0.0,         0.0
"Line.L60"              ,   2,        -0.0,         0.0
"Line.L61"              ,   1,        60.0,        57.8,         0.0,         0.0,         0.0,         0.0
"Line.L61"              ,   2,       -60.0,       -57.8
"Line.L62"              ,   1,        49.0,        52.3,         0.0,         0.0,         0.0,         0.0
"Line.L62"              ,   2,       -48.9,       -52.3
"Line.L63"              ,   1,        37.9,        46.8,         0.0,         0.0,         0.0,         0.0
"Line.L63"              ,   2,       -37.9,       -46.8
"Line.L64"              ,   1,        17.2,        37.1,         0.0,         0.0,         0.0,         0.0
"Line.L64"              ,   2,       -17.2,       -37.1
"Line.L65"              ,   1,        20.7,         9.6,         0.0,         0.0,         0.0,         0.0
"Line.L65"              ,   2,       -20.6,        -9.6
"Line.L66"              ,   1,        33.1,        16.5,         0.0,         0.0,         0.0,         0.0
"Line.L66"              ,   2,       -33.1,       -16.5
"Line.L67"              ,   1,       153.4,       -93.7,         0.0,         0.0,         0.0,         0.0
"Line.L67"              ,   2,      -153.4,        93.9
"Line.L68"              ,   1,       109.3,        60.8,         0.0,         0.0,         0.0,         0.0
"Line.L68"              ,   2,      -109.3,       -60.7
"Line.L69"              ,   1,        27.6,        13.8,         0.0,         0.0,         0.0,         0.0
"Line.L69"              ,   2,       -27.5,       -13.8
"Line.L70"              ,   1,        16.5,         8.3,         0.0,         0.0,         0.0,         0.0
"Line.L70"              ,   2,       -16.5,        -8.3
"Line.L71"              ,   1,        11.0,         5.5,         0.0,         0.0,         0.0,         0.0
"Line.L71"              ,   2,       -11.0,        -5.5
"Line.L72"              ,   1,        33.1,        16.5,         0.0,         0.0,         0.0,         0.0
"Line.L72"              ,   2,       -33.1,       -16.5
"Line.L73"              ,   1,       120.3,      -110.4,         0.0,         0.0,         0.0,         0.0
"Line.L73"              ,   2,      -120.2,       110.6
"Line.L74"              ,   1,        22.0,        11.0,         0.0,         0.0,         0.0,         0.0
"Line.L74"              ,   2,       -22.0,       -11.0
"Line.L75"              ,   1,        11.0,         5.5,         0.0,         0.0,         0.0,         0.0
"Line.L75"              ,   2,       -11.0,        -5.5
"Line.L76"              ,   1,        66.6,      -150.4,         0.0,         0.0,         0.0,         0.0
"Line.L76"              ,   2,       -66.5,       150.7
"Line.L77"              ,   1,        59.6,        -9.7,         0.0,         0.0,         0.0,         0.0
"Line.L77"              ,   2,       -59.6,         9.8
"Line.L78"              ,   1,        55.5,      -156.2,         0.0,         0.0,         0.0,         0.0
"Line.L78"              ,   2,       -55.5,       156.2
"Line.L79"              ,   1,        11.0,         5.5,         0.0,         0.0,         0.0,         0.0
"Line.L79"              ,   2,       -11.0,        -5.5
"Line.L80"              ,   1,        44.4,      -161.7,         0.0,         0.0,         0.0,         0.0
"Line.L80"              ,   2,       -44.3,       162.0
"Line.L81"              ,   1,        33.3,      -167.5,         0.0,         0.0,         0.0,         0.0
"Line.L81"              ,   2,       -33.2,       167.7
"Line.L82"              ,   1,        16.7,      -175.9,         0.0,         0.0,         0.0,         0.0
"Line.L82"              ,   2,       -16.6,       176.1
"Line.L83"              ,   1,        16.5,         8.3,         0.0,         0.0,         0.0,         0.0
"Line.L83"              ,   2,       -16.5,        -8.3
"Line.L84"              ,   1,         5.6,      -181.6,         0.0,         0.0,         0.0,         0.0
"Line.L84"              ,   2,        -5.5,       181.8
"Line.L85"              ,   1,        11.0,         5.5,         0.0,         0.0,         0.0,         0.0
"Line.L85"              ,   2,       -11.0,        -5.5
"Line.L86"              ,   1,        54.1,       -12.5,         0.0,         0.0,         0.0,         0.0
"Line.L86"              ,   2,       -54.1,        12.5
"Line.L87"              ,   1,        11.0,        -9.7,         0.0,         0.0,         0.0,         0.0
"Line.L87"              ,   2,       -11.0,         9.7
"Line.L88"              ,   1,        44.1,        -8.3,         0.0,         0.0,         0.0,         0.0
"Line.L88"              ,   2,       -44.1,         8.4
"Line.L89"              ,   1,        11.0,        -9.7,         0.0,         0.0,         0.0,         0.0
"Line.L89"              ,   2,       -11.0,         9.7
"Line.L90"              ,   1,        33.0,         1.3,         0.0,         0.0,         0.0,         0.0
"Line.L90"              ,   2,       -33.0,        -1.3
"Line.L91"              ,   1,        11.0,        -9.7,         0.0,         0.0,         0.0,         0.0
"Line.L91"              ,   2,       -11.0,         9.7
"Line.L92"              ,   1,        22.0,        11.0,         0.0,         0.0,         0.0,         0.0
"Line.L92"              ,   2,       -22.0,       -11.0
"Line.L93"              ,   1,        11.0,         5.5,         0.0,         0.0,         0.0,         0.0
"Line.L93"              ,   2,       -11.0,        -5.5
"Line.L94"              ,   1,        11.0,         5.5,         0.0,         0.0,         0.0,         0.0
"Line.L94"              ,   2,       -11.0,        -5.5
"Line.L95"              ,   1,         5.5,         2.8,         0.0,         0.0,         0.0,         0.0
"Line.L95"              ,   2,        -5.5,        -2.8
"Line.L96"              ,   1,        21.0,        16.5,         0.0,         0.0,         0.0,         0.0
"Line.L96"              ,   2,       -21.0,       -16.5
"Line.L97"              ,   1,        10.0,        11.0,         0.0,         0.0,         0.0,         0.0
"Line.L97"              ,   2,       -10.0,       -11.0
"Line.L98"              ,   1,        -1.0,         5.5,         0.0,         0.0,         0.0,         0.0
"Line.L98"              ,   2,         1.0,        -5.5
"Line.L99"              ,   1,         0.0,        -0.0,         0.0,         0.0,         0.0,         0.0
"Line.L99"              ,   2,         0.0,         0.0
"Line.L118"             ,   1,        88.3,        44.2,         0.0,         0.0,         0.0,         0.0
"Line.L118"             ,   2,       -88.2,       -44.2
"Line.L100"             ,   1,        27.6,        13.8,         0.0,         0.0,         0.0,         0.0
"Line.L100"             ,   2,       -27.5,       -13.8
"Line.L101"             ,   1,        60.7,        30.4,         0.0,         0.0,         0.0,         0.0
"Line.L101"             ,   2,       -60.7,       -30.4
"Line.L102"             ,   1,        22.0,        11.0,         0.0,         0.0,         0.0,         0.0
"Line.L102"             ,   2,       -22.0,       -11.0
"Line.L103"             ,   1,        11.0,         5.5,         0.0,         0.0,         0.0,         0.0
"Line.L103"             ,   2,       -11.0,        -5.5
"Line.L104"             ,   1,        22.0,        11.0,         0.0,         0.0,         0.0,         0.0
"Line.L104"             ,   2,       -22.0,       -11.0
"Line.L105"             ,   1,        38.6,        19.3,         0.0,         0.0,         0.0,         0.0
"Line.L105"             ,   2,       -38.6,       -19.3
"Line.L106"             ,   1,        11.0,         5.5,         0.0,         0.0,         0.0,         0.0
"Line.L106"             ,   2,       -11.0,        -5.5
"Line.L107"             ,   1,        38.6,        19.3,         0.0,         0.0,         0.0,         0.0
"Line.L107"             ,   2,       -38.6,       -19.3
"Line.L108"             ,   1,         0.0,        -0.0,         0.0,         0.0,         0.0,         0.0
"Line.L108"             ,   2,         0.0,         0.0
"Line.L109"             ,   1,        27.6,        13.8,         0.0,         0.0,         0.0,         0.0
"Line.L109"             ,   2,       -27.5,       -13.8
"Line.L110"             ,   1,         5.5,         2.8,         0.0,         0.0,         0.0,         0.0
"Line.L110"             ,   2,        -5.5,        -2.8
"Line.L111"             ,   1,        22.0,        11.0,         0.0,         0.0,         0.0,         0.0
"Line.L111"             ,   2,       -22.0,       -11.0
"Line.L112"             ,   1,        16.5,         8.3,         0.0,         0.0,         0.0,         0.0
"Line.L112"             ,   2,       -16.5,        -8.3
"Line.L113"             ,   1,         5.5,         2.8,         0.0,         0.0,         0.0,         0.0
"Line.L113"             ,   2,        -5.5,        -2.8
"Line.L114"             ,   1,       145.3,       130.1,         0.0,         0.0,         0.0,         0.0
"Line.L114"             ,   2,      -145.1,      -129.8
"Line.L116"             ,   1,       402.5,        72.5,         0.0,         0.0,         0.0,         0.0
"Line.L116"             ,   2,      -401.9,       -71.1
"Line.L117"             ,   1,       296.2,       -15.6,         0.0,         0.0,         0.0,         0.0
"Line.L117"             ,   2,      -295.9,        16.3
"Line.SW1"              ,   1,       740.9,       323.3,         0.0,         0.0,         0.0,         0.0
"Line.SW1"              ,   2,      -740.9,      -323.3
"Line.SW2"              ,   1,       402.5,        72.5,         0.0,         0.0,         0.0,         0.0
"Line.SW2"              ,   2,      -402.5,       -72.5
"Line.SW3"              ,   1,       145.3,       130.1,         0.0,         0.0,         0.0,         0.0
"Line.SW3"              ,   2,      -145.3,      -130.1
