Element, Terminal, P(kW), Q(kvar),  P_Normal, Q_Normal, P_Emergency, Q_Emergency
"Line.L115"             ,   1,       875.4,       416.9,         3.3,         1.6,         0.0,         0.0
"Line.L115"             ,   2,      -871.7,      -409.2
"Line.L1"               ,   1,         6.3,         3.2,         0.0,         0.0,         0.0,         0.0
"Line.L1"               ,   2,        -6.3,        -3.2
"Line.L2"               ,   1,        31.7,        15.9,         0.0,         0.0,         0.0,         0.0
"Line.L2"               ,   2,       -31.7,       -15.8
"Line.L3"               ,   1,       821.0,       383.9,         0.0,         0.0,         0.0,         0.0
"Line.L3"               ,   2,      -818.5,      -378.8
"Line.L4"               ,   1,        12.7,         6.3,         0.0,         0.0,         0.0,         0.0
"Line.L4"               ,   2,       -12.7,        -6.3
"Line.L5"               ,   1,        19.0,         9.5,         0.0,         0.0,         0.0,         0.0
"Line.L5"               ,   2,       -19.0,        -9.5
"Line.L6"               ,   1,        12.7,         6.3,         0.0,         0.0,         0.0,         0.0
"Line.L6"               ,   2,       -12.7,        -6.3
"Line.L7"               ,   1,       812.2,       375.6,         0.0,         0.0,         0.0,         0.0
"Line.L7"               ,   2,      -810.5,      -372.3
"Line.L8"               ,   1,         6.3,         3.2,         0.0,         0.0,         0.0,         0.0
"Line.L8"               ,   2,        -6.3,        -3.2
"Line.L9"               ,   1,        18.9,        15.8,         0.0,         0.0,         0.0,         0.0
"Line.L9"               ,   2,       -18.9,       -15.8
"Line.L10"              ,   1,       785.3,       353.3,         0.0,         0.0,         0.0,         0.0
"Line.L10"              ,   2,      -783.0,      -348.6
"Line.L11"              ,   1,        19.0,         9.5,         0.0,         0.0,         0.0,         0.0
"Line.L11"              ,   2,       -19.0,        -9.5
"Line.L12"              ,   1,        31.7,        15.8,         0.0,         0.0,         0.0,         0.0
"Line.L12"              ,   2,       -31.7,       -15.8
"Line.L13"              ,   1,       274.7,       209.1,         0.0,         0.0,         0.0,         0.0
"Line.L13"              ,   2,      -273.7,      -207.0
"Line.L14"              ,   1,        12.7,         6.3,         0.0,         0.0,         0.0,         0.0
"Line.L14"              ,   2,       -12.7,        -6.3
"Line.L15"              ,   1,         6.3,         3.2,         0.0,         0.0,         0.0,         0.0
"Line.L15"              ,   2,        -6.3,        -3.2
"Line.L16"              ,   1,        12.7,         6.3,         0.0,         0.0,         0.0,         0.0
"Line.L16"              ,   2,       -12.7,        -6.3
"Line.L17"              ,   1,         6.3,         3.2,         0.0,         0.0,         0.0,         0.0
"Line.L17"              ,   2,        -6.3,        -3.2
"Line.L18"              ,   1,        25.3,        12.7,         0.0,         0.0,         0.0,         0.0
"Line.L18"              ,   2,       -25.3,       -12.7
"Line.L19"              ,   1,        75.9,        44.4,         0.0,         0.0,         0.0,         0.0
"Line.L19"              ,   2,       -75.9,       -44.4
"Line.L20"              ,   1,        12.7,         6.3,         0.0,         0.0,         0.0,         0.0
"Line.L20"              ,   2,       -12.7,        -6.3
"Line.L21"              ,   1,        12.7,         6.3,         0.0,         0.0,         0.0,         0.0
"Line.L21"              ,   2,       -12.7,        -6.3
"Line.L22"              ,   1,        63.2,        38.1,         0.0,         0.0,         0.0,         0.0
"Line.L22"              ,   2,       -63.2,       -38.0
"Line.L23"              ,   1,        12.7,         6.3,         0.0,         0.0,         0.0,         0.0
"Line.L23"              ,   2,       -12.7,        -6.3
"Line.L24"              ,   1,        50.6,        31.7,         0.0,         0.0,         0.0,         0.0
"Line.L24"              ,   2,       -50.5,       -31.7
"Line.L25"              ,   1,        25.3,        12.7,         0.0,         0.0,         0.0,         0.0
"Line.L25"              ,   2,       -25.3,       -12.7
"Line.L26"              ,   1,        25.2,        19.0,         0.0,         0.0,         0.0,         0.0
"Line.L26"              ,   2,       -25.2,       -19.0
"Line.L27"              ,   1,        12.7,         6.3,         0.0,         0.0,         0.0,         0.0
"Line.L27"              ,   2,       -12.7,        -6.3
"Line.L28"              ,   1,        12.7,         6.3,         0.0,         0.0,         0.0,         0.0
"Line.L28"              ,   2,       -12.7,        -6.3
"Line.L29"              ,   1,        12.7,         6.3,         0.0,         0.0,         0.0,         0.0
"Line.L29"              ,   2,       -12.7,        -6.3
"Line.L30"              ,   1,        25.3,        12.7,         0.0,         0.0,         0.0,         0.0
"Line.L30"              ,   2,       -25.3,       -12.7
"Line.L31"              ,   1,        12.7,         6.3,         0.0,         0.0,         0.0,         0.0
"Line.L31"              ,   2,       -12.7,        -6.3
"Line.L32"              ,   1,         0.0,        -0.0,         0.0,         0.0,         0.0,         0.0
"Line.L32"              ,   2,        -0.0,        -0.0
"Line.L33"              ,   1,         6.3,         3.2,         0.0,         0.0,         0.0,         0.0
"Line.L33"              ,   2,        -6.3,        -3.2
"Line.L34"              ,   1,        19.0,         9.5,         0.0,         0.0,         0.0,         0.0
"Line.L34"              ,   2,       -19.0,        -9.5
"Line.L35"              ,   1,        25.3,        12.7,         0.0,         0.0,         0.0,         0.0
"Line.L35"              ,   2,       -25.3,       -12.7
"Line.L36"              ,   1,       134.2,       130.5,         0.0,         0.0,         0.0,         0.0
"Line.L36"              ,   2,      -134.1,      -130.3
"Line.L37"              ,   1,        12.7,         6.3,         0.0,         0.0,         0.0,         0.0
"Line.L37"              ,   2,       -12.7,        -6.3
"Line.L38"              ,   1,        12.7,         6.3,         0.0,         0.0,         0.0,         0.0
"Line.L38"              ,   2,       -12.7,        -6.3
"Line.L39"              ,   1,         6.3,         3.2,         0.0,         0.0,         0.0,         0.0
"Line.L39"              ,   2,        -6.3,        -3.2
"Line.L40"              ,   1,         6.3,         3.2,         0.0,         0.0,         0.0,         0.0
"Line.L40"              ,   2,        -6.3,        -3.2
"Line.L41"              ,   1,       127.8,       127.1,         0.0,         0.0,         0.0,         0.0
"Line.L41"              ,   2,      -127.7,      -126.9
"Line.L42"              ,   1,        12.7,         6.3,         0.0,         0.0,         0.0,         0.0
"Line.L42"              ,   2,       -12.7,        -6.3
"Line.L43"              ,   1,       108.7,       117.4,         0.0,         0.0,         0.0,         0.0
"Line.L43"              ,   2,      -108.6,      -117.3
"Line.L44"              ,   1,        12.7,         6.3,         0.0,         0.0,         0.0,         0.0
"Line.L44"              ,   2,       -12.7,        -6.3
"Line.L45"              ,   1,        96.0,       111.0,         0.0,         0.0,         0.0,         0.0
"Line.L45"              ,   2,       -95.9,      -110.9
"Line.L46"              ,   1,         6.3,         3.2,         0.0,         0.0,         0.0,         0.0
"Line.L46"              ,   2,        -6.3,        -3.2
"Line.L47"              ,   1,        -0.7,        47.5,         0.0,         0.0,         0.0,         0.0
"Line.L47"              ,   2,         0.7,       -47.5
"Line.L48"              ,   1,        63.4,        39.6,         0.0,         0.0,         0.0,         0.0
"Line.L48"              ,   2,       -63.3,       -39.6
"Line.L49"              ,   1,        19.0,         9.5,         0.0,         0.0,         0.0,         0.0
"Line.L49"              ,   2,       -19.0,        -9.5
"Line.L50"              ,   1,         6.3,         3.2,         0.0,         0.0,         0.0,         0.0
"Line.L50"              ,   2,        -6.3,        -3.2
"Line.L51"              ,   1,         0.0,        -0.0,         0.0,         0.0,         0.0,         0.0
"Line.L51"              ,   2,        -0.0,        -0.0
"Line.L52"              ,   1,       463.0,       115.3,         0.0,         0.0,         0.0,         0.0
"Line.L52"              ,   2,      -462.5,      -114.3
"Line.L53"              ,   1,       449.8,       108.0,         0.0,         0.0,         0.0,         0.0
"Line.L53"              ,   2,      -449.6,      -107.4
"Line.L54"              ,   1,        12.7,         6.3,         0.0,         0.0,         0.0,         0.0
"Line.L54"              ,   2,       -12.7,        -6.3
"Line.L55"              ,   1,       436.9,       101.1,         0.0,         0.0,         0.0,         0.0
"Line.L55"              ,   2,      -436.2,       -99.6
"Line.L56"              ,   1,         6.3,         3.2,         0.0,         0.0,         0.0,         0.0
"Line.L56"              ,   2,        -6.3,        -3.2
"Line.L57"              ,   1,         6.3,         6.3,         0.0,         0.0,         0.0,         0.0
"Line.L57"              ,   2,        -6.3,        -6.3
"Line.L58"              ,   1,       429.9,        93.3,         0.0,         0.0,         0.0,         0.0
"Line.L58"              ,   2,      -428.4,       -90.2
"Line.L59"              ,   1,         6.3,         3.2,         0.0,         0.0,         0.0,         0.0
"Line.L59"              ,   2,        -6.3,        -3.2
"Line.L60"              ,   1,         0.0,        -0.0,         0.0,         0.0,         0.0,         0.0
"Line.L60"              ,   2,        -0.0,         0.0
"Line.L61"              ,   1,        72.6,        66.5,         0.0,         0.0,         0.0,         0.0
"Line.L61"              ,   2,       -72.5,       -66.5
"Line.L62"              ,   1,        59.9,        60.2,         0.0,         0.0,         0.0,         0.0
"Line.L62"              ,   2,       -59.8,       -60.1
"Line.L63"              ,   1,        47.1,        53.8,         0.0,         0.0,         0.0,         0.0
"Line.L63"              ,   2,       -47.1,       -53.8
"Line.L64"              ,   1,        23.3,        42.7,         0.0,         0.0,         0.0,         0.0
"Line.L64"              ,   2,       -23.3,       -42.7
"Line.L65"              ,   1,        23.8,        11.1,         0.0,         0.0,         0.0,         0.0
"Line.L65"              ,   2,       -23.8,       -11.1
"Line.L66"              ,   1,        38.0,        19.0,         0.0,         0.0,         0.0,         0.0
"Line.L66"              ,   2,       -38.0,       -19.0
"Line.L67"              ,   1,       184.0,       -69.6,         0.0,         0.0,         0.0,         0.0
"Line.L67"              ,   2,      -183.9,        69.8
"Line.L68"              ,   1,       126.9,        70.0,         0.0,         0.0,         0.0,         0.0
"Line.L68"              ,   2,      -126.8,       -69.9
"Line.L69"              ,   1,        31.7,        15.9,         0.0,         0.0,         0.0,         0.0
"Line.L69"              ,   2,       -31.7,       -15.8
"Line.L70"              ,   1,        19.0,         9.5,         0.0,         0.0,         0.0,         0.0
"Line.L70"              ,   2,       -19.0,        -9.5
"Line.L71"              ,   1,        12.7,         6.3,         0.0,         0.0,         0.0,         0.0
"Line.L71"              ,   2,       -12.7,        -6.3
"Line.L72"              ,   1,        38.0,        19.0,         0.0,         0.0,         0.0,         0.0
"Line.L72"              ,   2,       -38.0,       -19.0
"Line.L73"              ,   1,       145.8,       -88.9,         0.0,         0.0,         0.0,         0.0
"Line.L73"              ,   2,      -145.8,        89.0
"Line.L74"              ,   1,        25.4,        12.7,         0.0,         0.0,         0.0,         0.0
"Line.L74"              ,   2,       -25.3,       -12.7
"Line.L75"              ,   1,        12.7,         6.3,         0.0,         0.0,         0.0,         0.0
"Line.L75"              ,   2,       -12.7,        -6.3
"Line.L76"              ,   1,        76.5,      -142.5,         0.0,         0.0,         0.0,         0.0
"Line.L76"              ,   2,       -76.4,       142.7
"Line.L77"              ,   1,        69.7,        -3.5,         0.0,         0.0,         0.0,         0.0
"Line.L77"              ,   2,       -69.7,         3.6
"Line.L78"              ,   1,        63.8,      -149.0,         0.0,         0.0,         0.0,         0.0
"Line.L78"              ,   2,       -63.7,       149.1
"Line.L79"              ,   1,        12.7,         6.3,         0.0,         0.0,         0.0,         0.0
"Line.L79"              ,   2,       -12.7,        -6.3
"Line.L80"              ,   1,        51.1,      -155.4,         0.0,         0.0,         0.0,         0.0
"Line.L80"              ,   2,       -50.9,       155.7
"Line.L81"              ,   1,        38.2,      -162.1,         0.0,         0.0,         0.0,         0.0
"Line.L81"              ,   2,       -38.2,       162.2
"Line.L82"              ,   1,        19.2,      -171.7,         0.0,         0.0,         0.0,         0.0
"Line.L82"              ,   2,       -19.1,       171.8
"Line.L83"              ,   1,        19.0,         9.5,         0.0,         0.0,         0.0,         0.0
"Line.L83"              ,   2,       -19.0,        -9.5
"Line.L84"              ,   1,         6.4,      -178.2,         0.0,         0.0,         0.0,         0.0
"Line.L84"              ,   2,        -6.3,       178.4
"Line.L85"              ,   1,        12.7,         6.3,         0.0,         0.0,         0.0,         0.0
"Line.L85"              ,   2,       -12.7,        -6.3
"Line.L86"              ,   1,        63.3,        -6.8,         0.0,         0.0,         0.0,         0.0
"Line.L86"              ,   2,       -63.3,         6.8
"Line.L87"              ,   1,        12.7,        -8.6,         0.0,         0.0,         0.0,         0.0
"Line.L87"              ,   2,       -12.7,         8.6
"Line.L88"              ,   1,        50.7,        -4.5,         0.0,         0.0,         0.0,         0.0
"Line.L88"              ,   2,       -50.7,         4.5
"Line.L89"              ,   1,        12.7,        -8.6,         0.0,         0.0,         0.0,         0.0
"Line.L89"              ,   2,       -12.7,         8.6
"Line.L90"              ,   1,        38.0,         4.1,         0.0,         0.0,         0.0,         0.0
"Line.L90"              ,   2,       -38.0,        -4.1
"Line.L91"              ,   1,        12.7,        -8.6,         0.0,         0.0,         0.0,         0.0
"Line.L91"              ,   2,       -12.7,         8.6
"Line.L92"              ,   1,        25.3,        12.7,         0.0,         0.0,         0.0,         0.0
"Line.L92"              ,   2,       -25.3,       -12.7
"Line.L93"              ,   1,        12.7,         6.3,         0.0,         0.0,         0.0,         0.0
"Line.L93"              ,   2,       -12.7,        -6.3
"Line.L94"              ,   1,        12.7,         6.3,         0.0,         0.0,         0.0,         0.0
"Line.L94"              ,   2,       -12.7,        -6.3
"Line.L95"              ,   1,         6.3,         3.2,         0.0,         0.0,         0.0,         0.0
"Line.L95"              ,   2,        -6.3,        -3.2
"Line.L96"              ,   1,        25.3,        19.0,         0.0,         0.0,         0.0,         0.0
"Line.L96"              ,   2,       -25.3,       -19.0
"Line.L97"              ,   1,        12.6,        12.7,         0.0,         0.0,         0.0,         0.0
"Line.L97"              ,   2,       -12.6,       -12.7
"Line.L98"              ,   1,        -0.0,         6.3,         0.0,         0.0,         0.0,         0.0
"Line.L98"              ,   2,         0.0,        -6.3
"Line.L99"              ,   1,         0.0,        -0.0,         0.0,         0.0,         0.0,         0.0
"Line.L99"              ,   2,         0.0,        -0.0
"Line.L118"             ,   1,       101.5,        50.9,         0.0,         0.0,         0.0,         0.0
"Line.L118"             ,   2,      -101.5,       -50.8
"Line.L100"             ,   1,        31.7,        15.9,         0.0,         0.0,         0.0,         0.0
"Line.L100"             ,   2,       -31.7,       -15.8
"Line.L101"             ,   1,        69.8,        35.0,         0.0,         0.0,         0.0,         0.0
"Line.L101"             ,   2,       -69.8,       -34.9
"Line.L102"             ,   1,        25.4,        12.7,         0.0,         0.0,         0.0,         0.0
"Line.L102"             ,   2,       -25.3,       -12.7
"Line.L103"             ,   1,        12.7,         6.3,         0.0,         0.0,         0.0,         0.0
"Line.L103"             ,   2,       -12.7,        -6.3
"Line.L104"             ,   1,        25.3,        12.7,         0.0,         0.0,         0.0,         0.0
"Line.L104"             ,   2,       -25.3,       -12.7
"Line.L105"             ,   1,        44.4,        22.3,         0.0,         0.0,         0.0,         0.0
"Line.L105"             ,   2,       -44.4,       -22.2
"Line.L106"             ,   1,        12.7,         6.3,         0.0,         0.0,         0.0,         0.0
"Line.L106"             ,   2,       -12.7,        -6.3
"Line.L107"             ,   1,        44.4,        22.3,         0.0,         0.0,         0.0,         0.0
"Line.L107"             ,   2,       -44.4,       -22.2
"Line.L108"             ,   1,         0.0,        -0.0,         0.0,         0.0,         0.0,         0.0
"Line.L108"             ,   2,         0.0,         0.0
"Line.L109"             ,   1,        31.7,        15.9,         0.0,         0.0,         0.0,         0.0
"Line.L109"             ,   2,       -31.7,       -15.8
"Line.L110"             ,   1,         6.3,         3.2,         0.0,         0.0,         0.0,         0.0
"Line.L110"             ,   2,        -6.3,        -3.2
"Line.L111"             ,   1,        25.4,        12.7,         0.0,         0.0,         0.0,         0.0
"Line.L111"             ,   2,       -25.3,       -12.7
"Line.L112"             ,   1,        19.0,         9.5,         0.0,         0.0,         0.0,         0.0
"Line.L112"             ,   2,       -19.0,        -9.5
"Line.L113"             ,   1,         6.3,         3.2,         0.0,         0.0,         0.0,         0.0
"Line.L113"             ,   2,        -6.3,        -3.2
"Line.L114"             ,   1,       172.4,       149.9,         0.0,         0.0,         0.0,         0.0
"Line.L114"             ,   2,      -172.2,      -149.5
"Line.L116"             ,   1,       476.6,       123.7,         0.0,         0.0,         0.0,         0.0
"Line.L116"             ,   2,      -475.6,      -121.6
"Line.L117"             ,   1,       349.4,        20.5,         0.0,         0.0,         0.0,         0.0
"Line.L117"             ,   2,      -348.9,       -19.5
"Line.SW1"              ,   1,       875.4,       416.9,         3.3,         1.6,         0.0,         0.0
"Line.SW1"              ,   2,      -875.4,      -416.9
"Line.SW2"              ,   1,       476.6,       123.7,         0.0,         0.0,         0.0,         0.0
"Line.SW2"              ,   2,      -476.6,      -123.7
"Line.SW3"              ,   1,       172.4,       149.9,         0.0,         0.0,         0.0,         0.0
"Line.SW3"              ,   2,      -172.4,      -149.9
