Bus, BasekV, Node1, Magnitude1, Angle1, pu1
"150", 4.16, 1,       2400,    0.0,   0.99926
"149", 4.16, 1,       2415,    0.0,    1.0055
"1", 4.16, 1,     2407.6,   -0.2,    1.0024
"2", 4.16, 1,    2407.48,   -0.2,    1.0024
"3", 4.16, 1,    2406.79,   -0.2,    1.0021
"7", 4.16, 1,    2402.54,   -0.3,    1.0003
"4", 4.16, 1,    2406.53,   -0.2,     1.002
"5", 4.16, 1,    2406.16,   -0.2,    1.0018
"6", 4.16, 1,    2405.84,   -0.2,    1.0017
"8", 4.16, 1,    2399.22,   -0.4,   0.99893
"12", 4.16, 1,    2399.07,   -0.4,   0.99887
"9", 4.16, 1,     2398.8,   -0.4,   0.99876
"13", 4.16, 1,     2394.5,   -0.5,   0.99697
"9R", 4.16, 1,    2323.84,   -0.4,   0.96755
"14", 4.16, 1,    2322.99,   -0.4,    0.9672
"34", 4.16, 1,    2394.02,   -0.5,   0.99677
"18", 4.16, 1,    2386.13,   -0.6,   0.99349
"11", 4.16, 1,    2322.66,   -0.4,   0.96706
"10", 4.16, 1,    2322.82,   -0.4,   0.96713
"15", 4.16, 1,    2393.82,   -0.5,   0.99669
"16", 4.16, 1,    2393.34,   -0.5,   0.99649
"17", 4.16, 1,    2393.59,   -0.5,   0.99659
"19", 4.16, 1,    2385.48,   -0.6,   0.99322
"21", 4.16, 1,    2385.39,   -0.6,   0.99318
"20", 4.16, 1,    2385.06,   -0.6,   0.99304
"22", 4.16, 1,     2384.7,   -0.6,   0.99289
"23", 4.16, 1,    2384.86,   -0.6,   0.99296
"24", 4.16, 1,    2384.15,   -0.6,   0.99266
"25", 4.16, 1,     2384.4,   -0.6,   0.99276
"25R", 4.16, 1,    2444.01,   -0.6,    1.0176
"26", 4.16, 1,    2443.72,   -0.6,    1.0175
"28", 4.16, 1,    2384.22,   -0.6,   0.99269
"27", 4.16, 1,    2443.61,   -0.6,    1.0174
"31", 4.16, 1,    2443.43,   -0.6,    1.0173
"33", 4.16, 1,    2442.97,   -0.6,    1.0172
"29", 4.16, 1,    2383.98,   -0.6,   0.99259
"30", 4.16, 1,    2383.84,   -0.6,   0.99253
"250", 4.16, 1,    2383.84,   -0.6,   0.99253
"32", 4.16, 1,    2443.24,   -0.6,    1.0173
"35", 4.16, 1,    2383.57,   -0.6,   0.99242
"36", 4.16, 1,    2383.02,   -0.6,   0.99219
"40", 4.16, 1,    2382.16,   -0.6,   0.99183
"37", 4.16, 1,    2382.63,   -0.6,   0.99203
"38", 4.16, 1,    2382.69,   -0.6,   0.99205
"39", 4.16, 1,    2382.48,   -0.6,   0.99197
"41", 4.16, 1,    2381.94,   -0.6,   0.99174
"42", 4.16, 1,     2380.8,   -0.6,   0.99126
"43", 4.16, 1,    2380.15,   -0.6,   0.99099
"44", 4.16, 1,    2379.83,   -0.6,   0.99086
"45", 4.16, 1,    2379.57,   -0.6,   0.99075
"47", 4.16, 1,    2378.72,   -0.6,    0.9904
"46", 4.16, 1,    2379.37,   -0.6,   0.99067
"48", 4.16, 1,    2378.59,   -0.6,   0.99035
"49", 4.16, 1,    2378.16,   -0.6,   0.99016
"50", 4.16, 1,       2378,   -0.6,    0.9901
"51", 4.16, 1,    2377.95,   -0.6,   0.99008
"151", 4.16, 1,    2377.95,   -0.6,   0.99008
"52", 4.16, 1,    2392.69,   -0.6,   0.99622
"53", 4.16, 1,    2391.86,   -0.7,   0.99587
"54", 4.16, 1,     2391.4,   -0.7,   0.99568
"55", 4.16, 1,    2391.29,   -0.7,   0.99563
"57", 4.16, 1,    2390.25,   -0.8,    0.9952
"56", 4.16, 1,    2391.24,   -0.7,   0.99561
"58", 4.16, 1,     2390.1,   -0.8,   0.99514
"60", 4.16, 1,    2387.99,   -1.0,   0.99426
"59", 4.16, 1,    2389.94,   -0.8,   0.99507
"61", 4.16, 1,    2387.99,   -1.0,   0.99426
"62", 4.16, 1,    2386.99,   -1.0,   0.99385
"63", 4.16, 1,    2386.44,   -1.0,   0.99361
"64", 4.16, 1,    2385.62,   -1.0,   0.99327
"65", 4.16, 1,    2385.26,   -1.0,   0.99313
"66", 4.16, 1,    2384.77,   -1.0,   0.99292
"67", 4.16, 1,    2328.32,   -1.2,   0.96941
"68", 4.16, 1,    2327.52,   -1.2,   0.96908
"72", 4.16, 1,    2329.83,   -1.2,   0.97005
"97", 4.16, 1,    2327.27,   -1.2,   0.96898
"69", 4.16, 1,     2326.6,   -1.2,    0.9687
"70", 4.16, 1,    2325.95,   -1.2,   0.96843
"71", 4.16, 1,    2325.58,   -1.2,   0.96828
"73", 4.16, 1,    2328.73,   -1.2,   0.96959
"76", 4.16, 1,    2331.18,   -1.2,   0.97061
"74", 4.16, 1,     2327.8,   -1.2,    0.9692
"75", 4.16, 1,    2327.27,   -1.2,   0.96898
"77", 4.16, 1,    2334.24,   -1.3,   0.97188
"86", 4.16, 1,    2331.32,   -1.3,   0.97067
"78", 4.16, 1,    2335.05,   -1.3,   0.97222
"79", 4.16, 1,    2334.95,   -1.3,   0.97218
"80", 4.16, 1,    2339.07,   -1.4,   0.97389
"81", 4.16, 1,    2340.63,   -1.4,   0.97454
"82", 4.16, 1,    2343.01,   -1.5,   0.97553
"84", 4.16, 1,    2339.29,   -1.4,   0.97398
"83", 4.16, 1,    2345.49,   -1.5,   0.97656
"85", 4.16, 1,    2338.66,   -1.4,   0.97372
"87", 4.16, 1,    2331.51,   -1.3,   0.97074
"88", 4.16, 1,    2331.59,   -1.3,   0.97078
"89", 4.16, 1,    2331.52,   -1.3,   0.97075
"90", 4.16, 1,    2331.65,   -1.3,    0.9708
"91", 4.16, 1,    2331.44,   -1.3,   0.97071
"92", 4.16, 1,    2331.58,   -1.3,   0.97077
"93", 4.16, 1,    2331.25,   -1.3,   0.97064
"94", 4.16, 1,    2330.88,   -1.3,   0.97048
"95", 4.16, 1,    2331.13,   -1.3,   0.97058
"96", 4.16, 1,    2330.99,   -1.3,   0.97053
"98", 4.16, 1,    2327.02,   -1.2,   0.96887
"99", 4.16, 1,    2326.75,   -1.2,   0.96876
"100", 4.16, 1,    2326.72,   -1.2,   0.96875
"450", 4.16, 1,    2326.72,   -1.2,   0.96875
"197", 4.16, 1,    2327.27,   -1.2,   0.96898
"101", 4.16, 1,    2326.44,   -1.2,   0.96863
"102", 4.16, 1,    2325.69,   -1.2,   0.96832
"105", 4.16, 1,    2325.82,   -1.2,   0.96837
"103", 4.16, 1,    2324.82,   -1.2,   0.96796
"104", 4.16, 1,    2323.89,   -1.2,   0.96757
"106", 4.16, 1,    2325.22,   -1.2,   0.96812
"108", 4.16, 1,    2325.35,   -1.2,   0.96818
"107", 4.16, 1,    2324.45,   -1.2,    0.9678
"109", 4.16, 1,    2323.24,   -1.2,    0.9673
"300", 4.16, 1,    2325.35,   -1.2,   0.96818
"110", 4.16, 1,    2322.24,   -1.2,   0.96688
"111", 4.16, 1,    2321.86,   -1.2,   0.96672
"112", 4.16, 1,    2321.91,   -1.2,   0.96675
"113", 4.16, 1,    2320.86,   -1.2,   0.96631
"114", 4.16, 1,    2320.64,   -1.2,   0.96622
"135", 4.16, 1,    2386.13,   -0.6,   0.99349
"152", 4.16, 1,     2394.5,   -0.5,   0.99697
"160R", 4.16, 1,     2328.3,   -1.1,   0.96941
"150R", 4.16, 1,       2415,    0.0,    1.0055
"160", 4.16, 1,    2387.99,   -1.0,   0.99426
"610", 4.16, 1,    2387.99,   -1.0,   0.99426
