Bus, BasekV, Node1, Magnitude1, Angle1, pu1
"150", 4.16, 1,       2400,    0.0,   0.99926
"149", 4.16, 1,       2415,    0.0,    1.0055
"1", 4.16, 1,    2407.97,   -0.2,    1.0026
"2", 4.16, 1,    2407.86,   -0.2,    1.0025
"3", 4.16, 1,    2407.18,   -0.2,    1.0023
"7", 4.16, 1,    2403.18,   -0.3,    1.0006
"4", 4.16, 1,    2406.93,   -0.2,    1.0021
"5", 4.16, 1,    2406.57,   -0.2,     1.002
"6", 4.16, 1,    2406.26,   -0.2,    1.0019
"8", 4.16, 1,    2400.03,   -0.4,   0.99927
"12", 4.16, 1,    2399.89,   -0.4,   0.99921
"9", 4.16, 1,    2399.63,   -0.4,   0.99911
"13", 4.16, 1,    2395.57,   -0.5,   0.99741
"9R", 4.16, 1,    2324.65,   -0.4,   0.96789
"14", 4.16, 1,    2323.82,   -0.4,   0.96754
"34", 4.16, 1,    2395.09,   -0.5,   0.99722
"18", 4.16, 1,    2387.45,   -0.6,   0.99404
"11", 4.16, 1,    2323.49,   -0.4,    0.9674
"10", 4.16, 1,    2323.65,   -0.4,   0.96747
"15", 4.16, 1,    2394.91,   -0.5,   0.99714
"16", 4.16, 1,    2394.43,   -0.5,   0.99694
"17", 4.16, 1,    2394.68,   -0.5,   0.99705
"19", 4.16, 1,    2386.82,   -0.6,   0.99377
"21", 4.16, 1,    2386.72,   -0.6,   0.99373
"20", 4.16, 1,    2386.41,   -0.6,    0.9936
"22", 4.16, 1,    2386.06,   -0.6,   0.99346
"23", 4.16, 1,    2386.22,   -0.6,   0.99352
"24", 4.16, 1,    2385.52,   -0.6,   0.99323
"25", 4.16, 1,    2385.77,   -0.6,   0.99333
"25R", 4.16, 1,    2445.41,   -0.6,    1.0182
"26", 4.16, 1,    2445.13,   -0.6,    1.0181
"28", 4.16, 1,     2385.6,   -0.6,   0.99326
"27", 4.16, 1,    2445.02,   -0.6,     1.018
"31", 4.16, 1,    2444.85,   -0.6,    1.0179
"33", 4.16, 1,     2444.4,   -0.6,    1.0177
"29", 4.16, 1,    2385.36,   -0.6,   0.99317
"30", 4.16, 1,    2385.22,   -0.6,   0.99311
"250", 4.16, 1,    2385.22,   -0.6,   0.99311
"32", 4.16, 1,    2444.67,   -0.6,    1.0179
"35", 4.16, 1,    2384.96,   -0.6,     0.993
"36", 4.16, 1,    2384.43,   -0.6,   0.99278
"40", 4.16, 1,     2383.6,   -0.6,   0.99243
"37", 4.16, 1,    2384.05,   -0.6,   0.99262
"38", 4.16, 1,    2384.11,   -0.6,   0.99265
"39", 4.16, 1,    2383.91,   -0.6,   0.99256
"41", 4.16, 1,    2383.39,   -0.6,   0.99235
"42", 4.16, 1,    2382.29,   -0.6,   0.99188
"43", 4.16, 1,    2381.65,   -0.6,   0.99162
"44", 4.16, 1,    2381.35,   -0.6,    0.9915
"45", 4.16, 1,     2381.1,   -0.6,   0.99139
"47", 4.16, 1,    2380.28,   -0.6,   0.99105
"46", 4.16, 1,    2380.91,   -0.6,   0.99131
"48", 4.16, 1,    2380.16,   -0.6,     0.991
"49", 4.16, 1,    2379.73,   -0.6,   0.99082
"50", 4.16, 1,    2379.58,   -0.6,   0.99076
"51", 4.16, 1,    2379.53,   -0.6,   0.99074
"151", 4.16, 1,    2379.53,   -0.6,   0.99074
"52", 4.16, 1,    2393.96,   -0.6,   0.99675
"53", 4.16, 1,    2393.24,   -0.7,   0.99645
"54", 4.16, 1,    2392.84,   -0.7,   0.99628
"55", 4.16, 1,    2392.73,   -0.7,   0.99623
"57", 4.16, 1,    2391.86,   -0.8,   0.99587
"56", 4.16, 1,    2392.68,   -0.7,   0.99621
"58", 4.16, 1,    2391.72,   -0.8,   0.99581
"60", 4.16, 1,    2389.95,   -1.0,   0.99507
"59", 4.16, 1,    2391.56,   -0.8,   0.99574
"61", 4.16, 1,    2389.95,   -1.0,   0.99507
"62", 4.16, 1,       2389,   -1.0,   0.99468
"63", 4.16, 1,    2388.48,   -1.0,   0.99446
"64", 4.16, 1,    2387.71,   -1.0,   0.99414
"65", 4.16, 1,     2387.4,   -1.0,   0.99402
"66", 4.16, 1,    2386.93,   -1.0,   0.99382
"67", 4.16, 1,    2330.36,   -1.1,   0.97026
"68", 4.16, 1,    2329.58,   -1.1,   0.96994
"72", 4.16, 1,    2331.94,   -1.2,   0.97092
"97", 4.16, 1,    2329.34,   -1.1,   0.96984
"69", 4.16, 1,    2328.69,   -1.1,   0.96957
"70", 4.16, 1,    2328.05,   -1.1,    0.9693
"71", 4.16, 1,     2327.7,   -1.1,   0.96916
"73", 4.16, 1,    2330.87,   -1.2,   0.97048
"76", 4.16, 1,    2333.33,   -1.2,    0.9715
"74", 4.16, 1,    2329.96,   -1.2,    0.9701
"75", 4.16, 1,    2329.44,   -1.2,   0.96988
"77", 4.16, 1,    2336.41,   -1.3,   0.97278
"86", 4.16, 1,    2333.51,   -1.2,   0.97158
"78", 4.16, 1,    2337.22,   -1.3,   0.97312
"79", 4.16, 1,    2337.13,   -1.3,   0.97308
"80", 4.16, 1,    2341.26,   -1.4,    0.9748
"81", 4.16, 1,    2342.82,   -1.4,   0.97545
"82", 4.16, 1,     2345.2,   -1.4,   0.97644
"84", 4.16, 1,    2341.51,   -1.4,   0.97491
"83", 4.16, 1,    2347.67,   -1.4,   0.97747
"85", 4.16, 1,     2340.9,   -1.4,   0.97465
"87", 4.16, 1,    2333.72,   -1.3,   0.97167
"88", 4.16, 1,    2333.82,   -1.3,    0.9717
"89", 4.16, 1,    2333.75,   -1.3,   0.97168
"90", 4.16, 1,    2333.88,   -1.3,   0.97173
"91", 4.16, 1,    2333.67,   -1.3,   0.97164
"92", 4.16, 1,    2333.83,   -1.3,   0.97171
"93", 4.16, 1,    2333.49,   -1.3,   0.97157
"94", 4.16, 1,    2333.13,   -1.3,   0.97142
"95", 4.16, 1,    2333.37,   -1.3,   0.97152
"96", 4.16, 1,    2333.24,   -1.3,   0.97146
"98", 4.16, 1,     2329.1,   -1.1,   0.96974
"99", 4.16, 1,    2328.84,   -1.1,   0.96963
"100", 4.16, 1,    2328.82,   -1.1,   0.96962
"450", 4.16, 1,    2328.82,   -1.1,   0.96962
"197", 4.16, 1,    2329.34,   -1.1,   0.96984
"101", 4.16, 1,    2328.53,   -1.1,    0.9695
"102", 4.16, 1,     2327.8,   -1.2,    0.9692
"105", 4.16, 1,    2327.92,   -1.2,   0.96925
"103", 4.16, 1,    2326.96,   -1.2,   0.96885
"104", 4.16, 1,    2326.05,   -1.2,   0.96847
"106", 4.16, 1,    2327.34,   -1.2,   0.96901
"108", 4.16, 1,    2327.47,   -1.2,   0.96906
"107", 4.16, 1,    2326.59,   -1.2,    0.9687
"109", 4.16, 1,    2325.42,   -1.2,   0.96821
"300", 4.16, 1,    2327.47,   -1.2,   0.96906
"110", 4.16, 1,    2324.44,   -1.2,    0.9678
"111", 4.16, 1,    2324.07,   -1.2,   0.96764
"112", 4.16, 1,    2324.11,   -1.2,   0.96766
"113", 4.16, 1,    2323.09,   -1.2,   0.96724
"114", 4.16, 1,    2322.88,   -1.2,   0.96715
"135", 4.16, 1,    2387.45,   -0.6,   0.99404
"152", 4.16, 1,    2395.57,   -0.5,   0.99741
"160R", 4.16, 1,    2330.21,   -1.0,    0.9702
"150R", 4.16, 1,       2415,    0.0,    1.0055
"160", 4.16, 1,    2389.95,   -1.0,   0.99507
"610", 4.16, 1,    2389.95,   -1.0,   0.99507
