Bus, BasekV, Node1, Magnitude1, Angle1, pu1
"150", 4.16, 1,       2400,    0.0,   0.99926
"149", 4.16, 1,       2415,    0.0,    1.0055
"1", 4.16, 1,    2402.28,   -0.3,    1.0002
"2", 4.16, 1,    2402.14,   -0.3,    1.0001
"3", 4.16, 1,    2401.25,   -0.3,   0.99978
"7", 4.16, 1,     2393.4,   -0.5,   0.99651
"4", 4.16, 1,    2400.91,   -0.3,   0.99964
"5", 4.16, 1,    2400.44,   -0.3,   0.99944
"6", 4.16, 1,    2400.02,   -0.3,   0.99927
"8", 4.16, 1,    2387.54,   -0.6,   0.99407
"12", 4.16, 1,    2387.35,   -0.6,   0.99399
"9", 4.16, 1,    2386.85,   -0.6,   0.99379
"13", 4.16, 1,    2379.16,   -0.8,   0.99058
"9R", 4.16, 1,    2312.26,   -0.6,   0.96273
"14", 4.16, 1,    2311.17,   -0.6,   0.96227
"34", 4.16, 1,    2378.53,   -0.8,   0.99032
"18", 4.16, 1,     2367.5,   -0.9,   0.98573
"11", 4.16, 1,    2310.74,   -0.6,   0.96209
"10", 4.16, 1,    2310.95,   -0.6,   0.96218
"15", 4.16, 1,    2378.28,   -0.8,   0.99022
"16", 4.16, 1,    2377.66,   -0.8,   0.98996
"17", 4.16, 1,    2377.99,   -0.8,    0.9901
"19", 4.16, 1,    2366.66,   -0.9,   0.98538
"21", 4.16, 1,    2366.48,   -0.9,    0.9853
"20", 4.16, 1,    2366.11,   -0.9,   0.98515
"22", 4.16, 1,     2365.6,   -0.9,   0.98494
"23", 4.16, 1,    2365.77,   -1.0,   0.98501
"24", 4.16, 1,    2364.84,   -1.0,   0.98462
"25", 4.16, 1,    2365.12,   -1.0,   0.98474
"25R", 4.16, 1,    2424.25,   -1.0,    1.0094
"26", 4.16, 1,    2423.88,   -1.0,    1.0092
"28", 4.16, 1,    2364.86,   -1.0,   0.98463
"27", 4.16, 1,    2423.73,   -1.0,    1.0091
"31", 4.16, 1,    2423.51,   -1.0,     1.009
"33", 4.16, 1,    2422.91,   -1.0,    1.0088
"29", 4.16, 1,    2364.55,   -1.0,    0.9845
"30", 4.16, 1,    2364.37,   -1.0,   0.98442
"250", 4.16, 1,    2364.37,   -1.0,   0.98442
"32", 4.16, 1,    2423.26,   -1.0,    1.0089
"35", 4.16, 1,    2363.86,   -1.0,   0.98421
"36", 4.16, 1,    2363.15,   -1.0,   0.98392
"40", 4.16, 1,    2361.82,   -1.0,   0.98336
"37", 4.16, 1,    2362.64,   -1.0,   0.98371
"38", 4.16, 1,    2362.73,   -1.0,   0.98374
"39", 4.16, 1,    2362.45,   -1.0,   0.98363
"41", 4.16, 1,    2361.55,   -1.0,   0.98325
"42", 4.16, 1,    2359.85,   -1.0,   0.98254
"43", 4.16, 1,    2359.01,   -1.0,   0.98219
"44", 4.16, 1,    2358.43,   -1.0,   0.98195
"45", 4.16, 1,     2358.1,   -1.0,   0.98181
"47", 4.16, 1,    2356.79,   -1.0,   0.98127
"46", 4.16, 1,    2357.84,   -1.0,   0.98171
"48", 4.16, 1,     2356.5,   -1.0,   0.98115
"49", 4.16, 1,    2356.05,   -1.0,   0.98096
"50", 4.16, 1,    2355.86,   -1.0,   0.98088
"51", 4.16, 1,    2355.79,   -1.0,   0.98085
"151", 4.16, 1,    2355.79,   -1.0,   0.98085
"52", 4.16, 1,     2374.2,   -1.0,   0.98852
"53", 4.16, 1,    2371.83,   -1.0,   0.98753
"54", 4.16, 1,    2370.42,   -1.1,   0.98694
"55", 4.16, 1,    2370.27,   -1.1,   0.98688
"57", 4.16, 1,    2366.65,   -1.2,   0.98537
"56", 4.16, 1,     2370.2,   -1.1,   0.98685
"58", 4.16, 1,    2366.37,   -1.2,   0.98526
"60", 4.16, 1,    2358.92,   -1.6,   0.98216
"59", 4.16, 1,    2366.16,   -1.2,   0.98517
"61", 4.16, 1,    2358.92,   -1.6,   0.98216
"62", 4.16, 1,    2357.17,   -1.5,   0.98143
"63", 4.16, 1,    2356.13,   -1.5,   0.98099
"64", 4.16, 1,    2354.41,   -1.5,   0.98028
"65", 4.16, 1,    2353.17,   -1.5,   0.97976
"66", 4.16, 1,    2352.53,   -1.5,    0.9795
"67", 4.16, 1,    2297.89,   -1.7,   0.95675
"68", 4.16, 1,    2296.85,   -1.7,   0.95631
"72", 4.16, 1,    2298.28,   -1.8,   0.95691
"97", 4.16, 1,    2296.48,   -1.7,   0.95616
"69", 4.16, 1,    2295.66,   -1.7,   0.95582
"70", 4.16, 1,    2294.82,   -1.7,   0.95547
"71", 4.16, 1,    2294.34,   -1.7,   0.95527
"73", 4.16, 1,    2296.85,   -1.8,   0.95631
"76", 4.16, 1,    2298.88,   -1.8,   0.95716
"74", 4.16, 1,    2295.63,   -1.8,   0.95581
"75", 4.16, 1,    2294.94,   -1.8,   0.95552
"77", 4.16, 1,     2301.4,   -1.9,   0.95821
"86", 4.16, 1,    2298.28,   -1.9,   0.95691
"78", 4.16, 1,    2302.08,   -1.9,   0.95849
"79", 4.16, 1,    2301.96,   -1.9,   0.95844
"80", 4.16, 1,    2305.58,   -2.0,   0.95995
"81", 4.16, 1,    2306.97,   -2.0,   0.96052
"82", 4.16, 1,    2309.14,   -2.0,   0.96143
"84", 4.16, 1,    2305.22,   -2.0,    0.9598
"83", 4.16, 1,    2311.46,   -2.1,   0.96239
"85", 4.16, 1,     2304.4,   -2.0,   0.95945
"87", 4.16, 1,    2298.02,   -1.9,    0.9568
"88", 4.16, 1,    2298.01,   -1.9,    0.9568
"89", 4.16, 1,    2297.87,   -1.9,   0.95674
"90", 4.16, 1,    2297.86,   -1.9,   0.95673
"91", 4.16, 1,    2297.68,   -1.9,   0.95666
"92", 4.16, 1,    2297.67,   -1.9,   0.95665
"93", 4.16, 1,    2297.44,   -1.9,   0.95656
"94", 4.16, 1,    2296.96,   -1.9,   0.95636
"95", 4.16, 1,    2297.28,   -1.9,   0.95649
"96", 4.16, 1,    2297.11,   -1.9,   0.95642
"98", 4.16, 1,    2296.12,   -1.7,   0.95601
"99", 4.16, 1,    2295.67,   -1.7,   0.95582
"100", 4.16, 1,    2295.59,   -1.7,   0.95579
"450", 4.16, 1,    2295.59,   -1.7,   0.95579
"197", 4.16, 1,    2296.48,   -1.7,   0.95616
"101", 4.16, 1,    2295.41,   -1.7,   0.95571
"102", 4.16, 1,    2294.43,   -1.7,   0.95531
"105", 4.16, 1,     2294.6,   -1.7,   0.95537
"103", 4.16, 1,     2293.3,   -1.8,   0.95484
"104", 4.16, 1,    2292.09,   -1.8,   0.95433
"106", 4.16, 1,    2293.81,   -1.8,   0.95505
"108", 4.16, 1,    2293.98,   -1.8,   0.95512
"107", 4.16, 1,    2292.82,   -1.8,   0.95463
"109", 4.16, 1,    2291.25,   -1.8,   0.95398
"300", 4.16, 1,    2293.98,   -1.8,   0.95512
"110", 4.16, 1,    2289.94,   -1.8,   0.95344
"111", 4.16, 1,    2289.44,   -1.8,   0.95323
"112", 4.16, 1,    2289.51,   -1.8,   0.95326
"113", 4.16, 1,    2288.14,   -1.8,   0.95268
"114", 4.16, 1,    2287.85,   -1.8,   0.95257
"135", 4.16, 1,     2367.5,   -0.9,   0.98573
"152", 4.16, 1,    2379.16,   -0.8,   0.99058
"160R", 4.16, 1,    2299.95,   -1.6,    0.9576
"150R", 4.16, 1,       2415,    0.0,    1.0055
"160", 4.16, 1,    2358.92,   -1.6,   0.98216
"610", 4.16, 1,    2358.92,   -1.6,   0.98216
