Bus, BasekV, Node1, Magnitude1, Angle1, pu1
"150", 4.16, 1,       2400,    0.0,   0.99926
"149", 4.16, 1,       2415,    0.0,    1.0055
"1", 4.16, 1,    2403.22,   -0.3,    1.0006
"2", 4.16, 1,    2403.08,   -0.3,    1.0005
"3", 4.16, 1,    2402.19,   -0.3,    1.0002
"7", 4.16, 1,    2395.04,   -0.4,   0.99719
"4", 4.16, 1,    2401.86,   -0.3,         1
"5", 4.16, 1,    2401.38,   -0.3,   0.99983
"6", 4.16, 1,    2400.97,   -0.3,   0.99966
"8", 4.16, 1,    2389.65,   -0.5,   0.99495
"12", 4.16, 1,    2389.46,   -0.5,   0.99487
"9", 4.16, 1,    2389.03,   -0.5,   0.99469
"13", 4.16, 1,    2381.94,   -0.7,   0.99174
"9R", 4.16, 1,    2314.37,   -0.5,   0.96361
"14", 4.16, 1,    2313.27,   -0.6,   0.96315
"34", 4.16, 1,    2381.32,   -0.7,   0.99148
"18", 4.16, 1,    2370.64,   -0.8,   0.98703
"11", 4.16, 1,    2312.84,   -0.6,   0.96297
"10", 4.16, 1,    2313.06,   -0.6,   0.96306
"15", 4.16, 1,    2381.07,   -0.7,   0.99138
"16", 4.16, 1,    2380.44,   -0.7,   0.99112
"17", 4.16, 1,    2380.77,   -0.7,   0.99126
"19", 4.16, 1,     2369.8,   -0.9,   0.98668
"21", 4.16, 1,    2369.64,   -0.9,   0.98662
"20", 4.16, 1,    2369.25,   -0.9,   0.98646
"22", 4.16, 1,    2368.76,   -0.9,   0.98625
"23", 4.16, 1,    2368.94,   -0.9,   0.98633
"24", 4.16, 1,    2368.02,   -0.9,   0.98595
"25", 4.16, 1,    2368.32,   -0.9,   0.98607
"25R", 4.16, 1,    2427.53,   -0.9,    1.0107
"26", 4.16, 1,    2427.15,   -0.9,    1.0106
"28", 4.16, 1,    2368.07,   -0.9,   0.98597
"27", 4.16, 1,    2427.01,   -0.9,    1.0105
"31", 4.16, 1,    2426.79,   -0.9,    1.0104
"33", 4.16, 1,    2426.19,   -0.9,    1.0102
"29", 4.16, 1,    2367.76,   -0.9,   0.98584
"30", 4.16, 1,    2367.58,   -0.9,   0.98576
"250", 4.16, 1,    2367.58,   -0.9,   0.98576
"32", 4.16, 1,    2426.54,   -0.9,    1.0103
"35", 4.16, 1,    2367.13,   -0.9,   0.98558
"36", 4.16, 1,    2366.42,   -0.9,   0.98528
"40", 4.16, 1,    2365.19,   -0.9,   0.98477
"37", 4.16, 1,    2365.92,   -0.9,   0.98507
"38", 4.16, 1,       2366,   -0.9,   0.98511
"39", 4.16, 1,    2365.73,   -0.9,   0.98499
"41", 4.16, 1,    2364.91,   -0.9,   0.98465
"42", 4.16, 1,    2363.31,   -0.9,   0.98398
"43", 4.16, 1,    2362.46,   -0.9,   0.98363
"44", 4.16, 1,    2361.96,   -0.9,   0.98342
"45", 4.16, 1,    2361.62,   -0.9,   0.98328
"47", 4.16, 1,     2360.4,   -0.9,   0.98277
"46", 4.16, 1,    2361.37,   -0.9,   0.98318
"48", 4.16, 1,    2360.16,   -0.9,   0.98267
"49", 4.16, 1,    2359.67,   -0.9,   0.98247
"50", 4.16, 1,    2359.47,   -0.9,   0.98239
"51", 4.16, 1,    2359.41,   -0.9,   0.98236
"151", 4.16, 1,    2359.41,   -0.9,   0.98236
"52", 4.16, 1,     2377.7,   -0.9,   0.98998
"53", 4.16, 1,    2375.69,   -1.0,   0.98914
"54", 4.16, 1,     2374.5,   -1.0,   0.98864
"55", 4.16, 1,    2374.36,   -1.0,   0.98858
"57", 4.16, 1,    2371.36,   -1.2,   0.98734
"56", 4.16, 1,    2374.29,   -1.0,   0.98855
"58", 4.16, 1,    2371.12,   -1.1,   0.98723
"60", 4.16, 1,    2364.94,   -1.4,   0.98466
"59", 4.16, 1,    2370.91,   -1.2,   0.98715
"61", 4.16, 1,    2364.94,   -1.4,   0.98466
"62", 4.16, 1,    2363.38,   -1.4,   0.98401
"63", 4.16, 1,    2362.48,   -1.4,   0.98364
"64", 4.16, 1,    2361.03,   -1.4,   0.98304
"65", 4.16, 1,    2360.11,   -1.4,   0.98265
"66", 4.16, 1,    2359.48,   -1.4,   0.98239
"67", 4.16, 1,     2304.3,   -1.6,   0.95941
"68", 4.16, 1,    2303.26,   -1.6,   0.95898
"72", 4.16, 1,    2305.08,   -1.6,   0.95974
"97", 4.16, 1,    2302.91,   -1.6,   0.95884
"69", 4.16, 1,    2302.07,   -1.6,   0.95849
"70", 4.16, 1,    2301.23,   -1.6,   0.95814
"71", 4.16, 1,    2300.75,   -1.6,   0.95794
"73", 4.16, 1,    2303.65,   -1.6,   0.95915
"76", 4.16, 1,    2305.97,   -1.7,   0.96011
"74", 4.16, 1,    2302.44,   -1.7,   0.95864
"75", 4.16, 1,    2301.75,   -1.7,   0.95835
"77", 4.16, 1,    2308.78,   -1.8,   0.96128
"86", 4.16, 1,    2305.57,   -1.7,   0.95995
"78", 4.16, 1,    2309.53,   -1.8,   0.96159
"79", 4.16, 1,    2309.41,   -1.8,   0.96154
"80", 4.16, 1,    2313.38,   -1.8,    0.9632
"81", 4.16, 1,    2314.89,   -1.9,   0.96382
"82", 4.16, 1,    2317.25,   -1.9,   0.96481
"84", 4.16, 1,    2313.15,   -1.9,    0.9631
"83", 4.16, 1,    2319.74,   -1.9,   0.96585
"85", 4.16, 1,    2312.33,   -1.9,   0.96276
"87", 4.16, 1,    2305.44,   -1.8,   0.95989
"88", 4.16, 1,    2305.46,   -1.8,    0.9599
"89", 4.16, 1,    2305.33,   -1.8,   0.95984
"90", 4.16, 1,    2305.36,   -1.8,   0.95985
"91", 4.16, 1,    2305.16,   -1.8,   0.95977
"92", 4.16, 1,    2305.19,   -1.8,   0.95979
"93", 4.16, 1,    2304.92,   -1.8,   0.95967
"94", 4.16, 1,    2304.44,   -1.8,   0.95947
"95", 4.16, 1,    2304.76,   -1.8,   0.95961
"96", 4.16, 1,    2304.59,   -1.8,   0.95953
"98", 4.16, 1,    2302.56,   -1.6,   0.95869
"99", 4.16, 1,    2302.16,   -1.6,   0.95852
"100", 4.16, 1,     2302.1,   -1.6,    0.9585
"450", 4.16, 1,     2302.1,   -1.6,    0.9585
"197", 4.16, 1,    2302.91,   -1.6,   0.95884
"101", 4.16, 1,    2301.84,   -1.6,   0.95839
"102", 4.16, 1,    2300.87,   -1.6,   0.95798
"105", 4.16, 1,    2301.03,   -1.6,   0.95805
"103", 4.16, 1,    2299.74,   -1.6,   0.95752
"104", 4.16, 1,    2298.53,   -1.6,   0.95701
"106", 4.16, 1,    2300.25,   -1.6,   0.95773
"108", 4.16, 1,    2300.42,   -1.6,    0.9578
"107", 4.16, 1,    2299.25,   -1.6,   0.95731
"109", 4.16, 1,    2297.69,   -1.7,   0.95666
"300", 4.16, 1,    2300.42,   -1.6,    0.9578
"110", 4.16, 1,    2296.39,   -1.7,   0.95612
"111", 4.16, 1,    2295.89,   -1.7,   0.95591
"112", 4.16, 1,    2295.95,   -1.7,   0.95594
"113", 4.16, 1,    2294.59,   -1.7,   0.95537
"114", 4.16, 1,    2294.31,   -1.7,   0.95525
"135", 4.16, 1,    2370.64,   -0.8,   0.98703
"152", 4.16, 1,    2381.94,   -0.7,   0.99174
"160R", 4.16, 1,    2305.82,   -1.4,   0.96005
"150R", 4.16, 1,       2415,    0.0,    1.0055
"160", 4.16, 1,    2364.94,   -1.4,   0.98466
"610", 4.16, 1,    2364.94,   -1.4,   0.98466
