Bus, BasekV, Node1, Magnitude1, Angle1, pu1
"150", 4.16, 1,       2400,    0.0,   0.99926
"149", 4.16, 1,    2414.99,    0.0,    1.0055
"1", 4.16, 1,     2398.2,   -0.4,   0.99851
"2", 4.16, 1,    2398.04,   -0.4,   0.99845
"3", 4.16, 1,    2397.08,   -0.4,   0.99804
"7", 4.16, 1,    2386.34,   -0.7,   0.99357
"4", 4.16, 1,    2396.72,   -0.4,   0.99789
"5", 4.16, 1,     2396.2,   -0.4,   0.99768
"6", 4.16, 1,    2395.76,   -0.4,   0.99749
"8", 4.16, 1,    2378.53,   -0.9,   0.99032
"12", 4.16, 1,    2378.32,   -0.9,   0.99023
"9", 4.16, 1,    2377.51,   -0.9,    0.9899
"13", 4.16, 1,    2367.35,   -1.1,   0.98567
"9R", 4.16, 1,    2303.21,   -0.9,   0.95896
"14", 4.16, 1,    2302.02,   -0.9,   0.95846
"34", 4.16, 1,    2366.67,   -1.2,   0.98538
"18", 4.16, 1,    2353.17,   -1.4,   0.97976
"11", 4.16, 1,    2301.55,   -0.9,   0.95827
"10", 4.16, 1,    2301.79,   -0.9,   0.95837
"15", 4.16, 1,     2366.4,   -1.2,   0.98527
"16", 4.16, 1,    2365.72,   -1.2,   0.98499
"17", 4.16, 1,    2366.08,   -1.2,   0.98514
"19", 4.16, 1,    2352.25,   -1.4,   0.97938
"21", 4.16, 1,    2351.98,   -1.4,   0.97927
"20", 4.16, 1,    2351.66,   -1.4,   0.97913
"22", 4.16, 1,    2351.02,   -1.4,   0.97887
"23", 4.16, 1,    2351.13,   -1.4,   0.97891
"24", 4.16, 1,    2350.12,   -1.4,   0.97849
"25", 4.16, 1,    2350.35,   -1.4,   0.97859
"25R", 4.16, 1,    2409.11,   -1.4,    1.0031
"26", 4.16, 1,     2408.7,   -1.4,    1.0029
"28", 4.16, 1,    2350.01,   -1.4,   0.97845
"27", 4.16, 1,    2408.54,   -1.4,    1.0028
"31", 4.16, 1,     2408.3,   -1.4,    1.0027
"33", 4.16, 1,    2407.65,   -1.4,    1.0024
"29", 4.16, 1,    2349.67,   -1.4,   0.97831
"30", 4.16, 1,    2349.47,   -1.4,   0.97822
"250", 4.16, 1,    2349.47,   -1.4,   0.97822
"32", 4.16, 1,    2408.03,   -1.4,    1.0026
"35", 4.16, 1,    2348.64,   -1.4,   0.97788
"36", 4.16, 1,    2347.87,   -1.5,   0.97755
"40", 4.16, 1,    2346.05,   -1.5,    0.9768
"37", 4.16, 1,    2347.32,   -1.5,   0.97733
"38", 4.16, 1,    2347.41,   -1.5,   0.97736
"39", 4.16, 1,    2347.11,   -1.5,   0.97724
"41", 4.16, 1,    2345.75,   -1.5,   0.97667
"42", 4.16, 1,    2343.53,   -1.5,   0.97575
"43", 4.16, 1,    2342.61,   -1.5,   0.97537
"44", 4.16, 1,    2341.68,   -1.5,   0.97498
"45", 4.16, 1,    2341.32,   -1.5,   0.97483
"47", 4.16, 1,    2339.52,   -1.6,   0.97408
"46", 4.16, 1,    2341.04,   -1.6,   0.97471
"48", 4.16, 1,    2338.98,   -1.6,   0.97385
"49", 4.16, 1,    2338.72,   -1.6,   0.97375
"50", 4.16, 1,    2338.51,   -1.6,   0.97366
"51", 4.16, 1,    2338.44,   -1.6,   0.97363
"151", 4.16, 1,    2338.44,   -1.6,   0.97363
"52", 4.16, 1,    2359.96,   -1.4,   0.98259
"53", 4.16, 1,     2356.4,   -1.5,   0.98111
"54", 4.16, 1,    2354.25,   -1.6,   0.98021
"55", 4.16, 1,    2354.09,   -1.6,   0.98015
"57", 4.16, 1,    2348.44,   -1.8,   0.97779
"56", 4.16, 1,    2354.01,   -1.6,   0.98011
"58", 4.16, 1,    2347.98,   -1.8,    0.9776
"60", 4.16, 1,    2336.54,   -2.3,   0.97284
"59", 4.16, 1,    2347.76,   -1.8,   0.97751
"61", 4.16, 1,    2336.54,   -2.3,   0.97284
"62", 4.16, 1,    2333.79,   -2.3,   0.97169
"63", 4.16, 1,    2332.07,   -2.3,   0.97098
"64", 4.16, 1,    2329.03,   -2.3,   0.96971
"65", 4.16, 1,    2326.26,   -2.3,   0.96856
"66", 4.16, 1,    2325.56,   -2.3,   0.96827
"67", 4.16, 1,     2274.6,   -2.5,   0.94705
"68", 4.16, 1,    2273.47,   -2.5,   0.94658
"72", 4.16, 1,     2274.1,   -2.6,   0.94684
"97", 4.16, 1,    2272.99,   -2.5,   0.94638
"69", 4.16, 1,    2272.16,   -2.5,   0.94603
"70", 4.16, 1,    2271.24,   -2.5,   0.94565
"71", 4.16, 1,    2270.72,   -2.5,   0.94543
"73", 4.16, 1,    2272.54,   -2.6,   0.94619
"76", 4.16, 1,     2274.1,   -2.6,   0.94684
"74", 4.16, 1,    2271.22,   -2.6,   0.94564
"75", 4.16, 1,    2270.46,   -2.6,   0.94532
"77", 4.16, 1,    2276.45,   -2.7,   0.94782
"86", 4.16, 1,    2273.07,   -2.7,   0.94641
"78", 4.16, 1,     2277.1,   -2.7,   0.94809
"79", 4.16, 1,    2276.97,   -2.7,   0.94804
"80", 4.16, 1,    2280.46,   -2.8,   0.94949
"81", 4.16, 1,     2281.8,   -2.8,   0.95005
"82", 4.16, 1,    2283.93,   -2.9,   0.95093
"84", 4.16, 1,    2279.89,   -2.8,   0.94925
"83", 4.16, 1,    2286.21,   -2.9,   0.95188
"85", 4.16, 1,    2278.99,   -2.9,   0.94888
"87", 4.16, 1,    2272.54,   -2.7,   0.94619
"88", 4.16, 1,     2272.5,   -2.8,   0.94617
"89", 4.16, 1,    2272.32,   -2.8,    0.9461
"90", 4.16, 1,    2272.27,   -2.8,   0.94608
"91", 4.16, 1,     2272.1,   -2.8,   0.94601
"92", 4.16, 1,    2272.04,   -2.8,   0.94598
"93", 4.16, 1,    2271.84,   -2.8,    0.9459
"94", 4.16, 1,    2271.32,   -2.8,   0.94568
"95", 4.16, 1,    2271.66,   -2.8,   0.94583
"96", 4.16, 1,    2271.47,   -2.8,   0.94575
"98", 4.16, 1,     2272.5,   -2.5,   0.94618
"99", 4.16, 1,    2271.86,   -2.5,   0.94591
"100", 4.16, 1,    2271.69,   -2.5,   0.94584
"450", 4.16, 1,    2271.69,   -2.5,   0.94584
"197", 4.16, 1,    2272.99,   -2.5,   0.94638
"101", 4.16, 1,    2271.81,   -2.5,   0.94589
"102", 4.16, 1,    2270.75,   -2.5,   0.94545
"105", 4.16, 1,    2270.93,   -2.5,   0.94552
"103", 4.16, 1,    2269.52,   -2.5,   0.94493
"104", 4.16, 1,    2268.19,   -2.5,   0.94438
"106", 4.16, 1,    2270.07,   -2.5,   0.94516
"108", 4.16, 1,    2270.26,   -2.5,   0.94524
"107", 4.16, 1,    2268.98,   -2.5,   0.94471
"109", 4.16, 1,    2267.27,   -2.6,     0.944
"300", 4.16, 1,    2270.26,   -2.5,   0.94524
"110", 4.16, 1,    2265.85,   -2.6,    0.9434
"111", 4.16, 1,     2265.3,   -2.6,   0.94318
"112", 4.16, 1,    2265.37,   -2.6,   0.94321
"113", 4.16, 1,    2263.87,   -2.6,   0.94258
"114", 4.16, 1,    2263.57,   -2.6,   0.94245
"135", 4.16, 1,    2353.17,   -1.4,   0.97976
"152", 4.16, 1,    2367.35,   -1.1,   0.98567
"160R", 4.16, 1,    2278.12,   -2.3,   0.94852
"150R", 4.16, 1,    2414.99,    0.0,    1.0055
"160", 4.16, 1,    2336.54,   -2.3,   0.97284
"610", 4.16, 1,    2336.54,   -2.3,   0.97284
