Bus, BasekV, Node1, Magnitude1, Angle1, pu1
"150", 4.16, 1,       2400,    0.0,   0.99926
"149", 4.16, 1,       2415,    0.0,    1.0055
"1", 4.16, 1,    2404.92,   -0.2,    1.0013
"2", 4.16, 1,    2404.79,   -0.2,    1.0013
"3", 4.16, 1,    2403.97,   -0.2,    1.0009
"7", 4.16, 1,    2397.95,   -0.4,   0.99841
"4", 4.16, 1,    2403.67,   -0.2,    1.0008
"5", 4.16, 1,    2403.23,   -0.2,    1.0006
"6", 4.16, 1,    2402.86,   -0.2,    1.0004
"8", 4.16, 1,    2393.36,   -0.5,   0.99649
"12", 4.16, 1,    2393.19,   -0.5,   0.99642
"9", 4.16, 1,    2392.82,   -0.5,   0.99627
"13", 4.16, 1,    2386.81,   -0.6,   0.99377
"9R", 4.16, 1,    2318.04,   -0.5,   0.96514
"14", 4.16, 1,    2317.04,   -0.5,   0.96472
"34", 4.16, 1,    2386.24,   -0.6,   0.99353
"18", 4.16, 1,    2376.64,   -0.8,   0.98954
"11", 4.16, 1,    2316.65,   -0.5,   0.96456
"10", 4.16, 1,    2316.84,   -0.5,   0.96464
"15", 4.16, 1,    2386.01,   -0.6,   0.99344
"16", 4.16, 1,    2385.44,   -0.7,    0.9932
"17", 4.16, 1,    2385.75,   -0.7,   0.99333
"19", 4.16, 1,    2375.88,   -0.8,   0.98922
"21", 4.16, 1,    2375.75,   -0.8,   0.98916
"20", 4.16, 1,    2375.38,   -0.8,   0.98901
"22", 4.16, 1,    2374.94,   -0.8,   0.98883
"23", 4.16, 1,    2375.11,   -0.8,    0.9889
"24", 4.16, 1,    2374.27,   -0.8,   0.98855
"25", 4.16, 1,    2374.55,   -0.8,   0.98866
"25R", 4.16, 1,    2433.91,   -0.8,    1.0134
"26", 4.16, 1,    2433.57,   -0.8,    1.0132
"28", 4.16, 1,    2374.33,   -0.8,   0.98857
"27", 4.16, 1,    2433.44,   -0.8,    1.0132
"31", 4.16, 1,    2433.24,   -0.8,    1.0131
"33", 4.16, 1,    2432.69,   -0.8,    1.0129
"29", 4.16, 1,    2374.05,   -0.8,   0.98845
"30", 4.16, 1,    2373.88,   -0.8,   0.98839
"250", 4.16, 1,    2373.88,   -0.8,   0.98839
"32", 4.16, 1,    2433.01,   -0.8,     1.013
"35", 4.16, 1,     2373.5,   -0.8,   0.98823
"36", 4.16, 1,    2372.86,   -0.8,   0.98796
"40", 4.16, 1,    2371.76,   -0.8,    0.9875
"37", 4.16, 1,    2372.39,   -0.8,   0.98777
"38", 4.16, 1,    2372.47,   -0.8,    0.9878
"39", 4.16, 1,    2372.22,   -0.8,   0.98769
"41", 4.16, 1,    2371.51,   -0.8,    0.9874
"42", 4.16, 1,    2370.08,   -0.8,    0.9868
"43", 4.16, 1,    2369.32,   -0.8,   0.98648
"44", 4.16, 1,    2368.88,   -0.8,    0.9863
"45", 4.16, 1,    2368.58,   -0.8,   0.98618
"47", 4.16, 1,     2367.5,   -0.8,   0.98573
"46", 4.16, 1,    2368.35,   -0.8,   0.98608
"48", 4.16, 1,     2367.3,   -0.8,   0.98565
"49", 4.16, 1,    2366.83,   -0.8,   0.98545
"50", 4.16, 1,    2366.65,   -0.8,   0.98538
"51", 4.16, 1,    2366.59,   -0.8,   0.98535
"151", 4.16, 1,    2366.59,   -0.8,   0.98535
"52", 4.16, 1,    2383.51,   -0.8,    0.9924
"53", 4.16, 1,    2381.96,   -0.9,   0.99175
"54", 4.16, 1,    2381.06,   -0.9,   0.99137
"55", 4.16, 1,    2380.93,   -0.9,   0.99132
"57", 4.16, 1,    2378.69,   -1.0,   0.99039
"56", 4.16, 1,    2380.86,   -0.9,   0.99129
"58", 4.16, 1,    2378.48,   -1.0,    0.9903
"60", 4.16, 1,    2373.88,   -1.3,   0.98838
"59", 4.16, 1,    2378.29,   -1.0,   0.99022
"61", 4.16, 1,    2373.88,   -1.3,   0.98838
"62", 4.16, 1,    2372.54,   -1.3,   0.98783
"63", 4.16, 1,    2371.77,   -1.3,   0.98751
"64", 4.16, 1,    2370.57,   -1.2,   0.98701
"65", 4.16, 1,    2369.87,   -1.2,   0.98671
"66", 4.16, 1,    2369.29,   -1.2,   0.98647
"67", 4.16, 1,    2313.62,   -1.4,   0.96329
"68", 4.16, 1,    2312.67,   -1.4,    0.9629
"72", 4.16, 1,    2314.68,   -1.5,   0.96374
"97", 4.16, 1,    2312.36,   -1.4,   0.96277
"69", 4.16, 1,    2311.59,   -1.4,   0.96245
"70", 4.16, 1,    2310.82,   -1.4,   0.96213
"71", 4.16, 1,    2310.38,   -1.4,   0.96195
"73", 4.16, 1,    2313.38,   -1.5,    0.9632
"76", 4.16, 1,    2315.75,   -1.5,   0.96418
"74", 4.16, 1,    2312.28,   -1.5,   0.96274
"75", 4.16, 1,    2311.65,   -1.5,   0.96247
"77", 4.16, 1,    2318.65,   -1.6,   0.96539
"86", 4.16, 1,    2315.56,   -1.6,    0.9641
"78", 4.16, 1,    2319.43,   -1.6,   0.96571
"79", 4.16, 1,    2319.32,   -1.6,   0.96567
"80", 4.16, 1,    2323.35,   -1.7,   0.96734
"81", 4.16, 1,    2324.87,   -1.7,   0.96798
"82", 4.16, 1,    2327.24,   -1.7,   0.96897
"84", 4.16, 1,    2323.29,   -1.7,   0.96732
"83", 4.16, 1,    2329.73,   -1.8,      0.97
"85", 4.16, 1,    2322.54,   -1.7,   0.96701
"87", 4.16, 1,    2315.55,   -1.6,    0.9641
"88", 4.16, 1,     2315.6,   -1.6,   0.96412
"89", 4.16, 1,    2315.49,   -1.6,   0.96407
"90", 4.16, 1,    2315.55,   -1.6,    0.9641
"91", 4.16, 1,    2315.35,   -1.6,   0.96402
"92", 4.16, 1,    2315.43,   -1.6,   0.96405
"93", 4.16, 1,    2315.13,   -1.6,   0.96392
"94", 4.16, 1,     2314.7,   -1.6,   0.96374
"95", 4.16, 1,    2314.99,   -1.6,   0.96386
"96", 4.16, 1,    2314.83,   -1.6,    0.9638
"98", 4.16, 1,    2312.05,   -1.4,   0.96264
"99", 4.16, 1,     2311.7,   -1.4,   0.96249
"100", 4.16, 1,    2311.65,   -1.4,   0.96247
"450", 4.16, 1,    2311.65,   -1.4,   0.96247
"197", 4.16, 1,    2312.36,   -1.4,   0.96277
"101", 4.16, 1,    2311.38,   -1.4,   0.96236
"102", 4.16, 1,    2310.49,   -1.5,   0.96199
"105", 4.16, 1,    2310.64,   -1.5,   0.96206
"103", 4.16, 1,    2309.47,   -1.5,   0.96157
"104", 4.16, 1,    2308.36,   -1.5,   0.96111
"106", 4.16, 1,    2309.93,   -1.5,   0.96176
"108", 4.16, 1,    2310.09,   -1.5,   0.96182
"107", 4.16, 1,    2309.03,   -1.5,   0.96138
"109", 4.16, 1,     2307.6,   -1.5,   0.96079
"300", 4.16, 1,    2310.09,   -1.5,   0.96182
"110", 4.16, 1,    2306.41,   -1.5,   0.96029
"111", 4.16, 1,    2305.96,   -1.5,   0.96011
"112", 4.16, 1,    2306.02,   -1.5,   0.96013
"113", 4.16, 1,    2304.77,   -1.5,   0.95961
"114", 4.16, 1,    2304.52,   -1.5,   0.95951
"135", 4.16, 1,    2376.64,   -0.8,   0.98954
"152", 4.16, 1,    2386.81,   -0.6,   0.99377
"160R", 4.16, 1,    2314.54,   -1.3,   0.96368
"150R", 4.16, 1,       2415,    0.0,    1.0055
"160", 4.16, 1,    2373.88,   -1.3,   0.98838
"610", 4.16, 1,    2373.88,   -1.3,   0.98838
