Bus, BasekV, Node1, Magnitude1, Angle1, pu1
"150", 4.16, 1,       2400,    0.0,   0.99926
"149", 4.16, 1,       2415,    0.0,    1.0055
"1", 4.16, 1,    2402.34,   -0.3,    1.0002
"2", 4.16, 1,    2402.19,   -0.3,    1.0002
"3", 4.16, 1,    2401.29,   -0.3,    0.9998
"7", 4.16, 1,     2393.5,   -0.4,   0.99655
"4", 4.16, 1,    2400.95,   -0.3,   0.99966
"5", 4.16, 1,    2400.47,   -0.3,   0.99946
"6", 4.16, 1,    2400.05,   -0.3,   0.99928
"8", 4.16, 1,    2387.67,   -0.6,   0.99413
"12", 4.16, 1,    2387.48,   -0.6,   0.99405
"9", 4.16, 1,    2387.01,   -0.6,   0.99385
"13", 4.16, 1,    2379.33,   -0.8,   0.99066
"9R", 4.16, 1,    2312.41,   -0.6,   0.96279
"14", 4.16, 1,     2311.3,   -0.6,   0.96233
"34", 4.16, 1,     2378.7,   -0.8,   0.99039
"18", 4.16, 1,    2367.69,   -0.9,   0.98581
"11", 4.16, 1,    2310.87,   -0.6,   0.96215
"10", 4.16, 1,    2311.08,   -0.6,   0.96224
"15", 4.16, 1,    2378.44,   -0.8,   0.99029
"16", 4.16, 1,    2377.81,   -0.8,   0.99002
"17", 4.16, 1,    2378.15,   -0.8,   0.99016
"19", 4.16, 1,    2366.84,   -0.9,   0.98545
"21", 4.16, 1,    2366.67,   -0.9,   0.98538
"20", 4.16, 1,    2366.29,   -0.9,   0.98522
"22", 4.16, 1,    2365.78,   -0.9,   0.98501
"23", 4.16, 1,    2365.96,   -0.9,   0.98509
"24", 4.16, 1,    2365.02,   -0.9,    0.9847
"25", 4.16, 1,    2365.31,   -0.9,   0.98482
"25R", 4.16, 1,    2424.44,   -0.9,    1.0094
"26", 4.16, 1,    2424.07,   -0.9,    1.0093
"28", 4.16, 1,    2365.06,   -0.9,   0.98471
"27", 4.16, 1,    2423.92,   -0.9,    1.0092
"31", 4.16, 1,    2423.69,   -0.9,    1.0091
"33", 4.16, 1,    2423.09,   -0.9,    1.0089
"29", 4.16, 1,    2364.74,   -0.9,   0.98458
"30", 4.16, 1,    2364.56,   -0.9,    0.9845
"250", 4.16, 1,    2364.56,   -0.9,    0.9845
"32", 4.16, 1,    2423.44,   -0.9,     1.009
"35", 4.16, 1,    2364.07,   -0.9,    0.9843
"36", 4.16, 1,    2363.35,   -0.9,     0.984
"40", 4.16, 1,    2362.05,   -0.9,   0.98346
"37", 4.16, 1,    2362.84,   -0.9,   0.98379
"38", 4.16, 1,    2362.92,   -0.9,   0.98382
"39", 4.16, 1,    2362.65,   -0.9,   0.98371
"41", 4.16, 1,    2361.77,   -0.9,   0.98334
"42", 4.16, 1,     2360.1,   -1.0,   0.98265
"43", 4.16, 1,    2359.24,   -1.0,   0.98229
"44", 4.16, 1,    2358.69,   -1.0,   0.98206
"45", 4.16, 1,    2358.35,   -1.0,   0.98192
"47", 4.16, 1,    2357.07,   -1.0,   0.98139
"46", 4.16, 1,    2358.09,   -1.0,   0.98181
"48", 4.16, 1,     2356.8,   -1.0,   0.98127
"49", 4.16, 1,    2356.32,   -1.0,   0.98108
"50", 4.16, 1,    2356.13,   -1.0,   0.98099
"51", 4.16, 1,    2356.06,   -1.0,   0.98097
"151", 4.16, 1,    2356.06,   -1.0,   0.98097
"52", 4.16, 1,    2374.41,   -0.9,   0.98861
"53", 4.16, 1,    2372.07,   -1.0,   0.98763
"54", 4.16, 1,    2370.67,   -1.1,   0.98705
"55", 4.16, 1,    2370.53,   -1.1,   0.98699
"57", 4.16, 1,    2366.95,   -1.2,    0.9855
"56", 4.16, 1,    2370.45,   -1.1,   0.98696
"58", 4.16, 1,    2366.68,   -1.2,   0.98539
"60", 4.16, 1,     2359.3,   -1.5,   0.98232
"59", 4.16, 1,    2366.47,   -1.2,    0.9853
"61", 4.16, 1,     2359.3,   -1.5,   0.98232
"62", 4.16, 1,    2357.62,   -1.5,   0.98161
"63", 4.16, 1,    2356.62,   -1.5,    0.9812
"64", 4.16, 1,    2355.01,   -1.5,   0.98053
"65", 4.16, 1,     2353.9,   -1.4,   0.98007
"66", 4.16, 1,    2353.25,   -1.4,    0.9798
"67", 4.16, 1,    2298.28,   -1.6,   0.95691
"68", 4.16, 1,    2297.23,   -1.6,   0.95647
"72", 4.16, 1,     2298.7,   -1.7,   0.95708
"97", 4.16, 1,    2296.87,   -1.7,   0.95632
"69", 4.16, 1,    2296.03,   -1.7,   0.95597
"70", 4.16, 1,    2295.17,   -1.7,   0.95561
"71", 4.16, 1,    2294.69,   -1.7,   0.95541
"73", 4.16, 1,    2297.25,   -1.7,   0.95648
"76", 4.16, 1,    2299.32,   -1.7,   0.95734
"74", 4.16, 1,    2296.02,   -1.7,   0.95597
"75", 4.16, 1,    2295.32,   -1.7,   0.95568
"77", 4.16, 1,    2301.83,   -1.8,   0.95838
"86", 4.16, 1,    2298.72,   -1.8,   0.95709
"78", 4.16, 1,    2302.51,   -1.8,   0.95867
"79", 4.16, 1,    2302.38,   -1.8,   0.95862
"80", 4.16, 1,       2306,   -1.9,   0.96012
"81", 4.16, 1,    2307.38,   -1.9,    0.9607
"82", 4.16, 1,    2309.55,   -2.0,    0.9616
"84", 4.16, 1,    2305.61,   -1.9,   0.95996
"83", 4.16, 1,    2311.87,   -2.0,   0.96256
"85", 4.16, 1,    2304.78,   -2.0,   0.95961
"87", 4.16, 1,    2298.46,   -1.8,   0.95698
"88", 4.16, 1,    2298.45,   -1.8,   0.95698
"89", 4.16, 1,     2298.3,   -1.9,   0.95691
"90", 4.16, 1,    2298.28,   -1.9,   0.95691
"91", 4.16, 1,    2298.11,   -1.9,   0.95684
"92", 4.16, 1,    2298.09,   -1.9,   0.95683
"93", 4.16, 1,    2297.86,   -1.9,   0.95673
"94", 4.16, 1,    2297.38,   -1.9,   0.95653
"95", 4.16, 1,     2297.7,   -1.9,   0.95667
"96", 4.16, 1,    2297.53,   -1.9,   0.95659
"98", 4.16, 1,     2296.5,   -1.7,   0.95617
"99", 4.16, 1,    2296.07,   -1.7,   0.95599
"100", 4.16, 1,       2296,   -1.7,   0.95596
"450", 4.16, 1,       2296,   -1.7,   0.95596
"197", 4.16, 1,    2296.87,   -1.7,   0.95632
"101", 4.16, 1,    2295.78,   -1.7,   0.95587
"102", 4.16, 1,    2294.79,   -1.7,   0.95546
"105", 4.16, 1,    2294.96,   -1.7,   0.95552
"103", 4.16, 1,    2293.65,   -1.7,   0.95498
"104", 4.16, 1,    2292.42,   -1.7,   0.95447
"106", 4.16, 1,    2294.17,   -1.7,    0.9552
"108", 4.16, 1,    2294.34,   -1.7,   0.95527
"107", 4.16, 1,    2293.16,   -1.7,   0.95477
"109", 4.16, 1,    2291.57,   -1.7,   0.95411
"300", 4.16, 1,    2294.34,   -1.7,   0.95527
"110", 4.16, 1,    2290.25,   -1.7,   0.95356
"111", 4.16, 1,    2289.74,   -1.7,   0.95335
"112", 4.16, 1,    2289.81,   -1.7,   0.95338
"113", 4.16, 1,    2288.42,   -1.8,    0.9528
"114", 4.16, 1,    2288.14,   -1.8,   0.95269
"135", 4.16, 1,    2367.69,   -0.9,   0.98581
"152", 4.16, 1,    2379.33,   -0.8,   0.99066
"160R", 4.16, 1,    2300.32,   -1.5,   0.95776
"150R", 4.16, 1,       2415,    0.0,    1.0055
"160", 4.16, 1,     2359.3,   -1.5,   0.98232
"610", 4.16, 1,     2359.3,   -1.5,   0.98232
