Bus, BasekV, Node1, Magnitude1, Angle1, pu1
"150", 4.16, 1,       2400,    0.0,   0.99926
"149", 4.16, 1,       2415,    0.0,    1.0055
"1", 4.16, 1,    2400.17,   -0.4,   0.99933
"2", 4.16, 1,    2400.02,   -0.4,   0.99927
"3", 4.16, 1,    2399.14,   -0.4,    0.9989
"7", 4.16, 1,    2389.72,   -0.6,   0.99498
"4", 4.16, 1,    2398.82,   -0.4,   0.99877
"5", 4.16, 1,    2398.34,   -0.4,   0.99857
"6", 4.16, 1,    2397.93,   -0.4,    0.9984
"8", 4.16, 1,    2382.83,   -0.8,   0.99211
"12", 4.16, 1,    2382.64,   -0.8,   0.99203
"9", 4.16, 1,     2381.9,   -0.8,   0.99172
"13", 4.16, 1,       2373,   -1.1,   0.98802
"9R", 4.16, 1,    2307.46,   -0.8,   0.96073
"14", 4.16, 1,    2306.38,   -0.8,   0.96028
"34", 4.16, 1,    2372.37,   -1.1,   0.98776
"18", 4.16, 1,    2360.08,   -1.3,   0.98264
"11", 4.16, 1,    2305.95,   -0.8,    0.9601
"10", 4.16, 1,    2306.17,   -0.8,   0.96019
"15", 4.16, 1,    2372.13,   -1.1,   0.98765
"16", 4.16, 1,    2371.51,   -1.1,    0.9874
"17", 4.16, 1,    2371.84,   -1.1,   0.98753
"19", 4.16, 1,    2359.24,   -1.3,   0.98229
"21", 4.16, 1,    2358.99,   -1.3,   0.98219
"20", 4.16, 1,     2358.7,   -1.3,   0.98207
"22", 4.16, 1,    2358.12,   -1.3,   0.98182
"23", 4.16, 1,    2358.22,   -1.3,   0.98186
"24", 4.16, 1,     2357.3,   -1.3,   0.98148
"25", 4.16, 1,    2357.51,   -1.3,   0.98157
"25R", 4.16, 1,    2416.45,   -1.3,    1.0061
"26", 4.16, 1,    2416.08,   -1.3,     1.006
"28", 4.16, 1,     2357.2,   -1.3,   0.98144
"27", 4.16, 1,    2415.93,   -1.3,    1.0059
"31", 4.16, 1,    2415.71,   -1.3,    1.0058
"33", 4.16, 1,    2415.12,   -1.3,    1.0056
"29", 4.16, 1,    2356.89,   -1.3,   0.98131
"30", 4.16, 1,    2356.71,   -1.3,   0.98124
"250", 4.16, 1,    2356.71,   -1.3,   0.98124
"32", 4.16, 1,    2415.47,   -1.3,    1.0057
"35", 4.16, 1,    2355.95,   -1.3,   0.98092
"36", 4.16, 1,    2355.25,   -1.3,   0.98063
"40", 4.16, 1,    2353.59,   -1.4,   0.97994
"37", 4.16, 1,    2354.75,   -1.3,   0.98042
"38", 4.16, 1,    2354.83,   -1.3,   0.98045
"39", 4.16, 1,    2354.56,   -1.4,   0.98034
"41", 4.16, 1,    2353.32,   -1.4,   0.97983
"42", 4.16, 1,     2351.3,   -1.4,   0.97898
"43", 4.16, 1,    2350.46,   -1.4,   0.97864
"44", 4.16, 1,    2349.62,   -1.4,   0.97828
"45", 4.16, 1,    2349.28,   -1.4,   0.97814
"47", 4.16, 1,    2347.65,   -1.5,   0.97746
"46", 4.16, 1,    2349.03,   -1.4,   0.97804
"48", 4.16, 1,    2347.15,   -1.5,   0.97726
"49", 4.16, 1,    2346.92,   -1.5,   0.97716
"50", 4.16, 1,    2346.72,   -1.5,   0.97708
"51", 4.16, 1,    2346.66,   -1.5,   0.97705
"151", 4.16, 1,    2346.66,   -1.5,   0.97705
"52", 4.16, 1,    2366.72,   -1.3,    0.9854
"53", 4.16, 1,     2363.7,   -1.4,   0.98415
"54", 4.16, 1,    2361.89,   -1.5,   0.98339
"55", 4.16, 1,    2361.74,   -1.5,   0.98333
"57", 4.16, 1,       2357,   -1.7,   0.98136
"56", 4.16, 1,    2361.67,   -1.5,    0.9833
"58", 4.16, 1,    2356.58,   -1.7,   0.98118
"60", 4.16, 1,       2347,   -2.1,   0.97719
"59", 4.16, 1,    2356.37,   -1.7,   0.98109
"61", 4.16, 1,       2347,   -2.1,   0.97719
"62", 4.16, 1,     2344.5,   -2.1,   0.97615
"63", 4.16, 1,    2342.94,   -2.1,    0.9755
"64", 4.16, 1,    2340.17,   -2.1,   0.97435
"65", 4.16, 1,    2337.65,   -2.1,    0.9733
"66", 4.16, 1,    2337.01,   -2.1,   0.97304
"67", 4.16, 1,    2285.52,   -2.3,   0.95159
"68", 4.16, 1,    2284.48,   -2.3,   0.95116
"72", 4.16, 1,    2285.38,   -2.4,   0.95154
"97", 4.16, 1,    2284.05,   -2.3,   0.95098
"69", 4.16, 1,     2283.3,   -2.3,   0.95067
"70", 4.16, 1,    2282.46,   -2.3,   0.95032
"71", 4.16, 1,    2281.99,   -2.3,   0.95012
"73", 4.16, 1,    2283.95,   -2.4,   0.95094
"76", 4.16, 1,    2285.59,   -2.4,   0.95163
"74", 4.16, 1,    2282.75,   -2.4,   0.95044
"75", 4.16, 1,    2282.06,   -2.4,   0.95016
"77", 4.16, 1,     2288.1,   -2.5,   0.95267
"86", 4.16, 1,    2284.82,   -2.5,    0.9513
"78", 4.16, 1,    2288.78,   -2.5,   0.95295
"79", 4.16, 1,    2288.66,   -2.5,    0.9529
"80", 4.16, 1,    2292.26,   -2.6,    0.9544
"81", 4.16, 1,    2293.64,   -2.6,   0.95497
"82", 4.16, 1,     2295.8,   -2.7,   0.95588
"84", 4.16, 1,     2291.9,   -2.6,   0.95425
"83", 4.16, 1,     2298.1,   -2.7,   0.95683
"85", 4.16, 1,    2291.08,   -2.7,   0.95391
"87", 4.16, 1,    2284.44,   -2.6,   0.95114
"88", 4.16, 1,    2284.43,   -2.6,   0.95114
"89", 4.16, 1,    2284.28,   -2.6,   0.95108
"90", 4.16, 1,    2284.27,   -2.6,   0.95108
"91", 4.16, 1,     2284.1,   -2.6,     0.951
"92", 4.16, 1,    2284.09,   -2.6,     0.951
"93", 4.16, 1,    2283.86,   -2.6,    0.9509
"94", 4.16, 1,    2283.38,   -2.6,   0.95071
"95", 4.16, 1,     2283.7,   -2.6,   0.95084
"96", 4.16, 1,    2283.53,   -2.6,   0.95077
"98", 4.16, 1,    2283.61,   -2.3,    0.9508
"99", 4.16, 1,    2283.03,   -2.3,   0.95056
"100", 4.16, 1,    2282.87,   -2.3,   0.95049
"450", 4.16, 1,    2282.87,   -2.3,   0.95049
"197", 4.16, 1,    2284.05,   -2.3,   0.95098
"101", 4.16, 1,    2282.98,   -2.3,   0.95054
"102", 4.16, 1,    2282.01,   -2.3,   0.95014
"105", 4.16, 1,    2282.18,   -2.3,    0.9502
"103", 4.16, 1,    2280.89,   -2.3,   0.94967
"104", 4.16, 1,    2279.69,   -2.4,   0.94917
"106", 4.16, 1,     2281.4,   -2.4,   0.94988
"108", 4.16, 1,    2281.57,   -2.4,   0.94995
"107", 4.16, 1,    2280.41,   -2.4,   0.94947
"109", 4.16, 1,    2278.85,   -2.4,   0.94882
"300", 4.16, 1,    2281.57,   -2.4,   0.94995
"110", 4.16, 1,    2277.56,   -2.4,   0.94828
"111", 4.16, 1,    2277.06,   -2.4,   0.94807
"112", 4.16, 1,    2277.12,   -2.4,    0.9481
"113", 4.16, 1,    2275.76,   -2.4,   0.94753
"114", 4.16, 1,    2275.48,   -2.4,   0.94742
"135", 4.16, 1,    2360.08,   -1.3,   0.98264
"152", 4.16, 1,       2373,   -1.1,   0.98802
"160R", 4.16, 1,    2288.33,   -2.1,   0.95276
"150R", 4.16, 1,       2415,    0.0,    1.0055
"160", 4.16, 1,       2347,   -2.1,   0.97719
"610", 4.16, 1,       2347,   -2.1,   0.97719
