Bus, BasekV, Node1, Magnitude1, Angle1, pu1
"150", 4.16, 1,       2400,    0.0,   0.99926
"149", 4.16, 1,       2415,    0.0,    1.0055
"1", 4.16, 1,    2401.69,   -0.3,   0.99996
"2", 4.16, 1,    2401.55,   -0.3,   0.99991
"3", 4.16, 1,    2400.74,   -0.3,   0.99957
"7", 4.16, 1,    2392.32,   -0.6,   0.99606
"4", 4.16, 1,    2400.43,   -0.4,   0.99944
"5", 4.16, 1,       2400,   -0.4,   0.99926
"6", 4.16, 1,    2399.62,   -0.4,    0.9991
"8", 4.16, 1,    2386.15,   -0.8,   0.99349
"12", 4.16, 1,    2385.98,   -0.8,   0.99342
"9", 4.16, 1,    2385.29,   -0.8,   0.99314
"13", 4.16, 1,    2377.35,   -1.0,   0.98983
"9R", 4.16, 1,    2310.75,   -0.8,    0.9621
"14", 4.16, 1,    2309.74,   -0.8,   0.96168
"34", 4.16, 1,    2376.78,   -1.0,   0.98959
"18", 4.16, 1,    2365.41,   -1.2,   0.98486
"11", 4.16, 1,    2309.35,   -0.8,   0.96152
"10", 4.16, 1,    2309.55,   -0.8,    0.9616
"15", 4.16, 1,    2376.55,   -1.0,    0.9895
"16", 4.16, 1,    2375.97,   -1.0,   0.98926
"17", 4.16, 1,    2376.28,   -1.0,   0.98938
"19", 4.16, 1,    2364.64,   -1.2,   0.98454
"21", 4.16, 1,    2364.41,   -1.2,   0.98444
"20", 4.16, 1,    2364.14,   -1.2,   0.98433
"22", 4.16, 1,     2363.6,   -1.2,   0.98411
"23", 4.16, 1,     2363.7,   -1.2,   0.98414
"24", 4.16, 1,    2362.85,   -1.2,   0.98379
"25", 4.16, 1,    2363.04,   -1.2,   0.98387
"25R", 4.16, 1,    2422.12,   -1.2,    1.0085
"26", 4.16, 1,    2421.77,   -1.2,    1.0083
"28", 4.16, 1,    2362.75,   -1.2,   0.98375
"27", 4.16, 1,    2421.64,   -1.2,    1.0083
"31", 4.16, 1,    2421.44,   -1.2,    1.0082
"33", 4.16, 1,    2420.89,   -1.2,     1.008
"29", 4.16, 1,    2362.47,   -1.2,   0.98363
"30", 4.16, 1,     2362.3,   -1.2,   0.98356
"250", 4.16, 1,     2362.3,   -1.2,   0.98356
"32", 4.16, 1,    2421.21,   -1.2,    1.0081
"35", 4.16, 1,     2361.6,   -1.2,   0.98327
"36", 4.16, 1,    2360.95,   -1.3,     0.983
"40", 4.16, 1,    2359.42,   -1.3,   0.98236
"37", 4.16, 1,    2360.49,   -1.3,   0.98281
"38", 4.16, 1,    2360.57,   -1.3,   0.98284
"39", 4.16, 1,    2360.32,   -1.3,   0.98274
"41", 4.16, 1,    2359.17,   -1.3,   0.98226
"42", 4.16, 1,     2357.3,   -1.3,   0.98148
"43", 4.16, 1,    2356.53,   -1.3,   0.98116
"44", 4.16, 1,    2355.75,   -1.3,   0.98084
"45", 4.16, 1,    2355.44,   -1.3,   0.98071
"47", 4.16, 1,    2353.93,   -1.4,   0.98008
"46", 4.16, 1,    2355.21,   -1.3,   0.98061
"48", 4.16, 1,    2353.47,   -1.4,   0.97989
"49", 4.16, 1,    2353.25,   -1.4,    0.9798
"50", 4.16, 1,    2353.07,   -1.4,   0.97972
"51", 4.16, 1,    2353.01,   -1.4,    0.9797
"151", 4.16, 1,    2353.01,   -1.4,    0.9797
"52", 4.16, 1,    2371.94,   -1.2,   0.98758
"53", 4.16, 1,    2369.34,   -1.3,   0.98649
"54", 4.16, 1,    2367.78,   -1.4,   0.98584
"55", 4.16, 1,    2367.65,   -1.4,   0.98579
"57", 4.16, 1,    2363.59,   -1.6,    0.9841
"56", 4.16, 1,    2367.58,   -1.4,   0.98576
"58", 4.16, 1,    2363.21,   -1.6,   0.98394
"60", 4.16, 1,    2355.07,   -2.0,   0.98055
"59", 4.16, 1,    2363.02,   -1.6,   0.98386
"61", 4.16, 1,    2355.07,   -2.0,   0.98055
"62", 4.16, 1,    2352.76,   -2.0,   0.97959
"63", 4.16, 1,    2351.32,   -2.0,   0.97899
"64", 4.16, 1,    2348.77,   -2.0,   0.97793
"65", 4.16, 1,    2346.43,   -2.0,   0.97696
"66", 4.16, 1,    2345.85,   -2.0,   0.97671
"67", 4.16, 1,    2293.94,   -2.1,    0.9551
"68", 4.16, 1,    2292.98,   -2.2,    0.9547
"72", 4.16, 1,    2294.07,   -2.2,   0.95515
"97", 4.16, 1,    2292.58,   -2.2,   0.95454
"69", 4.16, 1,    2291.89,   -2.2,   0.95425
"70", 4.16, 1,    2291.12,   -2.2,   0.95393
"71", 4.16, 1,    2290.68,   -2.2,   0.95374
"73", 4.16, 1,    2292.76,   -2.2,   0.95461
"76", 4.16, 1,    2294.46,   -2.3,   0.95532
"74", 4.16, 1,    2291.64,   -2.3,   0.95415
"75", 4.16, 1,    2291.01,   -2.3,   0.95388
"77", 4.16, 1,    2297.08,   -2.4,   0.95641
"86", 4.16, 1,    2293.88,   -2.4,   0.95507
"78", 4.16, 1,    2297.78,   -2.4,    0.9567
"79", 4.16, 1,    2297.67,   -2.4,   0.95665
"80", 4.16, 1,    2301.36,   -2.5,   0.95819
"81", 4.16, 1,    2302.76,   -2.5,   0.95878
"82", 4.16, 1,    2304.95,   -2.5,   0.95969
"84", 4.16, 1,    2301.16,   -2.5,   0.95811
"83", 4.16, 1,    2307.27,   -2.5,   0.96065
"85", 4.16, 1,    2300.41,   -2.5,   0.95779
"87", 4.16, 1,    2293.61,   -2.4,   0.95496
"88", 4.16, 1,    2293.63,   -2.4,   0.95497
"89", 4.16, 1,     2293.5,   -2.4,   0.95492
"90", 4.16, 1,    2293.53,   -2.4,   0.95493
"91", 4.16, 1,    2293.35,   -2.4,   0.95485
"92", 4.16, 1,    2293.38,   -2.4,   0.95487
"93", 4.16, 1,    2293.13,   -2.4,   0.95476
"94", 4.16, 1,    2292.69,   -2.4,   0.95458
"95", 4.16, 1,    2292.98,   -2.4,    0.9547
"96", 4.16, 1,    2292.82,   -2.4,   0.95464
"98", 4.16, 1,    2292.18,   -2.2,   0.95437
"99", 4.16, 1,    2291.64,   -2.2,   0.95414
"100", 4.16, 1,    2291.49,   -2.2,   0.95408
"450", 4.16, 1,    2291.49,   -2.2,   0.95408
"197", 4.16, 1,    2292.58,   -2.2,   0.95454
"101", 4.16, 1,     2291.6,   -2.2,   0.95413
"102", 4.16, 1,     2290.7,   -2.2,   0.95375
"105", 4.16, 1,    2290.85,   -2.2,   0.95382
"103", 4.16, 1,    2289.67,   -2.2,   0.95332
"104", 4.16, 1,    2288.56,   -2.2,   0.95286
"106", 4.16, 1,    2290.14,   -2.2,   0.95352
"108", 4.16, 1,    2290.29,   -2.2,   0.95358
"107", 4.16, 1,    2289.22,   -2.2,   0.95314
"109", 4.16, 1,    2287.78,   -2.2,   0.95254
"300", 4.16, 1,    2290.29,   -2.2,   0.95358
"110", 4.16, 1,    2286.59,   -2.2,   0.95204
"111", 4.16, 1,    2286.13,   -2.2,   0.95185
"112", 4.16, 1,    2286.19,   -2.2,   0.95187
"113", 4.16, 1,    2284.93,   -2.3,   0.95135
"114", 4.16, 1,    2284.68,   -2.3,   0.95124
"135", 4.16, 1,    2365.41,   -1.2,   0.98486
"152", 4.16, 1,    2377.35,   -1.0,   0.98983
"160R", 4.16, 1,     2296.2,   -2.0,   0.95604
"150R", 4.16, 1,       2415,    0.0,    1.0055
"160", 4.16, 1,    2355.07,   -2.0,   0.98055
"610", 4.16, 1,    2355.07,   -2.0,   0.98055
