Bus, BasekV, Node1, Magnitude1, Angle1, pu1
"150", 4.16, 1,       2400,    0.0,   0.99926
"149", 4.16, 1,       2415,    0.0,    1.0055
"1", 4.16, 1,    2402.23,   -0.3,    1.0002
"2", 4.16, 1,    2402.08,   -0.3,    1.0001
"3", 4.16, 1,    2401.14,   -0.3,   0.99974
"7", 4.16, 1,    2393.33,   -0.5,   0.99648
"4", 4.16, 1,    2400.79,   -0.3,   0.99959
"5", 4.16, 1,    2400.29,   -0.3,   0.99938
"6", 4.16, 1,    2399.86,   -0.3,    0.9992
"8", 4.16, 1,    2387.47,   -0.6,   0.99404
"12", 4.16, 1,    2387.28,   -0.6,   0.99396
"9", 4.16, 1,     2386.8,   -0.6,   0.99377
"13", 4.16, 1,    2379.09,   -0.8,   0.99055
"9R", 4.16, 1,    2312.22,   -0.6,   0.96271
"14", 4.16, 1,    2311.06,   -0.6,   0.96223
"34", 4.16, 1,    2378.43,   -0.8,   0.99028
"18", 4.16, 1,    2367.12,   -0.9,   0.98557
"11", 4.16, 1,    2310.61,   -0.6,   0.96204
"10", 4.16, 1,    2310.84,   -0.6,   0.96214
"15", 4.16, 1,    2378.17,   -0.8,   0.99017
"16", 4.16, 1,    2377.51,   -0.8,    0.9899
"17", 4.16, 1,    2377.86,   -0.8,   0.99004
"19", 4.16, 1,    2366.24,   -0.9,    0.9852
"21", 4.16, 1,    2366.07,   -0.9,   0.98513
"20", 4.16, 1,    2365.66,   -0.9,   0.98496
"22", 4.16, 1,    2365.14,   -0.9,   0.98475
"23", 4.16, 1,    2365.33,   -0.9,   0.98483
"24", 4.16, 1,    2364.36,   -0.9,   0.98442
"25", 4.16, 1,    2364.67,   -0.9,   0.98455
"25R", 4.16, 1,    2423.79,   -0.9,    1.0092
"26", 4.16, 1,    2423.39,   -0.9,     1.009
"28", 4.16, 1,    2364.41,   -0.9,   0.98444
"27", 4.16, 1,    2423.24,   -1.0,    1.0089
"31", 4.16, 1,    2423.01,   -1.0,    1.0088
"33", 4.16, 1,    2422.38,   -1.0,    1.0086
"29", 4.16, 1,    2364.08,   -0.9,    0.9843
"30", 4.16, 1,    2363.89,   -1.0,   0.98422
"250", 4.16, 1,    2363.89,   -1.0,   0.98422
"32", 4.16, 1,    2422.75,   -1.0,    1.0087
"35", 4.16, 1,     2363.4,   -0.9,   0.98402
"36", 4.16, 1,    2362.66,   -1.0,   0.98371
"40", 4.16, 1,    2361.34,   -1.0,   0.98316
"37", 4.16, 1,    2362.13,   -1.0,   0.98349
"38", 4.16, 1,    2362.22,   -1.0,   0.98353
"39", 4.16, 1,    2361.93,   -1.0,   0.98341
"41", 4.16, 1,    2361.05,   -1.0,   0.98304
"42", 4.16, 1,    2359.34,   -1.0,   0.98233
"43", 4.16, 1,    2358.45,   -1.0,   0.98196
"44", 4.16, 1,     2357.9,   -1.0,   0.98173
"45", 4.16, 1,    2357.55,   -1.0,   0.98159
"47", 4.16, 1,    2356.25,   -1.0,   0.98104
"46", 4.16, 1,    2357.28,   -1.0,   0.98147
"48", 4.16, 1,    2355.98,   -1.0,   0.98093
"49", 4.16, 1,    2355.48,   -1.0,   0.98072
"50", 4.16, 1,    2355.27,   -1.0,   0.98064
"51", 4.16, 1,     2355.2,   -1.0,   0.98061
"151", 4.16, 1,     2355.2,   -1.0,   0.98061
"52", 4.16, 1,     2374.3,   -0.9,   0.98856
"53", 4.16, 1,    2372.01,   -1.0,   0.98761
"54", 4.16, 1,    2370.66,   -1.1,   0.98704
"55", 4.16, 1,    2370.51,   -1.1,   0.98698
"57", 4.16, 1,    2367.07,   -1.2,   0.98555
"56", 4.16, 1,    2370.43,   -1.1,   0.98695
"58", 4.16, 1,     2366.8,   -1.2,   0.98544
"60", 4.16, 1,     2359.7,   -1.5,   0.98248
"59", 4.16, 1,    2366.58,   -1.2,   0.98535
"61", 4.16, 1,     2359.7,   -1.5,   0.98248
"62", 4.16, 1,    2358.02,   -1.5,   0.98178
"63", 4.16, 1,    2357.03,   -1.5,   0.98137
"64", 4.16, 1,    2355.45,   -1.5,   0.98071
"65", 4.16, 1,     2354.4,   -1.5,   0.98027
"66", 4.16, 1,    2353.73,   -1.5,   0.97999
"67", 4.16, 1,    2298.84,   -1.7,   0.95714
"68", 4.16, 1,    2297.75,   -1.7,   0.95669
"72", 4.16, 1,    2299.46,   -1.7,    0.9574
"97", 4.16, 1,    2297.38,   -1.7,   0.95653
"69", 4.16, 1,     2296.5,   -1.7,   0.95617
"70", 4.16, 1,    2295.61,   -1.7,    0.9558
"71", 4.16, 1,    2295.11,   -1.7,   0.95559
"73", 4.16, 1,    2297.95,   -1.7,   0.95677
"76", 4.16, 1,    2300.24,   -1.8,   0.95772
"74", 4.16, 1,    2296.68,   -1.8,   0.95624
"75", 4.16, 1,    2295.95,   -1.8,   0.95594
"77", 4.16, 1,    2302.99,   -1.9,   0.95887
"86", 4.16, 1,    2299.72,   -1.8,   0.95751
"78", 4.16, 1,    2303.74,   -1.9,   0.95918
"79", 4.16, 1,    2303.61,   -1.9,   0.95913
"80", 4.16, 1,    2307.54,   -2.0,   0.96076
"81", 4.16, 1,    2309.04,   -2.0,   0.96139
"82", 4.16, 1,     2311.4,   -2.0,   0.96237
"84", 4.16, 1,    2307.21,   -2.0,   0.96063
"83", 4.16, 1,    2313.89,   -2.0,   0.96341
"85", 4.16, 1,    2306.35,   -2.0,   0.96027
"87", 4.16, 1,    2299.52,   -1.9,   0.95742
"88", 4.16, 1,    2299.52,   -1.9,   0.95743
"89", 4.16, 1,    2299.37,   -1.9,   0.95736
"90", 4.16, 1,    2299.38,   -1.9,   0.95737
"91", 4.16, 1,    2299.19,   -1.9,   0.95729
"92", 4.16, 1,     2299.2,   -1.9,   0.95729
"93", 4.16, 1,    2298.93,   -1.9,   0.95718
"94", 4.16, 1,    2298.43,   -1.9,   0.95697
"95", 4.16, 1,    2298.77,   -1.9,   0.95711
"96", 4.16, 1,    2298.58,   -1.9,   0.95703
"98", 4.16, 1,       2297,   -1.7,   0.95638
"99", 4.16, 1,    2296.57,   -1.7,    0.9562
"100", 4.16, 1,     2296.5,   -1.7,   0.95617
"450", 4.16, 1,     2296.5,   -1.7,   0.95617
"197", 4.16, 1,    2297.38,   -1.7,   0.95653
"101", 4.16, 1,    2296.25,   -1.7,   0.95606
"102", 4.16, 1,    2295.22,   -1.7,   0.95564
"105", 4.16, 1,     2295.4,   -1.7,   0.95571
"103", 4.16, 1,    2294.04,   -1.7,   0.95514
"104", 4.16, 1,    2292.76,   -1.7,   0.95461
"106", 4.16, 1,    2294.58,   -1.7,   0.95537
"108", 4.16, 1,    2294.75,   -1.7,   0.95544
"107", 4.16, 1,    2293.53,   -1.7,   0.95493
"109", 4.16, 1,    2291.88,   -1.8,   0.95424
"300", 4.16, 1,    2294.75,   -1.7,   0.95544
"110", 4.16, 1,    2290.51,   -1.8,   0.95367
"111", 4.16, 1,    2289.99,   -1.8,   0.95346
"112", 4.16, 1,    2290.06,   -1.8,   0.95348
"113", 4.16, 1,    2288.62,   -1.8,   0.95289
"114", 4.16, 1,    2288.32,   -1.8,   0.95276
"135", 4.16, 1,    2367.12,   -0.9,   0.98557
"152", 4.16, 1,    2379.09,   -0.8,   0.99055
"160R", 4.16, 1,    2300.71,   -1.5,   0.95792
"150R", 4.16, 1,       2415,    0.0,    1.0055
"160", 4.16, 1,     2359.7,   -1.5,   0.98248
"610", 4.16, 1,     2359.7,   -1.5,   0.98248
