Element, Terminal, P(kW), Q(kvar),  P_Normal, Q_Normal, P_Emergency, Q_Emergency
"Line.L115"             ,   1,       724.6,       165.1,         0.0,         0.0,         0.0,         0.0
"Line.L115"             ,   2,      -722.4,      -160.6
"Line.L1"               ,   1,         4.1,         2.0,         0.0,         0.0,         0.0,         0.0
"Line.L1"               ,   2,        -4.1,        -2.0
"Line.L2"               ,   1,        20.4,        10.2,         0.0,         0.0,         0.0,         0.0
"Line.L2"               ,   2,       -20.4,       -10.2
"Line.L3"               ,   1,       689.7,       144.3,         0.0,         0.0,         0.0,         0.0
"Line.L3"               ,   2,      -688.2,      -141.2
"Line.L4"               ,   1,         8.2,         4.1,         0.0,         0.0,         0.0,         0.0
"Line.L4"               ,   2,        -8.2,        -4.1
"Line.L5"               ,   1,        12.3,         6.1,         0.0,         0.0,         0.0,         0.0
"Line.L5"               ,   2,       -12.3,        -6.1
"Line.L6"               ,   1,         8.2,         4.1,         0.0,         0.0,         0.0,         0.0
"Line.L6"               ,   2,        -8.2,        -4.1
"Line.L7"               ,   1,       684.1,       139.2,         0.0,         0.0,         0.0,         0.0
"Line.L7"               ,   2,      -683.1,      -137.2
"Line.L8"               ,   1,         4.1,         2.0,         0.0,         0.0,         0.0,         0.0
"Line.L8"               ,   2,        -4.1,        -2.0
"Line.L9"               ,   1,        20.4,        10.2,         0.0,         0.0,         0.0,         0.0
"Line.L9"               ,   2,       -20.4,       -10.2
"Line.L10"              ,   1,       658.6,       124.9,         0.0,         0.0,         0.0,         0.0
"Line.L10"              ,   2,      -657.2,      -122.1
"Line.L11"              ,   1,        12.3,         6.1,         0.0,         0.0,         0.0,         0.0
"Line.L11"              ,   2,       -12.3,        -6.1
"Line.L12"              ,   1,        20.4,        10.2,         0.0,         0.0,         0.0,         0.0
"Line.L12"              ,   2,       -20.4,       -10.2
"Line.L13"              ,   1,       228.8,       134.7,         0.0,         0.0,         0.0,         0.0
"Line.L13"              ,   2,      -228.2,      -133.5
"Line.L14"              ,   1,         8.2,         4.1,         0.0,         0.0,         0.0,         0.0
"Line.L14"              ,   2,        -8.2,        -4.1
"Line.L15"              ,   1,         4.1,         2.0,         0.0,         0.0,         0.0,         0.0
"Line.L15"              ,   2,        -4.1,        -2.0
"Line.L16"              ,   1,         8.2,         4.1,         0.0,         0.0,         0.0,         0.0
"Line.L16"              ,   2,        -8.2,        -4.1
"Line.L17"              ,   1,         4.1,         2.0,         0.0,         0.0,         0.0,         0.0
"Line.L17"              ,   2,        -4.1,        -2.0
"Line.L18"              ,   1,        16.4,         8.2,         0.0,         0.0,         0.0,         0.0
"Line.L18"              ,   2,       -16.3,        -8.2
"Line.L19"              ,   1,        57.2,        28.6,         0.0,         0.0,         0.0,         0.0
"Line.L19"              ,   2,       -57.2,       -28.6
"Line.L20"              ,   1,         8.2,         4.1,         0.0,         0.0,         0.0,         0.0
"Line.L20"              ,   2,        -8.2,        -4.1
"Line.L21"              ,   1,         8.2,         4.1,         0.0,         0.0,         0.0,         0.0
"Line.L21"              ,   2,        -8.2,        -4.1
"Line.L22"              ,   1,        49.1,        24.5,         0.0,         0.0,         0.0,         0.0
"Line.L22"              ,   2,       -49.1,       -24.5
"Line.L23"              ,   1,         8.2,         4.1,         0.0,         0.0,         0.0,         0.0
"Line.L23"              ,   2,        -8.2,        -4.1
"Line.L24"              ,   1,        40.9,        20.4,         0.0,         0.0,         0.0,         0.0
"Line.L24"              ,   2,       -40.9,       -20.4
"Line.L25"              ,   1,        16.3,         8.2,         0.0,         0.0,         0.0,         0.0
"Line.L25"              ,   2,       -16.3,        -8.2
"Line.L26"              ,   1,        24.5,        12.3,         0.0,         0.0,         0.0,         0.0
"Line.L26"              ,   2,       -24.5,       -12.3
"Line.L27"              ,   1,         8.2,         4.1,         0.0,         0.0,         0.0,         0.0
"Line.L27"              ,   2,        -8.2,        -4.1
"Line.L28"              ,   1,         8.2,         4.1,         0.0,         0.0,         0.0,         0.0
"Line.L28"              ,   2,        -8.2,        -4.1
"Line.L29"              ,   1,         8.2,         4.1,         0.0,         0.0,         0.0,         0.0
"Line.L29"              ,   2,        -8.2,        -4.1
"Line.L30"              ,   1,        16.3,         8.2,         0.0,         0.0,         0.0,         0.0
"Line.L30"              ,   2,       -16.3,        -8.2
"Line.L31"              ,   1,         8.2,         4.1,         0.0,         0.0,         0.0,         0.0
"Line.L31"              ,   2,        -8.2,        -4.1
"Line.L32"              ,   1,         0.0,        -0.0,         0.0,         0.0,         0.0,         0.0
"Line.L32"              ,   2,         0.0,         0.0
"Line.L33"              ,   1,         4.1,         2.0,         0.0,         0.0,         0.0,         0.0
"Line.L33"              ,   2,        -4.1,        -2.0
"Line.L34"              ,   1,        12.3,         6.1,         0.0,         0.0,         0.0,         0.0
"Line.L34"              ,   2,       -12.3,        -6.1
"Line.L35"              ,   1,        16.4,         8.2,         0.0,         0.0,         0.0,         0.0
"Line.L35"              ,   2,       -16.3,        -8.2
"Line.L36"              ,   1,       130.0,        84.2,         0.0,         0.0,         0.0,         0.0
"Line.L36"              ,   2,      -129.9,       -84.1
"Line.L37"              ,   1,         8.2,         4.1,         0.0,         0.0,         0.0,         0.0
"Line.L37"              ,   2,        -8.2,        -4.1
"Line.L38"              ,   1,         8.2,         4.1,         0.0,         0.0,         0.0,         0.0
"Line.L38"              ,   2,        -8.2,        -4.1
"Line.L39"              ,   1,         4.1,         2.0,         0.0,         0.0,         0.0,         0.0
"Line.L39"              ,   2,        -4.1,        -2.0
"Line.L40"              ,   1,         4.1,         2.0,         0.0,         0.0,         0.0,         0.0
"Line.L40"              ,   2,        -4.1,        -2.0
"Line.L41"              ,   1,       125.8,        82.0,         0.0,         0.0,         0.0,         0.0
"Line.L41"              ,   2,      -125.8,       -81.9
"Line.L42"              ,   1,         8.2,         4.1,         0.0,         0.0,         0.0,         0.0
"Line.L42"              ,   2,        -8.2,        -4.1
"Line.L43"              ,   1,       113.5,        75.8,         0.0,         0.0,         0.0,         0.0
"Line.L43"              ,   2,      -113.5,       -75.7
"Line.L44"              ,   1,         8.2,         4.1,         0.0,         0.0,         0.0,         0.0
"Line.L44"              ,   2,        -8.2,        -4.1
"Line.L45"              ,   1,       105.3,        71.6,         0.0,         0.0,         0.0,         0.0
"Line.L45"              ,   2,      -105.2,       -71.5
"Line.L46"              ,   1,         4.1,         2.0,         0.0,         0.0,         0.0,         0.0
"Line.L46"              ,   2,        -4.1,        -2.0
"Line.L47"              ,   1,        42.9,        30.7,         0.0,         0.0,         0.0,         0.0
"Line.L47"              ,   2,       -42.9,       -30.6
"Line.L48"              ,   1,        40.9,        25.5,         0.0,         0.0,         0.0,         0.0
"Line.L48"              ,   2,       -40.9,       -25.5
"Line.L49"              ,   1,        12.3,         6.1,         0.0,         0.0,         0.0,         0.0
"Line.L49"              ,   2,       -12.3,        -6.1
"Line.L50"              ,   1,         4.1,         2.0,         0.0,         0.0,         0.0,         0.0
"Line.L50"              ,   2,        -4.1,        -2.0
"Line.L51"              ,   1,         0.0,        -0.0,         0.0,         0.0,         0.0,         0.0
"Line.L51"              ,   2,         0.0,         0.0
"Line.L52"              ,   1,       399.2,       -28.3,         0.0,         0.0,         0.0,         0.0
"Line.L52"              ,   2,      -398.8,        29.0
"Line.L53"              ,   1,       390.7,       -33.1,         0.0,         0.0,         0.0,         0.0
"Line.L53"              ,   2,      -390.5,        33.5
"Line.L54"              ,   1,         8.2,         4.1,         0.0,         0.0,         0.0,         0.0
"Line.L54"              ,   2,        -8.2,        -4.1
"Line.L55"              ,   1,       382.3,       -37.5,         0.0,         0.0,         0.0,         0.0
"Line.L55"              ,   2,      -381.8,        38.6
"Line.L56"              ,   1,         4.1,         2.0,         0.0,         0.0,         0.0,         0.0
"Line.L56"              ,   2,        -4.1,        -2.0
"Line.L57"              ,   1,         8.2,         4.1,         0.0,         0.0,         0.0,         0.0
"Line.L57"              ,   2,        -8.2,        -4.1
"Line.L58"              ,   1,       373.6,       -42.7,         0.0,         0.0,         0.0,         0.0
"Line.L58"              ,   2,      -372.5,        44.9
"Line.L59"              ,   1,         4.1,         2.0,         0.0,         0.0,         0.0,         0.0
"Line.L59"              ,   2,        -4.1,        -2.0
"Line.L60"              ,   1,         0.0,        -0.0,         0.0,         0.0,         0.0,         0.0
"Line.L60"              ,   2,        -0.0,         0.0
"Line.L61"              ,   1,        75.8,        42.9,         0.0,         0.0,         0.0,         0.0
"Line.L61"              ,   2,       -75.7,       -42.9
"Line.L62"              ,   1,        67.6,        38.8,         0.0,         0.0,         0.0,         0.0
"Line.L62"              ,   2,       -67.5,       -38.8
"Line.L63"              ,   1,        59.4,        34.7,         0.0,         0.0,         0.0,         0.0
"Line.L63"              ,   2,       -59.3,       -34.7
"Line.L64"              ,   1,        44.0,        27.6,         0.0,         0.0,         0.0,         0.0
"Line.L64"              ,   2,       -43.9,       -27.6
"Line.L65"              ,   1,        15.3,         7.1,         0.0,         0.0,         0.0,         0.0
"Line.L65"              ,   2,       -15.3,        -7.2
"Line.L66"              ,   1,        24.5,        12.3,         0.0,         0.0,         0.0,         0.0
"Line.L66"              ,   2,       -24.5,       -12.3
"Line.L67"              ,   1,       177.7,      -148.0,         0.0,         0.0,         0.0,         0.0
"Line.L67"              ,   2,      -177.6,       148.3
"Line.L68"              ,   1,        90.0,        45.1,         0.0,         0.0,         0.0,         0.0
"Line.L68"              ,   2,       -90.0,       -45.0
"Line.L69"              ,   1,        20.4,        10.2,         0.0,         0.0,         0.0,         0.0
"Line.L69"              ,   2,       -20.4,       -10.2
"Line.L70"              ,   1,        12.3,         6.1,         0.0,         0.0,         0.0,         0.0
"Line.L70"              ,   2,       -12.3,        -6.1
"Line.L71"              ,   1,         8.2,         4.1,         0.0,         0.0,         0.0,         0.0
"Line.L71"              ,   2,        -8.2,        -4.1
"Line.L72"              ,   1,        24.5,        12.3,         0.0,         0.0,         0.0,         0.0
"Line.L72"              ,   2,       -24.5,       -12.3
"Line.L73"              ,   1,       153.0,      -160.6,         0.0,         0.0,         0.0,         0.0
"Line.L73"              ,   2,      -152.9,       160.8
"Line.L74"              ,   1,        16.4,         8.2,         0.0,         0.0,         0.0,         0.0
"Line.L74"              ,   2,       -16.3,        -8.2
"Line.L75"              ,   1,         8.2,         4.1,         0.0,         0.0,         0.0,         0.0
"Line.L75"              ,   2,        -8.2,        -4.1
"Line.L76"              ,   1,        49.7,      -174.2,         0.0,         0.0,         0.0,         0.0
"Line.L76"              ,   2,       -49.5,       174.5
"Line.L77"              ,   1,        53.2,       -23.3,         0.0,         0.0,         0.0,         0.0
"Line.L77"              ,   2,       -53.2,        23.4
"Line.L78"              ,   1,        41.4,      -178.6,         0.0,         0.0,         0.0,         0.0
"Line.L78"              ,   2,       -41.3,       178.6
"Line.L79"              ,   1,         8.2,         4.1,         0.0,         0.0,         0.0,         0.0
"Line.L79"              ,   2,        -8.2,        -4.1
"Line.L80"              ,   1,        33.1,      -182.7,         0.0,         0.0,         0.0,         0.0
"Line.L80"              ,   2,       -33.0,       183.1
"Line.L81"              ,   1,        24.8,      -187.2,         0.0,         0.0,         0.0,         0.0
"Line.L81"              ,   2,       -24.7,       187.3
"Line.L82"              ,   1,        12.5,      -193.4,         0.0,         0.0,         0.0,         0.0
"Line.L82"              ,   2,       -12.4,       193.7
"Line.L83"              ,   1,        12.3,         6.1,         0.0,         0.0,         0.0,         0.0
"Line.L83"              ,   2,       -12.3,        -6.1
"Line.L84"              ,   1,         4.2,      -197.7,         0.0,         0.0,         0.0,         0.0
"Line.L84"              ,   2,        -4.1,       198.0
"Line.L85"              ,   1,         8.2,         4.1,         0.0,         0.0,         0.0,         0.0
"Line.L85"              ,   2,        -8.2,        -4.1
"Line.L86"              ,   1,        49.1,       -25.4,         0.0,         0.0,         0.0,         0.0
"Line.L86"              ,   2,       -49.1,        25.5
"Line.L87"              ,   1,         8.2,       -12.6,         0.0,         0.0,         0.0,         0.0
"Line.L87"              ,   2,        -8.2,        12.6
"Line.L88"              ,   1,        32.7,       -17.0,         0.0,         0.0,         0.0,         0.0
"Line.L88"              ,   2,       -32.7,        17.0
"Line.L89"              ,   1,         8.2,       -12.6,         0.0,         0.0,         0.0,         0.0
"Line.L89"              ,   2,        -8.2,        12.6
"Line.L90"              ,   1,        24.5,        -4.4,         0.0,         0.0,         0.0,         0.0
"Line.L90"              ,   2,       -24.5,         4.4
"Line.L91"              ,   1,         8.2,       -12.6,         0.0,         0.0,         0.0,         0.0
"Line.L91"              ,   2,        -8.2,        12.6
"Line.L92"              ,   1,        16.3,         8.2,         0.0,         0.0,         0.0,         0.0
"Line.L92"              ,   2,       -16.3,        -8.2
"Line.L93"              ,   1,         8.2,         4.1,         0.0,         0.0,         0.0,         0.0
"Line.L93"              ,   2,        -8.2,        -4.1
"Line.L94"              ,   1,         8.2,         4.1,         0.0,         0.0,         0.0,         0.0
"Line.L94"              ,   2,        -8.2,        -4.1
"Line.L95"              ,   1,         4.1,         2.0,         0.0,         0.0,         0.0,         0.0
"Line.L95"              ,   2,        -4.1,        -2.0
"Line.L96"              ,   1,        24.5,        12.3,         0.0,         0.0,         0.0,         0.0
"Line.L96"              ,   2,       -24.5,       -12.3
"Line.L97"              ,   1,        16.3,         8.2,         0.0,         0.0,         0.0,         0.0
"Line.L97"              ,   2,       -16.3,        -8.2
"Line.L98"              ,   1,         8.2,         4.1,         0.0,         0.0,         0.0,         0.0
"Line.L98"              ,   2,        -8.2,        -4.1
"Line.L99"              ,   1,         0.0,        -0.0,         0.0,         0.0,         0.0,         0.0
"Line.L99"              ,   2,        -0.0,        -0.0
"Line.L118"             ,   1,        65.5,        32.8,         0.0,         0.0,         0.0,         0.0
"Line.L118"             ,   2,       -65.4,       -32.7
"Line.L100"             ,   1,        20.4,        10.2,         0.0,         0.0,         0.0,         0.0
"Line.L100"             ,   2,       -20.4,       -10.2
"Line.L101"             ,   1,        45.0,        22.5,         0.0,         0.0,         0.0,         0.0
"Line.L101"             ,   2,       -45.0,       -22.5
"Line.L102"             ,   1,        16.4,         8.2,         0.0,         0.0,         0.0,         0.0
"Line.L102"             ,   2,       -16.3,        -8.2
"Line.L103"             ,   1,         8.2,         4.1,         0.0,         0.0,         0.0,         0.0
"Line.L103"             ,   2,        -8.2,        -4.1
"Line.L104"             ,   1,        16.4,         8.2,         0.0,         0.0,         0.0,         0.0
"Line.L104"             ,   2,       -16.3,        -8.2
"Line.L105"             ,   1,        28.6,        14.3,         0.0,         0.0,         0.0,         0.0
"Line.L105"             ,   2,       -28.6,       -14.3
"Line.L106"             ,   1,         8.2,         4.1,         0.0,         0.0,         0.0,         0.0
"Line.L106"             ,   2,        -8.2,        -4.1
"Line.L107"             ,   1,        28.6,        14.3,         0.0,         0.0,         0.0,         0.0
"Line.L107"             ,   2,       -28.6,       -14.3
"Line.L108"             ,   1,         0.0,        -0.0,         0.0,         0.0,         0.0,         0.0
"Line.L108"             ,   2,         0.0,         0.0
"Line.L109"             ,   1,        20.4,        10.2,         0.0,         0.0,         0.0,         0.0
"Line.L109"             ,   2,       -20.4,       -10.2
"Line.L110"             ,   1,         4.1,         2.0,         0.0,         0.0,         0.0,         0.0
"Line.L110"             ,   2,        -4.1,        -2.0
"Line.L111"             ,   1,        16.4,         8.2,         0.0,         0.0,         0.0,         0.0
"Line.L111"             ,   2,       -16.4,        -8.2
"Line.L112"             ,   1,        12.3,         6.1,         0.0,         0.0,         0.0,         0.0
"Line.L112"             ,   2,       -12.3,        -6.1
"Line.L113"             ,   1,         4.1,         2.0,         0.0,         0.0,         0.0,         0.0
"Line.L113"             ,   2,        -4.1,        -2.0
"Line.L114"             ,   1,       154.6,        96.7,         0.0,         0.0,         0.0,         0.0
"Line.L114"             ,   2,      -154.5,       -96.4
"Line.L116"             ,   1,       408.0,       -22.8,         0.0,         0.0,         0.0,         0.0
"Line.L116"             ,   2,      -407.3,        24.2
"Line.L117"             ,   1,       292.6,       -89.9,         0.0,         0.0,         0.0,         0.0
"Line.L117"             ,   2,      -292.3,        90.6
"Line.SW1"              ,   1,       724.6,       165.1,         0.0,         0.0,         0.0,         0.0
"Line.SW1"              ,   2,      -724.6,      -165.1
"Line.SW2"              ,   1,       408.0,       -22.8,         0.0,         0.0,         0.0,         0.0
"Line.SW2"              ,   2,      -408.0,        22.8
"Line.SW3"              ,   1,       154.6,        96.7,         0.0,         0.0,         0.0,         0.0
"Line.SW3"              ,   2,      -154.6,       -96.7
