Element, Terminal, P(kW), Q(kvar),  P_Normal, Q_Normal, P_Emergency, Q_Emergency
"Line.L115"             ,   1,      1017.4,       366.9,       108.7,        39.2,         0.0,         0.0
"Line.L115"             ,   2,     -1012.8,      -357.3
"Line.L1"               ,   1,         5.7,         2.8,         0.0,         0.0,         0.0,         0.0
"Line.L1"               ,   2,        -5.7,        -2.8
"Line.L2"               ,   1,        28.5,        14.3,         0.0,         0.0,         0.0,         0.0
"Line.L2"               ,   2,       -28.5,       -14.3
"Line.L3"               ,   1,       967.2,       334.5,        60.6,        21.0,         0.0,         0.0
"Line.L3"               ,   2,      -964.0,      -328.0
"Line.L4"               ,   1,        11.4,         5.7,         0.0,         0.0,         0.0,         0.0
"Line.L4"               ,   2,       -11.4,        -5.7
"Line.L5"               ,   1,        17.1,         8.6,         0.0,         0.0,         0.0,         0.0
"Line.L5"               ,   2,       -17.1,        -8.6
"Line.L6"               ,   1,        11.4,         5.7,         0.0,         0.0,         0.0,         0.0
"Line.L6"               ,   2,       -11.4,        -5.7
"Line.L7"               ,   1,       958.3,       325.2,        54.5,        18.5,         0.0,         0.0
"Line.L7"               ,   2,      -956.2,      -320.9
"Line.L8"               ,   1,         5.7,         2.8,         0.0,         0.0,         0.0,         0.0
"Line.L8"               ,   2,        -5.7,        -2.8
"Line.L9"               ,   1,        28.5,        14.3,         0.0,         0.0,         0.0,         0.0
"Line.L9"               ,   2,       -28.5,       -14.3
"Line.L10"              ,   1,       922.0,       303.8,        18.5,         6.1,         0.0,         0.0
"Line.L10"              ,   2,      -919.1,      -297.9
"Line.L11"              ,   1,        17.1,         8.6,         0.0,         0.0,         0.0,         0.0
"Line.L11"              ,   2,       -17.1,        -8.6
"Line.L12"              ,   1,        28.5,        14.3,         0.0,         0.0,         0.0,         0.0
"Line.L12"              ,   2,       -28.5,       -14.3
"Line.L13"              ,   1,       319.7,       189.1,         0.0,         0.0,         0.0,         0.0
"Line.L13"              ,   2,      -318.5,      -186.7
"Line.L14"              ,   1,        11.4,         5.7,         0.0,         0.0,         0.0,         0.0
"Line.L14"              ,   2,       -11.4,        -5.7
"Line.L15"              ,   1,         5.7,         2.8,         0.0,         0.0,         0.0,         0.0
"Line.L15"              ,   2,        -5.7,        -2.8
"Line.L16"              ,   1,        11.4,         5.7,         0.0,         0.0,         0.0,         0.0
"Line.L16"              ,   2,       -11.4,        -5.7
"Line.L17"              ,   1,         5.7,         2.8,         0.0,         0.0,         0.0,         0.0
"Line.L17"              ,   2,        -5.7,        -2.8
"Line.L18"              ,   1,        22.8,        11.4,         0.0,         0.0,         0.0,         0.0
"Line.L18"              ,   2,       -22.8,       -11.4
"Line.L19"              ,   1,        79.9,        40.0,         0.0,         0.0,         0.0,         0.0
"Line.L19"              ,   2,       -79.8,       -40.0
"Line.L20"              ,   1,        11.4,         5.7,         0.0,         0.0,         0.0,         0.0
"Line.L20"              ,   2,       -11.4,        -5.7
"Line.L21"              ,   1,        11.4,         5.7,         0.0,         0.0,         0.0,         0.0
"Line.L21"              ,   2,       -11.4,        -5.7
"Line.L22"              ,   1,        68.4,        34.3,         0.0,         0.0,         0.0,         0.0
"Line.L22"              ,   2,       -68.4,       -34.2
"Line.L23"              ,   1,        11.4,         5.7,         0.0,         0.0,         0.0,         0.0
"Line.L23"              ,   2,       -11.4,        -5.7
"Line.L24"              ,   1,        57.0,        28.5,         0.0,         0.0,         0.0,         0.0
"Line.L24"              ,   2,       -57.0,       -28.5
"Line.L25"              ,   1,        22.8,        11.4,         0.0,         0.0,         0.0,         0.0
"Line.L25"              ,   2,       -22.8,       -11.4
"Line.L26"              ,   1,        34.2,        17.1,         0.0,         0.0,         0.0,         0.0
"Line.L26"              ,   2,       -34.2,       -17.1
"Line.L27"              ,   1,        11.4,         5.7,         0.0,         0.0,         0.0,         0.0
"Line.L27"              ,   2,       -11.4,        -5.7
"Line.L28"              ,   1,        11.4,         5.7,         0.0,         0.0,         0.0,         0.0
"Line.L28"              ,   2,       -11.4,        -5.7
"Line.L29"              ,   1,        11.4,         5.7,         0.0,         0.0,         0.0,         0.0
"Line.L29"              ,   2,       -11.4,        -5.7
"Line.L30"              ,   1,        22.8,        11.4,         0.0,         0.0,         0.0,         0.0
"Line.L30"              ,   2,       -22.8,       -11.4
"Line.L31"              ,   1,        11.4,         5.7,         0.0,         0.0,         0.0,         0.0
"Line.L31"              ,   2,       -11.4,        -5.7
"Line.L32"              ,   1,        -0.0,        -0.0,         0.0,         0.0,         0.0,         0.0
"Line.L32"              ,   2,        -0.0,         0.0
"Line.L33"              ,   1,         5.7,         2.8,         0.0,         0.0,         0.0,         0.0
"Line.L33"              ,   2,        -5.7,        -2.8
"Line.L34"              ,   1,        17.1,         8.6,         0.0,         0.0,         0.0,         0.0
"Line.L34"              ,   2,       -17.1,        -8.5
"Line.L35"              ,   1,        22.8,        11.4,         0.0,         0.0,         0.0,         0.0
"Line.L35"              ,   2,       -22.8,       -11.4
"Line.L36"              ,   1,       181.4,       117.7,         0.0,         0.0,         0.0,         0.0
"Line.L36"              ,   2,      -181.3,      -117.4
"Line.L37"              ,   1,        11.4,         5.7,         0.0,         0.0,         0.0,         0.0
"Line.L37"              ,   2,       -11.4,        -5.7
"Line.L38"              ,   1,        11.4,         5.7,         0.0,         0.0,         0.0,         0.0
"Line.L38"              ,   2,       -11.4,        -5.7
"Line.L39"              ,   1,         5.7,         2.8,         0.0,         0.0,         0.0,         0.0
"Line.L39"              ,   2,        -5.7,        -2.8
"Line.L40"              ,   1,         5.7,         2.8,         0.0,         0.0,         0.0,         0.0
"Line.L40"              ,   2,        -5.7,        -2.8
"Line.L41"              ,   1,       175.6,       114.6,         0.0,         0.0,         0.0,         0.0
"Line.L41"              ,   2,      -175.5,      -114.4
"Line.L42"              ,   1,        11.4,         5.7,         0.0,         0.0,         0.0,         0.0
"Line.L42"              ,   2,       -11.4,        -5.7
"Line.L43"              ,   1,       158.4,       105.8,         0.0,         0.0,         0.0,         0.0
"Line.L43"              ,   2,      -158.3,      -105.7
"Line.L44"              ,   1,        11.4,         5.7,         0.0,         0.0,         0.0,         0.0
"Line.L44"              ,   2,       -11.4,        -5.7
"Line.L45"              ,   1,       146.9,       100.0,         0.0,         0.0,         0.0,         0.0
"Line.L45"              ,   2,      -146.8,       -99.8
"Line.L46"              ,   1,         5.7,         2.8,         0.0,         0.0,         0.0,         0.0
"Line.L46"              ,   2,        -5.7,        -2.8
"Line.L47"              ,   1,        59.9,        42.8,         0.0,         0.0,         0.0,         0.0
"Line.L47"              ,   2,       -59.8,       -42.7
"Line.L48"              ,   1,        57.0,        35.6,         0.0,         0.0,         0.0,         0.0
"Line.L48"              ,   2,       -57.0,       -35.6
"Line.L49"              ,   1,        17.1,         8.5,         0.0,         0.0,         0.0,         0.0
"Line.L49"              ,   2,       -17.1,        -8.5
"Line.L50"              ,   1,         5.7,         2.8,         0.0,         0.0,         0.0,         0.0
"Line.L50"              ,   2,        -5.7,        -2.8
"Line.L51"              ,   1,         0.0,        -0.0,         0.0,         0.0,         0.0,         0.0
"Line.L51"              ,   2,         0.0,        -0.0
"Line.L52"              ,   1,       558.1,        85.9,         0.0,         0.0,         0.0,         0.0
"Line.L52"              ,   2,      -557.4,       -84.6
"Line.L53"              ,   1,       546.0,        78.9,         0.0,         0.0,         0.0,         0.0
"Line.L53"              ,   2,      -545.6,       -78.1
"Line.L54"              ,   1,        11.4,         5.7,         0.0,         0.0,         0.0,         0.0
"Line.L54"              ,   2,       -11.4,        -5.7
"Line.L55"              ,   1,       534.2,        72.4,         0.0,         0.0,         0.0,         0.0
"Line.L55"              ,   2,      -533.1,       -70.2
"Line.L56"              ,   1,         5.7,         2.8,         0.0,         0.0,         0.0,         0.0
"Line.L56"              ,   2,        -5.7,        -2.8
"Line.L57"              ,   1,        11.4,         5.7,         0.0,         0.0,         0.0,         0.0
"Line.L57"              ,   2,       -11.4,        -5.7
"Line.L58"              ,   1,       521.7,        64.5,         0.0,         0.0,         0.0,         0.0
"Line.L58"              ,   2,      -519.6,       -60.0
"Line.L59"              ,   1,         5.7,         2.8,         0.0,         0.0,         0.0,         0.0
"Line.L59"              ,   2,        -5.7,        -2.8
"Line.L60"              ,   1,         0.0,        -0.0,         0.0,         0.0,         0.0,         0.0
"Line.L60"              ,   2,        -0.0,         0.0
"Line.L61"              ,   1,       105.9,        59.9,         0.0,         0.0,         0.0,         0.0
"Line.L61"              ,   2,      -105.7,       -59.9
"Line.L62"              ,   1,        94.3,        54.2,         0.0,         0.0,         0.0,         0.0
"Line.L62"              ,   2,       -94.2,       -54.2
"Line.L63"              ,   1,        82.8,        48.5,         0.0,         0.0,         0.0,         0.0
"Line.L63"              ,   2,       -82.7,       -48.4
"Line.L64"              ,   1,        61.4,        38.5,         0.0,         0.0,         0.0,         0.0
"Line.L64"              ,   2,       -61.3,       -38.5
"Line.L65"              ,   1,        21.4,        10.0,         0.0,         0.0,         0.0,         0.0
"Line.L65"              ,   2,       -21.4,       -10.0
"Line.L66"              ,   1,        34.2,        17.1,         0.0,         0.0,         0.0,         0.0
"Line.L66"              ,   2,       -34.2,       -17.1
"Line.L67"              ,   1,       247.5,       -84.2,         0.0,         0.0,         0.0,         0.0
"Line.L67"              ,   2,      -247.3,        84.7
"Line.L68"              ,   1,       125.6,        63.0,         0.0,         0.0,         0.0,         0.0
"Line.L68"              ,   2,      -125.6,       -62.9
"Line.L69"              ,   1,        28.5,        14.3,         0.0,         0.0,         0.0,         0.0
"Line.L69"              ,   2,       -28.5,       -14.3
"Line.L70"              ,   1,        17.1,         8.6,         0.0,         0.0,         0.0,         0.0
"Line.L70"              ,   2,       -17.1,        -8.6
"Line.L71"              ,   1,        11.4,         5.7,         0.0,         0.0,         0.0,         0.0
"Line.L71"              ,   2,       -11.4,        -5.7
"Line.L72"              ,   1,        34.2,        17.1,         0.0,         0.0,         0.0,         0.0
"Line.L72"              ,   2,       -34.2,       -17.1
"Line.L73"              ,   1,       213.1,      -101.8,         0.0,         0.0,         0.0,         0.0
"Line.L73"              ,   2,      -212.9,       102.0
"Line.L74"              ,   1,        22.8,        11.4,         0.0,         0.0,         0.0,         0.0
"Line.L74"              ,   2,       -22.8,       -11.4
"Line.L75"              ,   1,        11.4,         5.7,         0.0,         0.0,         0.0,         0.0
"Line.L75"              ,   2,       -11.4,        -5.7
"Line.L76"              ,   1,        68.9,      -145.8,         0.0,         0.0,         0.0,         0.0
"Line.L76"              ,   2,       -68.8,       146.1
"Line.L77"              ,   1,        74.2,        -7.5,         0.0,         0.0,         0.0,         0.0
"Line.L77"              ,   2,       -74.1,         7.6
"Line.L78"              ,   1,        57.4,      -151.8,         0.0,         0.0,         0.0,         0.0
"Line.L78"              ,   2,       -57.4,       151.8
"Line.L79"              ,   1,        11.4,         5.7,         0.0,         0.0,         0.0,         0.0
"Line.L79"              ,   2,       -11.4,        -5.7
"Line.L80"              ,   1,        46.0,      -157.5,         0.0,         0.0,         0.0,         0.0
"Line.L80"              ,   2,       -45.8,       157.8
"Line.L81"              ,   1,        34.4,      -163.5,         0.0,         0.0,         0.0,         0.0
"Line.L81"              ,   2,       -34.4,       163.6
"Line.L82"              ,   1,        17.3,      -172.2,         0.0,         0.0,         0.0,         0.0
"Line.L82"              ,   2,       -17.2,       172.4
"Line.L83"              ,   1,        17.1,         8.6,         0.0,         0.0,         0.0,         0.0
"Line.L83"              ,   2,       -17.1,        -8.6
"Line.L84"              ,   1,         5.8,      -178.1,         0.0,         0.0,         0.0,         0.0
"Line.L84"              ,   2,        -5.7,       178.2
"Line.L85"              ,   1,        11.4,         5.7,         0.0,         0.0,         0.0,         0.0
"Line.L85"              ,   2,       -11.4,        -5.7
"Line.L86"              ,   1,        68.4,       -10.5,         0.0,         0.0,         0.0,         0.0
"Line.L86"              ,   2,       -68.4,        10.5
"Line.L87"              ,   1,        11.4,        -9.2,         0.0,         0.0,         0.0,         0.0
"Line.L87"              ,   2,       -11.4,         9.2
"Line.L88"              ,   1,        45.6,        -7.0,         0.0,         0.0,         0.0,         0.0
"Line.L88"              ,   2,       -45.6,         7.0
"Line.L89"              ,   1,        11.4,        -9.2,         0.0,         0.0,         0.0,         0.0
"Line.L89"              ,   2,       -11.4,         9.2
"Line.L90"              ,   1,        34.2,         2.2,         0.0,         0.0,         0.0,         0.0
"Line.L90"              ,   2,       -34.2,        -2.2
"Line.L91"              ,   1,        11.4,        -9.2,         0.0,         0.0,         0.0,         0.0
"Line.L91"              ,   2,       -11.4,         9.2
"Line.L92"              ,   1,        22.8,        11.4,         0.0,         0.0,         0.0,         0.0
"Line.L92"              ,   2,       -22.8,       -11.4
"Line.L93"              ,   1,        11.4,         5.7,         0.0,         0.0,         0.0,         0.0
"Line.L93"              ,   2,       -11.4,        -5.7
"Line.L94"              ,   1,        11.4,         5.7,         0.0,         0.0,         0.0,         0.0
"Line.L94"              ,   2,       -11.4,        -5.7
"Line.L95"              ,   1,         5.7,         2.8,         0.0,         0.0,         0.0,         0.0
"Line.L95"              ,   2,        -5.7,        -2.8
"Line.L96"              ,   1,        34.2,        17.1,         0.0,         0.0,         0.0,         0.0
"Line.L96"              ,   2,       -34.2,       -17.1
"Line.L97"              ,   1,        22.8,        11.4,         0.0,         0.0,         0.0,         0.0
"Line.L97"              ,   2,       -22.8,       -11.4
"Line.L98"              ,   1,        11.4,         5.7,         0.0,         0.0,         0.0,         0.0
"Line.L98"              ,   2,       -11.4,        -5.7
"Line.L99"              ,   1,         0.0,        -0.0,         0.0,         0.0,         0.0,         0.0
"Line.L99"              ,   2,         0.0,         0.0
"Line.L118"             ,   1,        91.4,        45.8,         0.0,         0.0,         0.0,         0.0
"Line.L118"             ,   2,       -91.3,       -45.7
"Line.L100"             ,   1,        28.5,        14.3,         0.0,         0.0,         0.0,         0.0
"Line.L100"             ,   2,       -28.5,       -14.3
"Line.L101"             ,   1,        62.8,        31.5,         0.0,         0.0,         0.0,         0.0
"Line.L101"             ,   2,       -62.8,       -31.4
"Line.L102"             ,   1,        22.8,        11.4,         0.0,         0.0,         0.0,         0.0
"Line.L102"             ,   2,       -22.8,       -11.4
"Line.L103"             ,   1,        11.4,         5.7,         0.0,         0.0,         0.0,         0.0
"Line.L103"             ,   2,       -11.4,        -5.7
"Line.L104"             ,   1,        22.8,        11.4,         0.0,         0.0,         0.0,         0.0
"Line.L104"             ,   2,       -22.8,       -11.4
"Line.L105"             ,   1,        40.0,        20.0,         0.0,         0.0,         0.0,         0.0
"Line.L105"             ,   2,       -40.0,       -20.0
"Line.L106"             ,   1,        11.4,         5.7,         0.0,         0.0,         0.0,         0.0
"Line.L106"             ,   2,       -11.4,        -5.7
"Line.L107"             ,   1,        40.0,        20.0,         0.0,         0.0,         0.0,         0.0
"Line.L107"             ,   2,       -39.9,       -20.0
"Line.L108"             ,   1,         0.0,        -0.0,         0.0,         0.0,         0.0,         0.0
"Line.L108"             ,   2,         0.0,         0.0
"Line.L109"             ,   1,        28.5,        14.3,         0.0,         0.0,         0.0,         0.0
"Line.L109"             ,   2,       -28.5,       -14.3
"Line.L110"             ,   1,         5.7,         2.8,         0.0,         0.0,         0.0,         0.0
"Line.L110"             ,   2,        -5.7,        -2.8
"Line.L111"             ,   1,        22.8,        11.4,         0.0,         0.0,         0.0,         0.0
"Line.L111"             ,   2,       -22.8,       -11.4
"Line.L112"             ,   1,        17.1,         8.6,         0.0,         0.0,         0.0,         0.0
"Line.L112"             ,   2,       -17.1,        -8.5
"Line.L113"             ,   1,         5.7,         2.8,         0.0,         0.0,         0.0,         0.0
"Line.L113"             ,   2,        -5.7,        -2.8
"Line.L114"             ,   1,       215.9,       135.3,         0.0,         0.0,         0.0,         0.0
"Line.L114"             ,   2,      -215.6,      -134.8
"Line.L116"             ,   1,       570.9,        94.5,         0.0,         0.0,         0.0,         0.0
"Line.L116"             ,   2,      -569.5,       -91.6
"Line.L117"             ,   1,       408.0,        -2.8,         0.0,         0.0,         0.0,         0.0
"Line.L117"             ,   2,      -407.4,         4.1
"Line.SW1"              ,   1,      1017.4,       366.9,       108.7,        39.2,         0.0,         0.0
"Line.SW1"              ,   2,     -1017.4,      -366.9
"Line.SW2"              ,   1,       570.9,        94.5,         0.0,         0.0,         0.0,         0.0
"Line.SW2"              ,   2,      -570.9,       -94.5
"Line.SW3"              ,   1,       215.9,       135.3,         0.0,         0.0,         0.0,         0.0
"Line.SW3"              ,   2,      -215.9,      -135.3
