Element, Terminal, P(kW), Q(kvar),  P_Normal, Q_Normal, P_Emergency, Q_Emergency
"Line.L115"             ,   1,       790.7,       204.6,         0.0,         0.0,         0.0,         0.0
"Line.L115"             ,   2,      -788.0,      -199.1
"Line.L1"               ,   1,         4.5,         2.2,         0.0,         0.0,         0.0,         0.0
"Line.L1"               ,   2,        -4.5,        -2.2
"Line.L2"               ,   1,        22.3,        11.1,         0.0,         0.0,         0.0,         0.0
"Line.L2"               ,   2,       -22.3,       -11.1
"Line.L3"               ,   1,       752.4,       181.3,         0.0,         0.0,         0.0,         0.0
"Line.L3"               ,   2,      -750.6,      -177.6
"Line.L4"               ,   1,         8.9,         4.5,         0.0,         0.0,         0.0,         0.0
"Line.L4"               ,   2,        -8.9,        -4.5
"Line.L5"               ,   1,        13.4,         6.7,         0.0,         0.0,         0.0,         0.0
"Line.L5"               ,   2,       -13.4,        -6.7
"Line.L6"               ,   1,         8.9,         4.5,         0.0,         0.0,         0.0,         0.0
"Line.L6"               ,   2,        -8.9,        -4.5
"Line.L7"               ,   1,       746.1,       175.4,         0.0,         0.0,         0.0,         0.0
"Line.L7"               ,   2,      -744.9,      -173.0
"Line.L8"               ,   1,         4.5,         2.2,         0.0,         0.0,         0.0,         0.0
"Line.L8"               ,   2,        -4.5,        -2.2
"Line.L9"               ,   1,        22.3,        11.1,         0.0,         0.0,         0.0,         0.0
"Line.L9"               ,   2,       -22.3,       -11.1
"Line.L10"              ,   1,       718.2,       159.6,         0.0,         0.0,         0.0,         0.0
"Line.L10"              ,   2,      -716.6,      -156.2
"Line.L11"              ,   1,        13.4,         6.7,         0.0,         0.0,         0.0,         0.0
"Line.L11"              ,   2,       -13.4,        -6.7
"Line.L12"              ,   1,        22.3,        11.1,         0.0,         0.0,         0.0,         0.0
"Line.L12"              ,   2,       -22.3,       -11.1
"Line.L13"              ,   1,       249.4,       147.0,         0.0,         0.0,         0.0,         0.0
"Line.L13"              ,   2,      -248.7,      -145.6
"Line.L14"              ,   1,         8.9,         4.5,         0.0,         0.0,         0.0,         0.0
"Line.L14"              ,   2,        -8.9,        -4.5
"Line.L15"              ,   1,         4.5,         2.2,         0.0,         0.0,         0.0,         0.0
"Line.L15"              ,   2,        -4.5,        -2.2
"Line.L16"              ,   1,         8.9,         4.5,         0.0,         0.0,         0.0,         0.0
"Line.L16"              ,   2,        -8.9,        -4.5
"Line.L17"              ,   1,         4.5,         2.2,         0.0,         0.0,         0.0,         0.0
"Line.L17"              ,   2,        -4.5,        -2.2
"Line.L18"              ,   1,        17.8,         8.9,         0.0,         0.0,         0.0,         0.0
"Line.L18"              ,   2,       -17.8,        -8.9
"Line.L19"              ,   1,        62.4,        31.2,         0.0,         0.0,         0.0,         0.0
"Line.L19"              ,   2,       -62.4,       -31.2
"Line.L20"              ,   1,         8.9,         4.5,         0.0,         0.0,         0.0,         0.0
"Line.L20"              ,   2,        -8.9,        -4.5
"Line.L21"              ,   1,         8.9,         4.5,         0.0,         0.0,         0.0,         0.0
"Line.L21"              ,   2,        -8.9,        -4.5
"Line.L22"              ,   1,        53.5,        26.7,         0.0,         0.0,         0.0,         0.0
"Line.L22"              ,   2,       -53.5,       -26.7
"Line.L23"              ,   1,         8.9,         4.5,         0.0,         0.0,         0.0,         0.0
"Line.L23"              ,   2,        -8.9,        -4.5
"Line.L24"              ,   1,        44.5,        22.3,         0.0,         0.0,         0.0,         0.0
"Line.L24"              ,   2,       -44.5,       -22.3
"Line.L25"              ,   1,        17.8,         8.9,         0.0,         0.0,         0.0,         0.0
"Line.L25"              ,   2,       -17.8,        -8.9
"Line.L26"              ,   1,        26.7,        13.4,         0.0,         0.0,         0.0,         0.0
"Line.L26"              ,   2,       -26.7,       -13.4
"Line.L27"              ,   1,         8.9,         4.5,         0.0,         0.0,         0.0,         0.0
"Line.L27"              ,   2,        -8.9,        -4.5
"Line.L28"              ,   1,         8.9,         4.5,         0.0,         0.0,         0.0,         0.0
"Line.L28"              ,   2,        -8.9,        -4.5
"Line.L29"              ,   1,         8.9,         4.5,         0.0,         0.0,         0.0,         0.0
"Line.L29"              ,   2,        -8.9,        -4.5
"Line.L30"              ,   1,        17.8,         8.9,         0.0,         0.0,         0.0,         0.0
"Line.L30"              ,   2,       -17.8,        -8.9
"Line.L31"              ,   1,         8.9,         4.5,         0.0,         0.0,         0.0,         0.0
"Line.L31"              ,   2,        -8.9,        -4.5
"Line.L32"              ,   1,        -0.0,        -0.0,         0.0,         0.0,         0.0,         0.0
"Line.L32"              ,   2,         0.0,        -0.0
"Line.L33"              ,   1,         4.5,         2.2,         0.0,         0.0,         0.0,         0.0
"Line.L33"              ,   2,        -4.5,        -2.2
"Line.L34"              ,   1,        13.4,         6.7,         0.0,         0.0,         0.0,         0.0
"Line.L34"              ,   2,       -13.4,        -6.7
"Line.L35"              ,   1,        17.8,         8.9,         0.0,         0.0,         0.0,         0.0
"Line.L35"              ,   2,       -17.8,        -8.9
"Line.L36"              ,   1,       141.6,        91.8,         0.0,         0.0,         0.0,         0.0
"Line.L36"              ,   2,      -141.6,       -91.6
"Line.L37"              ,   1,         8.9,         4.5,         0.0,         0.0,         0.0,         0.0
"Line.L37"              ,   2,        -8.9,        -4.5
"Line.L38"              ,   1,         8.9,         4.5,         0.0,         0.0,         0.0,         0.0
"Line.L38"              ,   2,        -8.9,        -4.5
"Line.L39"              ,   1,         4.5,         2.2,         0.0,         0.0,         0.0,         0.0
"Line.L39"              ,   2,        -4.5,        -2.2
"Line.L40"              ,   1,         4.5,         2.2,         0.0,         0.0,         0.0,         0.0
"Line.L40"              ,   2,        -4.5,        -2.2
"Line.L41"              ,   1,       137.1,        89.4,         0.0,         0.0,         0.0,         0.0
"Line.L41"              ,   2,      -137.0,       -89.3
"Line.L42"              ,   1,         8.9,         4.5,         0.0,         0.0,         0.0,         0.0
"Line.L42"              ,   2,        -8.9,        -4.5
"Line.L43"              ,   1,       123.7,        82.6,         0.0,         0.0,         0.0,         0.0
"Line.L43"              ,   2,      -123.6,       -82.5
"Line.L44"              ,   1,         8.9,         4.5,         0.0,         0.0,         0.0,         0.0
"Line.L44"              ,   2,        -8.9,        -4.5
"Line.L45"              ,   1,       114.7,        78.0,         0.0,         0.0,         0.0,         0.0
"Line.L45"              ,   2,      -114.7,       -77.9
"Line.L46"              ,   1,         4.5,         2.2,         0.0,         0.0,         0.0,         0.0
"Line.L46"              ,   2,        -4.5,        -2.2
"Line.L47"              ,   1,        46.8,        33.4,         0.0,         0.0,         0.0,         0.0
"Line.L47"              ,   2,       -46.8,       -33.4
"Line.L48"              ,   1,        44.5,        27.8,         0.0,         0.0,         0.0,         0.0
"Line.L48"              ,   2,       -44.5,       -27.8
"Line.L49"              ,   1,        13.4,         6.7,         0.0,         0.0,         0.0,         0.0
"Line.L49"              ,   2,       -13.4,        -6.7
"Line.L50"              ,   1,         4.5,         2.2,         0.0,         0.0,         0.0,         0.0
"Line.L50"              ,   2,        -4.5,        -2.2
"Line.L51"              ,   1,         0.0,        -0.0,         0.0,         0.0,         0.0,         0.0
"Line.L51"              ,   2,         0.0,         0.0
"Line.L52"              ,   1,       435.2,        -8.0,         0.0,         0.0,         0.0,         0.0
"Line.L52"              ,   2,      -434.8,         8.8
"Line.L53"              ,   1,       425.9,       -13.3,         0.0,         0.0,         0.0,         0.0
"Line.L53"              ,   2,      -425.6,        13.8
"Line.L54"              ,   1,         8.9,         4.5,         0.0,         0.0,         0.0,         0.0
"Line.L54"              ,   2,        -8.9,        -4.5
"Line.L55"              ,   1,       416.7,       -18.2,         0.0,         0.0,         0.0,         0.0
"Line.L55"              ,   2,      -416.1,        19.5
"Line.L56"              ,   1,         4.5,         2.2,         0.0,         0.0,         0.0,         0.0
"Line.L56"              ,   2,        -4.5,        -2.2
"Line.L57"              ,   1,         8.9,         4.5,         0.0,         0.0,         0.0,         0.0
"Line.L57"              ,   2,        -8.9,        -4.5
"Line.L58"              ,   1,       407.2,       -23.9,         0.0,         0.0,         0.0,         0.0
"Line.L58"              ,   2,      -405.9,        26.6
"Line.L59"              ,   1,         4.5,         2.2,         0.0,         0.0,         0.0,         0.0
"Line.L59"              ,   2,        -4.5,        -2.2
"Line.L60"              ,   1,         0.0,        -0.0,         0.0,         0.0,         0.0,         0.0
"Line.L60"              ,   2,        -0.0,         0.0
"Line.L61"              ,   1,        82.6,        46.8,         0.0,         0.0,         0.0,         0.0
"Line.L61"              ,   2,       -82.5,       -46.7
"Line.L62"              ,   1,        73.6,        42.3,         0.0,         0.0,         0.0,         0.0
"Line.L62"              ,   2,       -73.6,       -42.3
"Line.L63"              ,   1,        64.7,        37.8,         0.0,         0.0,         0.0,         0.0
"Line.L63"              ,   2,       -64.6,       -37.8
"Line.L64"              ,   1,        47.9,        30.0,         0.0,         0.0,         0.0,         0.0
"Line.L64"              ,   2,       -47.9,       -30.0
"Line.L65"              ,   1,        16.7,         7.8,         0.0,         0.0,         0.0,         0.0
"Line.L65"              ,   2,       -16.7,        -7.8
"Line.L66"              ,   1,        26.7,        13.4,         0.0,         0.0,         0.0,         0.0
"Line.L66"              ,   2,       -26.7,       -13.4
"Line.L67"              ,   1,       193.6,      -138.9,         0.0,         0.0,         0.0,         0.0
"Line.L67"              ,   2,      -193.4,       139.3
"Line.L68"              ,   1,        98.1,        49.1,         0.0,         0.0,         0.0,         0.0
"Line.L68"              ,   2,       -98.1,       -49.1
"Line.L69"              ,   1,        22.3,        11.1,         0.0,         0.0,         0.0,         0.0
"Line.L69"              ,   2,       -22.3,       -11.1
"Line.L70"              ,   1,        13.4,         6.7,         0.0,         0.0,         0.0,         0.0
"Line.L70"              ,   2,       -13.4,        -6.7
"Line.L71"              ,   1,         8.9,         4.5,         0.0,         0.0,         0.0,         0.0
"Line.L71"              ,   2,        -8.9,        -4.5
"Line.L72"              ,   1,        26.7,        13.4,         0.0,         0.0,         0.0,         0.0
"Line.L72"              ,   2,       -26.7,       -13.4
"Line.L73"              ,   1,       166.7,      -152.6,         0.0,         0.0,         0.0,         0.0
"Line.L73"              ,   2,      -166.6,       152.9
"Line.L74"              ,   1,        17.8,         8.9,         0.0,         0.0,         0.0,         0.0
"Line.L74"              ,   2,       -17.8,        -8.9
"Line.L75"              ,   1,         8.9,         4.5,         0.0,         0.0,         0.0,         0.0
"Line.L75"              ,   2,        -8.9,        -4.5
"Line.L76"              ,   1,        54.1,      -172.0,         0.0,         0.0,         0.0,         0.0
"Line.L76"              ,   2,       -53.9,       172.3
"Line.L77"              ,   1,        57.9,       -21.0,         0.0,         0.0,         0.0,         0.0
"Line.L77"              ,   2,       -57.9,        21.0
"Line.L78"              ,   1,        45.0,      -176.7,         0.0,         0.0,         0.0,         0.0
"Line.L78"              ,   2,       -45.0,       176.8
"Line.L79"              ,   1,         8.9,         4.5,         0.0,         0.0,         0.0,         0.0
"Line.L79"              ,   2,        -8.9,        -4.5
"Line.L80"              ,   1,        36.1,      -181.3,         0.0,         0.0,         0.0,         0.0
"Line.L80"              ,   2,       -35.9,       181.6
"Line.L81"              ,   1,        27.0,      -186.1,         0.0,         0.0,         0.0,         0.0
"Line.L81"              ,   2,       -26.9,       186.2
"Line.L82"              ,   1,        13.6,      -192.9,         0.0,         0.0,         0.0,         0.0
"Line.L82"              ,   2,       -13.5,       193.1
"Line.L83"              ,   1,        13.4,         6.7,         0.0,         0.0,         0.0,         0.0
"Line.L83"              ,   2,       -13.4,        -6.7
"Line.L84"              ,   1,         4.6,      -197.5,         0.0,         0.0,         0.0,         0.0
"Line.L84"              ,   2,        -4.5,       197.8
"Line.L85"              ,   1,         8.9,         4.5,         0.0,         0.0,         0.0,         0.0
"Line.L85"              ,   2,        -8.9,        -4.5
"Line.L86"              ,   1,        53.5,       -23.2,         0.0,         0.0,         0.0,         0.0
"Line.L86"              ,   2,       -53.5,        23.3
"Line.L87"              ,   1,         8.9,       -12.2,         0.0,         0.0,         0.0,         0.0
"Line.L87"              ,   2,        -8.9,        12.2
"Line.L88"              ,   1,        35.6,       -15.5,         0.0,         0.0,         0.0,         0.0
"Line.L88"              ,   2,       -35.6,        15.5
"Line.L89"              ,   1,         8.9,       -12.2,         0.0,         0.0,         0.0,         0.0
"Line.L89"              ,   2,        -8.9,        12.2
"Line.L90"              ,   1,        26.7,        -3.3,         0.0,         0.0,         0.0,         0.0
"Line.L90"              ,   2,       -26.7,         3.3
"Line.L91"              ,   1,         8.9,       -12.2,         0.0,         0.0,         0.0,         0.0
"Line.L91"              ,   2,        -8.9,        12.2
"Line.L92"              ,   1,        17.8,         8.9,         0.0,         0.0,         0.0,         0.0
"Line.L92"              ,   2,       -17.8,        -8.9
"Line.L93"              ,   1,         8.9,         4.5,         0.0,         0.0,         0.0,         0.0
"Line.L93"              ,   2,        -8.9,        -4.5
"Line.L94"              ,   1,         8.9,         4.5,         0.0,         0.0,         0.0,         0.0
"Line.L94"              ,   2,        -8.9,        -4.5
"Line.L95"              ,   1,         4.5,         2.2,         0.0,         0.0,         0.0,         0.0
"Line.L95"              ,   2,        -4.5,        -2.2
"Line.L96"              ,   1,        26.7,        13.4,         0.0,         0.0,         0.0,         0.0
"Line.L96"              ,   2,       -26.7,       -13.4
"Line.L97"              ,   1,        17.8,         8.9,         0.0,         0.0,         0.0,         0.0
"Line.L97"              ,   2,       -17.8,        -8.9
"Line.L98"              ,   1,         8.9,         4.4,         0.0,         0.0,         0.0,         0.0
"Line.L98"              ,   2,        -8.9,        -4.4
"Line.L99"              ,   1,         0.0,        -0.0,         0.0,         0.0,         0.0,         0.0
"Line.L99"              ,   2,         0.0,         0.0
"Line.L118"             ,   1,        71.3,        35.7,         0.0,         0.0,         0.0,         0.0
"Line.L118"             ,   2,       -71.3,       -35.7
"Line.L100"             ,   1,        22.3,        11.1,         0.0,         0.0,         0.0,         0.0
"Line.L100"             ,   2,       -22.3,       -11.1
"Line.L101"             ,   1,        49.0,        24.5,         0.0,         0.0,         0.0,         0.0
"Line.L101"             ,   2,       -49.0,       -24.5
"Line.L102"             ,   1,        17.8,         8.9,         0.0,         0.0,         0.0,         0.0
"Line.L102"             ,   2,       -17.8,        -8.9
"Line.L103"             ,   1,         8.9,         4.5,         0.0,         0.0,         0.0,         0.0
"Line.L103"             ,   2,        -8.9,        -4.5
"Line.L104"             ,   1,        17.8,         8.9,         0.0,         0.0,         0.0,         0.0
"Line.L104"             ,   2,       -17.8,        -8.9
"Line.L105"             ,   1,        31.2,        15.6,         0.0,         0.0,         0.0,         0.0
"Line.L105"             ,   2,       -31.2,       -15.6
"Line.L106"             ,   1,         8.9,         4.5,         0.0,         0.0,         0.0,         0.0
"Line.L106"             ,   2,        -8.9,        -4.5
"Line.L107"             ,   1,        31.2,        15.6,         0.0,         0.0,         0.0,         0.0
"Line.L107"             ,   2,       -31.2,       -15.6
"Line.L108"             ,   1,         0.0,        -0.0,         0.0,         0.0,         0.0,         0.0
"Line.L108"             ,   2,         0.0,         0.0
"Line.L109"             ,   1,        22.3,        11.1,         0.0,         0.0,         0.0,         0.0
"Line.L109"             ,   2,       -22.3,       -11.1
"Line.L110"             ,   1,         4.5,         2.2,         0.0,         0.0,         0.0,         0.0
"Line.L110"             ,   2,        -4.5,        -2.2
"Line.L111"             ,   1,        17.8,         8.9,         0.0,         0.0,         0.0,         0.0
"Line.L111"             ,   2,       -17.8,        -8.9
"Line.L112"             ,   1,        13.4,         6.7,         0.0,         0.0,         0.0,         0.0
"Line.L112"             ,   2,       -13.4,        -6.7
"Line.L113"             ,   1,         4.5,         2.2,         0.0,         0.0,         0.0,         0.0
"Line.L113"             ,   2,        -4.5,        -2.2
"Line.L114"             ,   1,       168.5,       105.4,         0.0,         0.0,         0.0,         0.0
"Line.L114"             ,   2,      -168.4,      -105.1
"Line.L116"             ,   1,       444.9,        -1.9,         0.0,         0.0,         0.0,         0.0
"Line.L116"             ,   2,      -444.1,         3.6
"Line.L117"             ,   1,       318.8,       -75.6,         0.0,         0.0,         0.0,         0.0
"Line.L117"             ,   2,      -318.4,        76.4
"Line.SW1"              ,   1,       790.7,       204.6,         0.0,         0.0,         0.0,         0.0
"Line.SW1"              ,   2,      -790.7,      -204.6
"Line.SW2"              ,   1,       444.9,        -1.9,         0.0,         0.0,         0.0,         0.0
"Line.SW2"              ,   2,      -444.9,         1.9
"Line.SW3"              ,   1,       168.5,       105.4,         0.0,         0.0,         0.0,         0.0
"Line.SW3"              ,   2,      -168.5,      -105.4
