Element, Terminal, P(kW), Q(kvar),  P_Normal, Q_Normal, P_Emergency, Q_Emergency
"Line.L115"             ,   1,       982.0,       320.7,        63.7,        20.8,         0.0,         0.0
"Line.L115"             ,   2,      -977.7,      -312.0
"Line.L1"               ,   1,         5.5,         2.8,         0.0,         0.0,         0.0,         0.0
"Line.L1"               ,   2,        -5.5,        -2.8
"Line.L2"               ,   1,        27.6,        13.8,         0.0,         0.0,         0.0,         0.0
"Line.L2"               ,   2,       -27.5,       -13.8
"Line.L3"               ,   1,       933.7,       289.9,        17.1,         5.3,         0.0,         0.0
"Line.L3"               ,   2,      -930.8,      -284.0
"Line.L4"               ,   1,        11.0,         5.5,         0.0,         0.0,         0.0,         0.0
"Line.L4"               ,   2,       -11.0,        -5.5
"Line.L5"               ,   1,        16.5,         8.3,         0.0,         0.0,         0.0,         0.0
"Line.L5"               ,   2,       -16.5,        -8.3
"Line.L6"               ,   1,        11.0,         5.5,         0.0,         0.0,         0.0,         0.0
"Line.L6"               ,   2,       -11.0,        -5.5
"Line.L7"               ,   1,       925.3,       281.3,        11.3,         3.4,         0.0,         0.0
"Line.L7"               ,   2,      -923.4,      -277.4
"Line.L8"               ,   1,         5.5,         2.8,         0.0,         0.0,         0.0,         0.0
"Line.L8"               ,   2,        -5.5,        -2.8
"Line.L9"               ,   1,        27.6,        13.8,         0.0,         0.0,         0.0,         0.0
"Line.L9"               ,   2,       -27.5,       -13.8
"Line.L10"              ,   1,       890.3,       260.8,         0.0,         0.0,         0.0,         0.0
"Line.L10"              ,   2,      -887.7,      -255.4
"Line.L11"              ,   1,        16.5,         8.3,         0.0,         0.0,         0.0,         0.0
"Line.L11"              ,   2,       -16.5,        -8.3
"Line.L12"              ,   1,        27.5,        13.8,         0.0,         0.0,         0.0,         0.0
"Line.L12"              ,   2,       -27.5,       -13.8
"Line.L13"              ,   1,       308.8,       182.6,         0.0,         0.0,         0.0,         0.0
"Line.L13"              ,   2,      -307.7,      -180.3
"Line.L14"              ,   1,        11.0,         5.5,         0.0,         0.0,         0.0,         0.0
"Line.L14"              ,   2,       -11.0,        -5.5
"Line.L15"              ,   1,         5.5,         2.8,         0.0,         0.0,         0.0,         0.0
"Line.L15"              ,   2,        -5.5,        -2.8
"Line.L16"              ,   1,        11.0,         5.5,         0.0,         0.0,         0.0,         0.0
"Line.L16"              ,   2,       -11.0,        -5.5
"Line.L17"              ,   1,         5.5,         2.8,         0.0,         0.0,         0.0,         0.0
"Line.L17"              ,   2,        -5.5,        -2.8
"Line.L18"              ,   1,        22.0,        11.0,         0.0,         0.0,         0.0,         0.0
"Line.L18"              ,   2,       -22.0,       -11.0
"Line.L19"              ,   1,        77.2,        38.6,         0.0,         0.0,         0.0,         0.0
"Line.L19"              ,   2,       -77.1,       -38.6
"Line.L20"              ,   1,        11.0,         5.5,         0.0,         0.0,         0.0,         0.0
"Line.L20"              ,   2,       -11.0,        -5.5
"Line.L21"              ,   1,        11.0,         5.5,         0.0,         0.0,         0.0,         0.0
"Line.L21"              ,   2,       -11.0,        -5.5
"Line.L22"              ,   1,        66.1,        33.1,         0.0,         0.0,         0.0,         0.0
"Line.L22"              ,   2,       -66.1,       -33.1
"Line.L23"              ,   1,        11.0,         5.5,         0.0,         0.0,         0.0,         0.0
"Line.L23"              ,   2,       -11.0,        -5.5
"Line.L24"              ,   1,        55.1,        27.6,         0.0,         0.0,         0.0,         0.0
"Line.L24"              ,   2,       -55.1,       -27.5
"Line.L25"              ,   1,        22.0,        11.0,         0.0,         0.0,         0.0,         0.0
"Line.L25"              ,   2,       -22.0,       -11.0
"Line.L26"              ,   1,        33.0,        16.5,         0.0,         0.0,         0.0,         0.0
"Line.L26"              ,   2,       -33.0,       -16.5
"Line.L27"              ,   1,        11.0,         5.5,         0.0,         0.0,         0.0,         0.0
"Line.L27"              ,   2,       -11.0,        -5.5
"Line.L28"              ,   1,        11.0,         5.5,         0.0,         0.0,         0.0,         0.0
"Line.L28"              ,   2,       -11.0,        -5.5
"Line.L29"              ,   1,        11.0,         5.5,         0.0,         0.0,         0.0,         0.0
"Line.L29"              ,   2,       -11.0,        -5.5
"Line.L30"              ,   1,        22.0,        11.0,         0.0,         0.0,         0.0,         0.0
"Line.L30"              ,   2,       -22.0,       -11.0
"Line.L31"              ,   1,        11.0,         5.5,         0.0,         0.0,         0.0,         0.0
"Line.L31"              ,   2,       -11.0,        -5.5
"Line.L32"              ,   1,        -0.0,        -0.0,         0.0,         0.0,         0.0,         0.0
"Line.L32"              ,   2,        -0.0,        -0.0
"Line.L33"              ,   1,         5.5,         2.8,         0.0,         0.0,         0.0,         0.0
"Line.L33"              ,   2,        -5.5,        -2.8
"Line.L34"              ,   1,        16.5,         8.3,         0.0,         0.0,         0.0,         0.0
"Line.L34"              ,   2,       -16.5,        -8.3
"Line.L35"              ,   1,        22.0,        11.0,         0.0,         0.0,         0.0,         0.0
"Line.L35"              ,   2,       -22.0,       -11.0
"Line.L36"              ,   1,       175.2,       113.7,         0.0,         0.0,         0.0,         0.0
"Line.L36"              ,   2,      -175.1,      -113.4
"Line.L37"              ,   1,        11.0,         5.5,         0.0,         0.0,         0.0,         0.0
"Line.L37"              ,   2,       -11.0,        -5.5
"Line.L38"              ,   1,        11.0,         5.5,         0.0,         0.0,         0.0,         0.0
"Line.L38"              ,   2,       -11.0,        -5.5
"Line.L39"              ,   1,         5.5,         2.8,         0.0,         0.0,         0.0,         0.0
"Line.L39"              ,   2,        -5.5,        -2.8
"Line.L40"              ,   1,         5.5,         2.8,         0.0,         0.0,         0.0,         0.0
"Line.L40"              ,   2,        -5.5,        -2.8
"Line.L41"              ,   1,       169.6,       110.7,         0.0,         0.0,         0.0,         0.0
"Line.L41"              ,   2,      -169.5,      -110.5
"Line.L42"              ,   1,        11.0,         5.5,         0.0,         0.0,         0.0,         0.0
"Line.L42"              ,   2,       -11.0,        -5.5
"Line.L43"              ,   1,       153.0,       102.2,         0.0,         0.0,         0.0,         0.0
"Line.L43"              ,   2,      -152.9,      -102.1
"Line.L44"              ,   1,        11.0,         5.5,         0.0,         0.0,         0.0,         0.0
"Line.L44"              ,   2,       -11.0,        -5.5
"Line.L45"              ,   1,       141.9,        96.6,         0.0,         0.0,         0.0,         0.0
"Line.L45"              ,   2,      -141.8,       -96.4
"Line.L46"              ,   1,         5.5,         2.8,         0.0,         0.0,         0.0,         0.0
"Line.L46"              ,   2,        -5.5,        -2.8
"Line.L47"              ,   1,        57.8,        41.3,         0.0,         0.0,         0.0,         0.0
"Line.L47"              ,   2,       -57.8,       -41.3
"Line.L48"              ,   1,        55.1,        34.4,         0.0,         0.0,         0.0,         0.0
"Line.L48"              ,   2,       -55.1,       -34.4
"Line.L49"              ,   1,        16.5,         8.3,         0.0,         0.0,         0.0,         0.0
"Line.L49"              ,   2,       -16.5,        -8.3
"Line.L50"              ,   1,         5.5,         2.7,         0.0,         0.0,         0.0,         0.0
"Line.L50"              ,   2,        -5.5,        -2.8
"Line.L51"              ,   1,         0.0,        -0.0,         0.0,         0.0,         0.0,         0.0
"Line.L51"              ,   2,        -0.0,        -0.0
"Line.L52"              ,   1,       539.0,        51.0,         0.0,         0.0,         0.0,         0.0
"Line.L52"              ,   2,      -538.4,       -49.7
"Line.L53"              ,   1,       527.4,        44.2,         0.0,         0.0,         0.0,         0.0
"Line.L53"              ,   2,      -527.1,       -43.5
"Line.L54"              ,   1,        11.0,         5.5,         0.0,         0.0,         0.0,         0.0
"Line.L54"              ,   2,       -11.0,        -5.5
"Line.L55"              ,   1,       516.0,        38.0,         0.0,         0.0,         0.0,         0.0
"Line.L55"              ,   2,      -515.1,       -36.0
"Line.L56"              ,   1,         5.5,         2.8,         0.0,         0.0,         0.0,         0.0
"Line.L56"              ,   2,        -5.5,        -2.8
"Line.L57"              ,   1,        11.0,         5.5,         0.0,         0.0,         0.0,         0.0
"Line.L57"              ,   2,       -11.0,        -5.5
"Line.L58"              ,   1,       504.1,        30.5,         0.0,         0.0,         0.0,         0.0
"Line.L58"              ,   2,      -502.1,       -26.4
"Line.L59"              ,   1,         5.5,         2.8,         0.0,         0.0,         0.0,         0.0
"Line.L59"              ,   2,        -5.5,        -2.8
"Line.L60"              ,   1,         0.0,        -0.0,         0.0,         0.0,         0.0,         0.0
"Line.L60"              ,   2,        -0.0,         0.0
"Line.L61"              ,   1,       102.2,        57.9,         0.0,         0.0,         0.0,         0.0
"Line.L61"              ,   2,      -102.1,       -57.9
"Line.L62"              ,   1,        91.1,        52.3,         0.0,         0.0,         0.0,         0.0
"Line.L62"              ,   2,       -91.0,       -52.3
"Line.L63"              ,   1,        80.0,        46.8,         0.0,         0.0,         0.0,         0.0
"Line.L63"              ,   2,       -79.9,       -46.8
"Line.L64"              ,   1,        59.3,        37.2,         0.0,         0.0,         0.0,         0.0
"Line.L64"              ,   2,       -59.2,       -37.2
"Line.L65"              ,   1,        20.7,         9.6,         0.0,         0.0,         0.0,         0.0
"Line.L65"              ,   2,       -20.6,        -9.6
"Line.L66"              ,   1,        33.1,        16.5,         0.0,         0.0,         0.0,         0.0
"Line.L66"              ,   2,       -33.1,       -16.5
"Line.L67"              ,   1,       239.3,      -112.9,         0.0,         0.0,         0.0,         0.0
"Line.L67"              ,   2,      -239.1,       113.4
"Line.L68"              ,   1,       121.4,        60.9,         0.0,         0.0,         0.0,         0.0
"Line.L68"              ,   2,      -121.3,       -60.8
"Line.L69"              ,   1,        27.6,        13.8,         0.0,         0.0,         0.0,         0.0
"Line.L69"              ,   2,       -27.5,       -13.8
"Line.L70"              ,   1,        16.5,         8.3,         0.0,         0.0,         0.0,         0.0
"Line.L70"              ,   2,       -16.5,        -8.3
"Line.L71"              ,   1,        11.0,         5.5,         0.0,         0.0,         0.0,         0.0
"Line.L71"              ,   2,       -11.0,        -5.5
"Line.L72"              ,   1,        33.1,        16.5,         0.0,         0.0,         0.0,         0.0
"Line.L72"              ,   2,       -33.1,       -16.5
"Line.L73"              ,   1,       206.0,      -129.9,         0.0,         0.0,         0.0,         0.0
"Line.L73"              ,   2,      -205.8,       130.2
"Line.L74"              ,   1,        22.0,        11.0,         0.0,         0.0,         0.0,         0.0
"Line.L74"              ,   2,       -22.0,       -11.0
"Line.L75"              ,   1,        11.0,         5.5,         0.0,         0.0,         0.0,         0.0
"Line.L75"              ,   2,       -11.0,        -5.5
"Line.L76"              ,   1,        66.7,      -165.7,         0.0,         0.0,         0.0,         0.0
"Line.L76"              ,   2,       -66.6,       166.0
"Line.L77"              ,   1,        71.7,       -14.1,         0.0,         0.0,         0.0,         0.0
"Line.L77"              ,   2,       -71.6,        14.1
"Line.L78"              ,   1,        55.6,      -171.5,         0.0,         0.0,         0.0,         0.0
"Line.L78"              ,   2,       -55.5,       171.5
"Line.L79"              ,   1,        11.0,         5.5,         0.0,         0.0,         0.0,         0.0
"Line.L79"              ,   2,       -11.0,        -5.5
"Line.L80"              ,   1,        44.5,      -177.0,         0.0,         0.0,         0.0,         0.0
"Line.L80"              ,   2,       -44.3,       177.4
"Line.L81"              ,   1,        33.3,      -182.9,         0.0,         0.0,         0.0,         0.0
"Line.L81"              ,   2,       -33.3,       183.0
"Line.L82"              ,   1,        16.7,      -191.3,         0.0,         0.0,         0.0,         0.0
"Line.L82"              ,   2,       -16.6,       191.5
"Line.L83"              ,   1,        16.5,         8.3,         0.0,         0.0,         0.0,         0.0
"Line.L83"              ,   2,       -16.5,        -8.3
"Line.L84"              ,   1,         5.6,      -197.0,         0.0,         0.0,         0.0,         0.0
"Line.L84"              ,   2,        -5.5,       197.2
"Line.L85"              ,   1,        11.0,         5.5,         0.0,         0.0,         0.0,         0.0
"Line.L85"              ,   2,       -11.0,        -5.5
"Line.L86"              ,   1,        66.1,       -16.9,         0.0,         0.0,         0.0,         0.0
"Line.L86"              ,   2,       -66.1,        16.9
"Line.L87"              ,   1,        11.0,       -11.2,         0.0,         0.0,         0.0,         0.0
"Line.L87"              ,   2,       -11.0,        11.2
"Line.L88"              ,   1,        44.1,       -11.3,         0.0,         0.0,         0.0,         0.0
"Line.L88"              ,   2,       -44.1,        11.3
"Line.L89"              ,   1,        11.0,       -11.2,         0.0,         0.0,         0.0,         0.0
"Line.L89"              ,   2,       -11.0,        11.2
"Line.L90"              ,   1,        33.0,        -0.1,         0.0,         0.0,         0.0,         0.0
"Line.L90"              ,   2,       -33.0,         0.1
"Line.L91"              ,   1,        11.0,       -11.2,         0.0,         0.0,         0.0,         0.0
"Line.L91"              ,   2,       -11.0,        11.2
"Line.L92"              ,   1,        22.0,        11.0,         0.0,         0.0,         0.0,         0.0
"Line.L92"              ,   2,       -22.0,       -11.0
"Line.L93"              ,   1,        11.0,         5.5,         0.0,         0.0,         0.0,         0.0
"Line.L93"              ,   2,       -11.0,        -5.5
"Line.L94"              ,   1,        11.0,         5.5,         0.0,         0.0,         0.0,         0.0
"Line.L94"              ,   2,       -11.0,        -5.5
"Line.L95"              ,   1,         5.5,         2.8,         0.0,         0.0,         0.0,         0.0
"Line.L95"              ,   2,        -5.5,        -2.8
"Line.L96"              ,   1,        33.0,        16.5,         0.0,         0.0,         0.0,         0.0
"Line.L96"              ,   2,       -33.0,       -16.5
"Line.L97"              ,   1,        22.0,        11.0,         0.0,         0.0,         0.0,         0.0
"Line.L97"              ,   2,       -22.0,       -11.0
"Line.L98"              ,   1,        11.0,         5.5,         0.0,         0.0,         0.0,         0.0
"Line.L98"              ,   2,       -11.0,        -5.5
"Line.L99"              ,   1,         0.0,        -0.0,         0.0,         0.0,         0.0,         0.0
"Line.L99"              ,   2,        -0.0,         0.0
"Line.L118"             ,   1,        88.3,        44.2,         0.0,         0.0,         0.0,         0.0
"Line.L118"             ,   2,       -88.2,       -44.2
"Line.L100"             ,   1,        27.6,        13.8,         0.0,         0.0,         0.0,         0.0
"Line.L100"             ,   2,       -27.5,       -13.8
"Line.L101"             ,   1,        60.7,        30.4,         0.0,         0.0,         0.0,         0.0
"Line.L101"             ,   2,       -60.7,       -30.4
"Line.L102"             ,   1,        22.0,        11.0,         0.0,         0.0,         0.0,         0.0
"Line.L102"             ,   2,       -22.0,       -11.0
"Line.L103"             ,   1,        11.0,         5.5,         0.0,         0.0,         0.0,         0.0
"Line.L103"             ,   2,       -11.0,        -5.5
"Line.L104"             ,   1,        22.0,        11.0,         0.0,         0.0,         0.0,         0.0
"Line.L104"             ,   2,       -22.0,       -11.0
"Line.L105"             ,   1,        38.6,        19.3,         0.0,         0.0,         0.0,         0.0
"Line.L105"             ,   2,       -38.6,       -19.3
"Line.L106"             ,   1,        11.0,         5.5,         0.0,         0.0,         0.0,         0.0
"Line.L106"             ,   2,       -11.0,        -5.5
"Line.L107"             ,   1,        38.6,        19.3,         0.0,         0.0,         0.0,         0.0
"Line.L107"             ,   2,       -38.6,       -19.3
"Line.L108"             ,   1,         0.0,        -0.0,         0.0,         0.0,         0.0,         0.0
"Line.L108"             ,   2,         0.0,         0.0
"Line.L109"             ,   1,        27.6,        13.8,         0.0,         0.0,         0.0,         0.0
"Line.L109"             ,   2,       -27.5,       -13.8
"Line.L110"             ,   1,         5.5,         2.8,         0.0,         0.0,         0.0,         0.0
"Line.L110"             ,   2,        -5.5,        -2.8
"Line.L111"             ,   1,        22.0,        11.0,         0.0,         0.0,         0.0,         0.0
"Line.L111"             ,   2,       -22.0,       -11.0
"Line.L112"             ,   1,        16.5,         8.3,         0.0,         0.0,         0.0,         0.0
"Line.L112"             ,   2,       -16.5,        -8.3
"Line.L113"             ,   1,         5.5,         2.8,         0.0,         0.0,         0.0,         0.0
"Line.L113"             ,   2,        -5.5,        -2.8
"Line.L114"             ,   1,       208.5,       130.7,         0.0,         0.0,         0.0,         0.0
"Line.L114"             ,   2,      -208.3,      -130.2
"Line.L116"             ,   1,       551.3,        59.1,         0.0,         0.0,         0.0,         0.0
"Line.L116"             ,   2,      -550.1,       -56.5
"Line.L117"             ,   1,       394.3,       -34.3,         0.0,         0.0,         0.0,         0.0
"Line.L117"             ,   2,      -393.7,        35.5
"Line.SW1"              ,   1,       982.0,       320.7,        63.7,        20.8,         0.0,         0.0
"Line.SW1"              ,   2,      -982.0,      -320.7
"Line.SW2"              ,   1,       551.3,        59.1,         0.0,         0.0,         0.0,         0.0
"Line.SW2"              ,   2,      -551.3,       -59.1
"Line.SW3"              ,   1,       208.5,       130.7,         0.0,         0.0,         0.0,         0.0
"Line.SW3"              ,   2,      -208.5,      -130.7
