Element, Terminal, P(kW), Q(kvar),  P_Normal, Q_Normal, P_Emergency, Q_Emergency
"Line.L115"             ,   1,       934.6,       291.6,        12.4,         3.9,         0.0,         0.0
"Line.L115"             ,   2,      -930.7,      -283.8
"Line.L1"               ,   1,         5.2,         2.6,         0.0,         0.0,         0.0,         0.0
"Line.L1"               ,   2,        -5.2,        -2.6
"Line.L2"               ,   1,        26.2,        13.1,         0.0,         0.0,         0.0,         0.0
"Line.L2"               ,   2,       -26.2,       -13.1
"Line.L3"               ,   1,       888.8,       262.8,         0.0,         0.0,         0.0,         0.0
"Line.L3"               ,   2,      -886.2,      -257.5
"Line.L4"               ,   1,        10.5,         5.2,         0.0,         0.0,         0.0,         0.0
"Line.L4"               ,   2,       -10.5,        -5.2
"Line.L5"               ,   1,        15.7,         7.9,         0.0,         0.0,         0.0,         0.0
"Line.L5"               ,   2,       -15.7,        -7.9
"Line.L6"               ,   1,        10.5,         5.2,         0.0,         0.0,         0.0,         0.0
"Line.L6"               ,   2,       -10.5,        -5.2
"Line.L7"               ,   1,       880.9,       254.9,         0.0,         0.0,         0.0,         0.0
"Line.L7"               ,   2,      -879.2,      -251.4
"Line.L8"               ,   1,         5.2,         2.6,         0.0,         0.0,         0.0,         0.0
"Line.L8"               ,   2,        -5.2,        -2.6
"Line.L9"               ,   1,        26.2,        13.1,         0.0,         0.0,         0.0,         0.0
"Line.L9"               ,   2,       -26.2,       -13.1
"Line.L10"              ,   1,       847.7,       235.6,         0.0,         0.0,         0.0,         0.0
"Line.L10"              ,   2,      -845.3,      -230.8
"Line.L11"              ,   1,        15.7,         7.9,         0.0,         0.0,         0.0,         0.0
"Line.L11"              ,   2,       -15.7,        -7.9
"Line.L12"              ,   1,        26.2,        13.1,         0.0,         0.0,         0.0,         0.0
"Line.L12"              ,   2,       -26.2,       -13.1
"Line.L13"              ,   1,       294.1,       173.8,         0.0,         0.0,         0.0,         0.0
"Line.L13"              ,   2,      -293.1,      -171.7
"Line.L14"              ,   1,        10.5,         5.2,         0.0,         0.0,         0.0,         0.0
"Line.L14"              ,   2,       -10.5,        -5.2
"Line.L15"              ,   1,         5.2,         2.6,         0.0,         0.0,         0.0,         0.0
"Line.L15"              ,   2,        -5.2,        -2.6
"Line.L16"              ,   1,        10.5,         5.2,         0.0,         0.0,         0.0,         0.0
"Line.L16"              ,   2,       -10.5,        -5.2
"Line.L17"              ,   1,         5.2,         2.6,         0.0,         0.0,         0.0,         0.0
"Line.L17"              ,   2,        -5.2,        -2.6
"Line.L18"              ,   1,        21.0,        10.5,         0.0,         0.0,         0.0,         0.0
"Line.L18"              ,   2,       -21.0,       -10.5
"Line.L19"              ,   1,        73.5,        36.8,         0.0,         0.0,         0.0,         0.0
"Line.L19"              ,   2,       -73.5,       -36.8
"Line.L20"              ,   1,        10.5,         5.2,         0.0,         0.0,         0.0,         0.0
"Line.L20"              ,   2,       -10.5,        -5.2
"Line.L21"              ,   1,        10.5,         5.2,         0.0,         0.0,         0.0,         0.0
"Line.L21"              ,   2,       -10.5,        -5.2
"Line.L22"              ,   1,        63.0,        31.5,         0.0,         0.0,         0.0,         0.0
"Line.L22"              ,   2,       -63.0,       -31.5
"Line.L23"              ,   1,        10.5,         5.2,         0.0,         0.0,         0.0,         0.0
"Line.L23"              ,   2,       -10.5,        -5.2
"Line.L24"              ,   1,        52.5,        26.3,         0.0,         0.0,         0.0,         0.0
"Line.L24"              ,   2,       -52.5,       -26.2
"Line.L25"              ,   1,        21.0,        10.5,         0.0,         0.0,         0.0,         0.0
"Line.L25"              ,   2,       -21.0,       -10.5
"Line.L26"              ,   1,        31.5,        15.7,         0.0,         0.0,         0.0,         0.0
"Line.L26"              ,   2,       -31.5,       -15.7
"Line.L27"              ,   1,        10.5,         5.2,         0.0,         0.0,         0.0,         0.0
"Line.L27"              ,   2,       -10.5,        -5.2
"Line.L28"              ,   1,        10.5,         5.2,         0.0,         0.0,         0.0,         0.0
"Line.L28"              ,   2,       -10.5,        -5.2
"Line.L29"              ,   1,        10.5,         5.2,         0.0,         0.0,         0.0,         0.0
"Line.L29"              ,   2,       -10.5,        -5.2
"Line.L30"              ,   1,        21.0,        10.5,         0.0,         0.0,         0.0,         0.0
"Line.L30"              ,   2,       -21.0,       -10.5
"Line.L31"              ,   1,        10.5,         5.2,         0.0,         0.0,         0.0,         0.0
"Line.L31"              ,   2,       -10.5,        -5.2
"Line.L32"              ,   1,        -0.0,        -0.0,         0.0,         0.0,         0.0,         0.0
"Line.L32"              ,   2,         0.0,        -0.0
"Line.L33"              ,   1,         5.2,         2.6,         0.0,         0.0,         0.0,         0.0
"Line.L33"              ,   2,        -5.2,        -2.6
"Line.L34"              ,   1,        15.7,         7.9,         0.0,         0.0,         0.0,         0.0
"Line.L34"              ,   2,       -15.7,        -7.9
"Line.L35"              ,   1,        21.0,        10.5,         0.0,         0.0,         0.0,         0.0
"Line.L35"              ,   2,       -21.0,       -10.5
"Line.L36"              ,   1,       166.9,       108.3,         0.0,         0.0,         0.0,         0.0
"Line.L36"              ,   2,      -166.8,      -108.0
"Line.L37"              ,   1,        10.5,         5.2,         0.0,         0.0,         0.0,         0.0
"Line.L37"              ,   2,       -10.5,        -5.2
"Line.L38"              ,   1,        10.5,         5.2,         0.0,         0.0,         0.0,         0.0
"Line.L38"              ,   2,       -10.5,        -5.2
"Line.L39"              ,   1,         5.2,         2.6,         0.0,         0.0,         0.0,         0.0
"Line.L39"              ,   2,        -5.2,        -2.6
"Line.L40"              ,   1,         5.2,         2.6,         0.0,         0.0,         0.0,         0.0
"Line.L40"              ,   2,        -5.2,        -2.6
"Line.L41"              ,   1,       161.6,       105.4,         0.0,         0.0,         0.0,         0.0
"Line.L41"              ,   2,      -161.5,      -105.2
"Line.L42"              ,   1,        10.5,         5.2,         0.0,         0.0,         0.0,         0.0
"Line.L42"              ,   2,       -10.5,        -5.2
"Line.L43"              ,   1,       145.7,        97.4,         0.0,         0.0,         0.0,         0.0
"Line.L43"              ,   2,      -145.7,       -97.2
"Line.L44"              ,   1,        10.5,         5.2,         0.0,         0.0,         0.0,         0.0
"Line.L44"              ,   2,       -10.5,        -5.2
"Line.L45"              ,   1,       135.2,        92.0,         0.0,         0.0,         0.0,         0.0
"Line.L45"              ,   2,      -135.1,       -91.8
"Line.L46"              ,   1,         5.2,         2.6,         0.0,         0.0,         0.0,         0.0
"Line.L46"              ,   2,        -5.2,        -2.6
"Line.L47"              ,   1,        55.1,        39.4,         0.0,         0.0,         0.0,         0.0
"Line.L47"              ,   2,       -55.1,       -39.3
"Line.L48"              ,   1,        52.5,        32.8,         0.0,         0.0,         0.0,         0.0
"Line.L48"              ,   2,       -52.5,       -32.8
"Line.L49"              ,   1,        15.7,         7.9,         0.0,         0.0,         0.0,         0.0
"Line.L49"              ,   2,       -15.7,        -7.9
"Line.L50"              ,   1,         5.2,         2.6,         0.0,         0.0,         0.0,         0.0
"Line.L50"              ,   2,        -5.2,        -2.6
"Line.L51"              ,   1,         0.0,        -0.0,         0.0,         0.0,         0.0,         0.0
"Line.L51"              ,   2,         0.0,         0.0
"Line.L52"              ,   1,       513.3,        36.3,         0.0,         0.0,         0.0,         0.0
"Line.L52"              ,   2,      -512.8,       -35.2
"Line.L53"              ,   1,       502.3,        29.9,         0.0,         0.0,         0.0,         0.0
"Line.L53"              ,   2,      -502.0,       -29.3
"Line.L54"              ,   1,        10.5,         5.2,         0.0,         0.0,         0.0,         0.0
"Line.L54"              ,   2,       -10.5,        -5.2
"Line.L55"              ,   1,       491.5,        24.0,         0.0,         0.0,         0.0,         0.0
"Line.L55"              ,   2,      -490.6,       -22.2
"Line.L56"              ,   1,         5.2,         2.6,         0.0,         0.0,         0.0,         0.0
"Line.L56"              ,   2,        -5.2,        -2.6
"Line.L57"              ,   1,        10.5,         5.2,         0.0,         0.0,         0.0,         0.0
"Line.L57"              ,   2,       -10.5,        -5.2
"Line.L58"              ,   1,       480.1,        17.0,         0.0,         0.0,         0.0,         0.0
"Line.L58"              ,   2,      -478.3,       -13.3
"Line.L59"              ,   1,         5.2,         2.6,         0.0,         0.0,         0.0,         0.0
"Line.L59"              ,   2,        -5.2,        -2.6
"Line.L60"              ,   1,         0.0,        -0.0,         0.0,         0.0,         0.0,         0.0
"Line.L60"              ,   2,        -0.0,         0.0
"Line.L61"              ,   1,        97.4,        55.1,         0.0,         0.0,         0.0,         0.0
"Line.L61"              ,   2,       -97.3,       -55.1
"Line.L62"              ,   1,        86.8,        49.9,         0.0,         0.0,         0.0,         0.0
"Line.L62"              ,   2,       -86.7,       -49.8
"Line.L63"              ,   1,        76.2,        44.6,         0.0,         0.0,         0.0,         0.0
"Line.L63"              ,   2,       -76.1,       -44.6
"Line.L64"              ,   1,        56.5,        35.4,         0.0,         0.0,         0.0,         0.0
"Line.L64"              ,   2,       -56.4,       -35.4
"Line.L65"              ,   1,        19.7,         9.2,         0.0,         0.0,         0.0,         0.0
"Line.L65"              ,   2,       -19.7,        -9.2
"Line.L66"              ,   1,        31.5,        15.8,         0.0,         0.0,         0.0,         0.0
"Line.L66"              ,   2,       -31.5,       -15.8
"Line.L67"              ,   1,       228.0,      -119.3,         0.0,         0.0,         0.0,         0.0
"Line.L67"              ,   2,      -227.8,       119.8
"Line.L68"              ,   1,       115.6,        58.0,         0.0,         0.0,         0.0,         0.0
"Line.L68"              ,   2,      -115.6,       -57.9
"Line.L69"              ,   1,        26.2,        13.1,         0.0,         0.0,         0.0,         0.0
"Line.L69"              ,   2,       -26.2,       -13.1
"Line.L70"              ,   1,        15.7,         7.9,         0.0,         0.0,         0.0,         0.0
"Line.L70"              ,   2,       -15.7,        -7.9
"Line.L71"              ,   1,        10.5,         5.2,         0.0,         0.0,         0.0,         0.0
"Line.L71"              ,   2,       -10.5,        -5.2
"Line.L72"              ,   1,        31.5,        15.8,         0.0,         0.0,         0.0,         0.0
"Line.L72"              ,   2,       -31.5,       -15.7
"Line.L73"              ,   1,       196.3,      -135.5,         0.0,         0.0,         0.0,         0.0
"Line.L73"              ,   2,      -196.1,       135.8
"Line.L74"              ,   1,        21.0,        10.5,         0.0,         0.0,         0.0,         0.0
"Line.L74"              ,   2,       -21.0,       -10.5
"Line.L75"              ,   1,        10.5,         5.2,         0.0,         0.0,         0.0,         0.0
"Line.L75"              ,   2,       -10.5,        -5.2
"Line.L76"              ,   1,        63.6,      -167.2,         0.0,         0.0,         0.0,         0.0
"Line.L76"              ,   2,       -63.5,       167.5
"Line.L77"              ,   1,        68.3,       -15.8,         0.0,         0.0,         0.0,         0.0
"Line.L77"              ,   2,       -68.2,        15.8
"Line.L78"              ,   1,        53.0,      -172.8,         0.0,         0.0,         0.0,         0.0
"Line.L78"              ,   2,       -52.9,       172.8
"Line.L79"              ,   1,        10.5,         5.2,         0.0,         0.0,         0.0,         0.0
"Line.L79"              ,   2,       -10.5,        -5.2
"Line.L80"              ,   1,        42.4,      -178.1,         0.0,         0.0,         0.0,         0.0
"Line.L80"              ,   2,       -42.3,       178.4
"Line.L81"              ,   1,        31.8,      -183.7,         0.0,         0.0,         0.0,         0.0
"Line.L81"              ,   2,       -31.7,       183.8
"Line.L82"              ,   1,        15.9,      -191.7,         0.0,         0.0,         0.0,         0.0
"Line.L82"              ,   2,       -15.8,       191.9
"Line.L83"              ,   1,        15.8,         7.9,         0.0,         0.0,         0.0,         0.0
"Line.L83"              ,   2,       -15.7,        -7.9
"Line.L84"              ,   1,         5.4,      -197.2,         0.0,         0.0,         0.0,         0.0
"Line.L84"              ,   2,        -5.2,       197.4
"Line.L85"              ,   1,        10.5,         5.2,         0.0,         0.0,         0.0,         0.0
"Line.L85"              ,   2,       -10.5,        -5.2
"Line.L86"              ,   1,        63.0,       -18.5,         0.0,         0.0,         0.0,         0.0
"Line.L86"              ,   2,       -63.0,        18.5
"Line.L87"              ,   1,        10.5,       -11.4,         0.0,         0.0,         0.0,         0.0
"Line.L87"              ,   2,       -10.5,        11.4
"Line.L88"              ,   1,        42.0,       -12.3,         0.0,         0.0,         0.0,         0.0
"Line.L88"              ,   2,       -42.0,        12.3
"Line.L89"              ,   1,        10.5,       -11.4,         0.0,         0.0,         0.0,         0.0
"Line.L89"              ,   2,       -10.5,        11.4
"Line.L90"              ,   1,        31.5,        -0.9,         0.0,         0.0,         0.0,         0.0
"Line.L90"              ,   2,       -31.5,         0.9
"Line.L91"              ,   1,        10.5,       -11.4,         0.0,         0.0,         0.0,         0.0
"Line.L91"              ,   2,       -10.5,        11.4
"Line.L92"              ,   1,        21.0,        10.5,         0.0,         0.0,         0.0,         0.0
"Line.L92"              ,   2,       -21.0,       -10.5
"Line.L93"              ,   1,        10.5,         5.2,         0.0,         0.0,         0.0,         0.0
"Line.L93"              ,   2,       -10.5,        -5.2
"Line.L94"              ,   1,        10.5,         5.2,         0.0,         0.0,         0.0,         0.0
"Line.L94"              ,   2,       -10.5,        -5.2
"Line.L95"              ,   1,         5.2,         2.6,         0.0,         0.0,         0.0,         0.0
"Line.L95"              ,   2,        -5.2,        -2.6
"Line.L96"              ,   1,        31.5,        15.7,         0.0,         0.0,         0.0,         0.0
"Line.L96"              ,   2,       -31.5,       -15.7
"Line.L97"              ,   1,        21.0,        10.5,         0.0,         0.0,         0.0,         0.0
"Line.L97"              ,   2,       -21.0,       -10.5
"Line.L98"              ,   1,        10.5,         5.2,         0.0,         0.0,         0.0,         0.0
"Line.L98"              ,   2,       -10.5,        -5.2
"Line.L99"              ,   1,         0.0,        -0.0,         0.0,         0.0,         0.0,         0.0
"Line.L99"              ,   2,         0.0,         0.0
"Line.L118"             ,   1,        84.1,        42.1,         0.0,         0.0,         0.0,         0.0
"Line.L118"             ,   2,       -84.1,       -42.1
"Line.L100"             ,   1,        26.3,        13.1,         0.0,         0.0,         0.0,         0.0
"Line.L100"             ,   2,       -26.2,       -13.1
"Line.L101"             ,   1,        57.8,        28.9,         0.0,         0.0,         0.0,         0.0
"Line.L101"             ,   2,       -57.8,       -28.9
"Line.L102"             ,   1,        21.0,        10.5,         0.0,         0.0,         0.0,         0.0
"Line.L102"             ,   2,       -21.0,       -10.5
"Line.L103"             ,   1,        10.5,         5.2,         0.0,         0.0,         0.0,         0.0
"Line.L103"             ,   2,       -10.5,        -5.2
"Line.L104"             ,   1,        21.0,        10.5,         0.0,         0.0,         0.0,         0.0
"Line.L104"             ,   2,       -21.0,       -10.5
"Line.L105"             ,   1,        36.8,        18.4,         0.0,         0.0,         0.0,         0.0
"Line.L105"             ,   2,       -36.8,       -18.4
"Line.L106"             ,   1,        10.5,         5.2,         0.0,         0.0,         0.0,         0.0
"Line.L106"             ,   2,       -10.5,        -5.2
"Line.L107"             ,   1,        36.8,        18.4,         0.0,         0.0,         0.0,         0.0
"Line.L107"             ,   2,       -36.7,       -18.4
"Line.L108"             ,   1,         0.0,        -0.0,         0.0,         0.0,         0.0,         0.0
"Line.L108"             ,   2,         0.0,         0.0
"Line.L109"             ,   1,        26.3,        13.1,         0.0,         0.0,         0.0,         0.0
"Line.L109"             ,   2,       -26.2,       -13.1
"Line.L110"             ,   1,         5.2,         2.6,         0.0,         0.0,         0.0,         0.0
"Line.L110"             ,   2,        -5.2,        -2.6
"Line.L111"             ,   1,        21.0,        10.5,         0.0,         0.0,         0.0,         0.0
"Line.L111"             ,   2,       -21.0,       -10.5
"Line.L112"             ,   1,        15.7,         7.9,         0.0,         0.0,         0.0,         0.0
"Line.L112"             ,   2,       -15.7,        -7.9
"Line.L113"             ,   1,         5.2,         2.6,         0.0,         0.0,         0.0,         0.0
"Line.L113"             ,   2,        -5.2,        -2.6
"Line.L114"             ,   1,       198.6,       124.4,         0.0,         0.0,         0.0,         0.0
"Line.L114"             ,   2,      -198.4,      -124.0
"Line.L116"             ,   1,       525.0,        43.9,         0.0,         0.0,         0.0,         0.0
"Line.L116"             ,   2,      -523.8,       -41.5
"Line.L117"             ,   1,       375.7,       -44.5,         0.0,         0.0,         0.0,         0.0
"Line.L117"             ,   2,      -375.1,        45.6
"Line.SW1"              ,   1,       934.6,       291.6,        12.4,         3.9,         0.0,         0.0
"Line.SW1"              ,   2,      -934.6,      -291.6
"Line.SW2"              ,   1,       525.0,        43.9,         0.0,         0.0,         0.0,         0.0
"Line.SW2"              ,   2,      -525.0,       -43.9
"Line.SW3"              ,   1,       198.6,       124.4,         0.0,         0.0,         0.0,         0.0
"Line.SW3"              ,   2,      -198.6,      -124.4
