Bus, BasekV, Node1, Magnitude1, Angle1, pu1
"150", 4.16, 1,       2400,    0.0,   0.99926
"149", 4.16, 1,       2415,    0.0,    1.0055
"1", 4.16, 1,     2400.1,   -0.4,    0.9993
"2", 4.16, 1,    2399.95,   -0.4,   0.99924
"3", 4.16, 1,    2399.05,   -0.4,   0.99887
"7", 4.16, 1,    2389.62,   -0.6,   0.99494
"4", 4.16, 1,    2398.72,   -0.4,   0.99873
"5", 4.16, 1,    2398.23,   -0.4,   0.99852
"6", 4.16, 1,    2397.81,   -0.4,   0.99835
"8", 4.16, 1,    2382.71,   -0.8,   0.99206
"12", 4.16, 1,    2382.52,   -0.8,   0.99198
"9", 4.16, 1,    2381.76,   -0.8,   0.99167
"13", 4.16, 1,    2372.87,   -1.1,   0.98797
"9R", 4.16, 1,    2307.33,   -0.8,   0.96068
"14", 4.16, 1,    2306.22,   -0.8,   0.96021
"34", 4.16, 1,    2372.24,   -1.1,    0.9877
"18", 4.16, 1,    2359.63,   -1.3,   0.98245
"11", 4.16, 1,    2305.78,   -0.9,   0.96003
"10", 4.16, 1,       2306,   -0.9,   0.96012
"15", 4.16, 1,    2371.98,   -1.1,   0.98759
"16", 4.16, 1,    2371.34,   -1.1,   0.98733
"17", 4.16, 1,    2371.68,   -1.1,   0.98747
"19", 4.16, 1,    2358.78,   -1.3,    0.9821
"21", 4.16, 1,    2358.52,   -1.3,   0.98199
"20", 4.16, 1,    2358.22,   -1.3,   0.98187
"22", 4.16, 1,    2357.63,   -1.3,   0.98162
"23", 4.16, 1,    2357.73,   -1.3,   0.98166
"24", 4.16, 1,    2356.79,   -1.4,   0.98127
"25", 4.16, 1,       2357,   -1.4,   0.98136
"25R", 4.16, 1,    2415.93,   -1.4,    1.0059
"26", 4.16, 1,    2415.55,   -1.4,    1.0057
"28", 4.16, 1,    2356.69,   -1.4,   0.98123
"27", 4.16, 1,     2415.4,   -1.4,    1.0057
"31", 4.16, 1,    2415.17,   -1.4,    1.0056
"33", 4.16, 1,    2414.57,   -1.4,    1.0053
"29", 4.16, 1,    2356.37,   -1.4,   0.98109
"30", 4.16, 1,    2356.18,   -1.4,   0.98102
"250", 4.16, 1,    2356.18,   -1.4,   0.98102
"32", 4.16, 1,    2414.92,   -1.4,    1.0055
"35", 4.16, 1,    2355.41,   -1.4,   0.98069
"36", 4.16, 1,    2354.69,   -1.4,   0.98039
"40", 4.16, 1,    2352.99,   -1.4,   0.97969
"37", 4.16, 1,    2354.17,   -1.4,   0.98018
"38", 4.16, 1,    2354.26,   -1.4,   0.98022
"39", 4.16, 1,    2353.98,   -1.4,    0.9801
"41", 4.16, 1,    2352.71,   -1.4,   0.97957
"42", 4.16, 1,    2350.64,   -1.4,   0.97871
"43", 4.16, 1,    2349.78,   -1.5,   0.97835
"44", 4.16, 1,    2348.92,   -1.5,   0.97799
"45", 4.16, 1,    2348.57,   -1.5,   0.97785
"47", 4.16, 1,     2346.9,   -1.5,   0.97715
"46", 4.16, 1,    2348.32,   -1.5,   0.97774
"48", 4.16, 1,    2346.39,   -1.5,   0.97694
"49", 4.16, 1,    2346.15,   -1.5,   0.97684
"50", 4.16, 1,    2345.95,   -1.5,   0.97676
"51", 4.16, 1,    2345.88,   -1.5,   0.97673
"151", 4.16, 1,    2345.88,   -1.5,   0.97673
"52", 4.16, 1,    2366.76,   -1.3,   0.98542
"53", 4.16, 1,    2363.82,   -1.5,    0.9842
"54", 4.16, 1,    2362.05,   -1.5,   0.98346
"55", 4.16, 1,    2361.91,   -1.5,    0.9834
"57", 4.16, 1,    2357.32,   -1.7,   0.98149
"56", 4.16, 1,    2361.84,   -1.5,   0.98337
"58", 4.16, 1,    2356.89,   -1.8,   0.98131
"60", 4.16, 1,    2347.67,   -2.2,   0.97747
"59", 4.16, 1,    2356.68,   -1.8,   0.98122
"61", 4.16, 1,    2347.67,   -2.2,   0.97747
"62", 4.16, 1,    2345.12,   -2.2,   0.97641
"63", 4.16, 1,    2343.51,   -2.2,   0.97574
"64", 4.16, 1,    2340.68,   -2.2,   0.97456
"65", 4.16, 1,     2338.1,   -2.2,   0.97349
"66", 4.16, 1,    2337.45,   -2.2,   0.97322
"67", 4.16, 1,     2286.4,   -2.4,   0.95196
"68", 4.16, 1,    2285.34,   -2.4,   0.95152
"72", 4.16, 1,    2286.48,   -2.5,   0.95199
"97", 4.16, 1,    2284.89,   -2.4,   0.95133
"69", 4.16, 1,    2284.13,   -2.4,   0.95102
"70", 4.16, 1,    2283.27,   -2.4,   0.95066
"71", 4.16, 1,    2282.78,   -2.4,   0.95046
"73", 4.16, 1,    2285.02,   -2.5,   0.95139
"76", 4.16, 1,    2286.87,   -2.5,   0.95216
"74", 4.16, 1,    2283.79,   -2.5,   0.95087
"75", 4.16, 1,    2283.08,   -2.5,   0.95058
"77", 4.16, 1,    2289.68,   -2.6,   0.95333
"86", 4.16, 1,     2286.2,   -2.6,   0.95188
"78", 4.16, 1,    2290.44,   -2.6,   0.95364
"79", 4.16, 1,    2290.32,   -2.6,   0.95359
"80", 4.16, 1,    2294.31,   -2.7,   0.95525
"81", 4.16, 1,    2295.83,   -2.7,   0.95589
"82", 4.16, 1,     2298.2,   -2.8,   0.95688
"84", 4.16, 1,    2294.05,   -2.8,   0.95515
"83", 4.16, 1,    2300.72,   -2.8,   0.95792
"85", 4.16, 1,    2293.22,   -2.8,    0.9548
"87", 4.16, 1,     2285.9,   -2.7,   0.95175
"88", 4.16, 1,    2285.91,   -2.7,   0.95176
"89", 4.16, 1,    2285.77,   -2.7,    0.9517
"90", 4.16, 1,     2285.8,   -2.7,   0.95171
"91", 4.16, 1,     2285.6,   -2.7,   0.95163
"92", 4.16, 1,    2285.63,   -2.7,   0.95164
"93", 4.16, 1,    2285.36,   -2.7,   0.95153
"94", 4.16, 1,    2284.87,   -2.7,   0.95133
"95", 4.16, 1,    2285.19,   -2.7,   0.95146
"96", 4.16, 1,    2285.02,   -2.7,   0.95139
"98", 4.16, 1,    2284.44,   -2.4,   0.95115
"99", 4.16, 1,    2283.84,   -2.4,    0.9509
"100", 4.16, 1,    2283.68,   -2.4,   0.95083
"450", 4.16, 1,    2283.68,   -2.4,   0.95083
"197", 4.16, 1,    2284.89,   -2.4,   0.95133
"101", 4.16, 1,     2283.8,   -2.4,   0.95088
"102", 4.16, 1,    2282.81,   -2.4,   0.95047
"105", 4.16, 1,    2282.97,   -2.4,   0.95054
"103", 4.16, 1,    2281.66,   -2.4,   0.94999
"104", 4.16, 1,    2280.43,   -2.4,   0.94947
"106", 4.16, 1,    2282.18,   -2.4,   0.95021
"108", 4.16, 1,    2282.35,   -2.4,   0.95028
"107", 4.16, 1,    2281.17,   -2.5,   0.94978
"109", 4.16, 1,    2279.57,   -2.5,   0.94912
"300", 4.16, 1,    2282.35,   -2.4,   0.95028
"110", 4.16, 1,    2278.24,   -2.5,   0.94857
"111", 4.16, 1,    2277.73,   -2.5,   0.94835
"112", 4.16, 1,     2277.8,   -2.5,   0.94838
"113", 4.16, 1,    2276.41,   -2.5,    0.9478
"114", 4.16, 1,    2276.12,   -2.5,   0.94768
"135", 4.16, 1,    2359.63,   -1.3,   0.98245
"152", 4.16, 1,    2372.87,   -1.1,   0.98796
"160R", 4.16, 1,    2288.99,   -2.2,   0.95304
"150R", 4.16, 1,       2415,    0.0,    1.0055
"160", 4.16, 1,    2347.67,   -2.2,   0.97747
"610", 4.16, 1,    2347.67,   -2.2,   0.97747
