Bus, BasekV, Node1, Magnitude1, Angle1, pu1
"150", 4.16, 1,       2400,    0.0,   0.99926
"149", 4.16, 1,       2415,    0.0,    1.0055
"1", 4.16, 1,    2400.28,   -0.4,   0.99938
"2", 4.16, 1,    2400.14,   -0.4,   0.99932
"3", 4.16, 1,    2399.24,   -0.4,   0.99895
"7", 4.16, 1,    2389.93,   -0.6,   0.99507
"4", 4.16, 1,    2398.91,   -0.4,   0.99881
"5", 4.16, 1,    2398.43,   -0.4,   0.99861
"6", 4.16, 1,    2398.02,   -0.4,   0.99843
"8", 4.16, 1,    2383.11,   -0.8,   0.99223
"12", 4.16, 1,    2382.93,   -0.8,   0.99215
"9", 4.16, 1,    2382.17,   -0.8,   0.99184
"13", 4.16, 1,     2373.4,   -1.1,   0.98818
"9R", 4.16, 1,    2307.73,   -0.8,   0.96084
"14", 4.16, 1,    2306.63,   -0.8,   0.96038
"34", 4.16, 1,    2372.76,   -1.1,   0.98792
"18", 4.16, 1,    2360.28,   -1.3,   0.98272
"11", 4.16, 1,    2306.19,   -0.8,    0.9602
"10", 4.16, 1,    2306.41,   -0.8,   0.96029
"15", 4.16, 1,    2372.51,   -1.1,   0.98782
"16", 4.16, 1,    2371.88,   -1.1,   0.98755
"17", 4.16, 1,    2372.22,   -1.1,   0.98769
"19", 4.16, 1,    2359.43,   -1.3,   0.98237
"21", 4.16, 1,    2359.18,   -1.3,   0.98226
"20", 4.16, 1,    2358.88,   -1.3,   0.98214
"22", 4.16, 1,    2358.29,   -1.3,   0.98189
"23", 4.16, 1,    2358.39,   -1.3,   0.98194
"24", 4.16, 1,    2357.46,   -1.3,   0.98155
"25", 4.16, 1,    2357.67,   -1.3,   0.98164
"25R", 4.16, 1,    2416.61,   -1.3,    1.0062
"26", 4.16, 1,    2416.24,   -1.4,     1.006
"28", 4.16, 1,    2357.36,   -1.4,   0.98151
"27", 4.16, 1,    2416.09,   -1.4,     1.006
"31", 4.16, 1,    2415.87,   -1.4,    1.0059
"33", 4.16, 1,    2415.26,   -1.4,    1.0056
"29", 4.16, 1,    2357.04,   -1.4,   0.98137
"30", 4.16, 1,    2356.86,   -1.4,    0.9813
"250", 4.16, 1,    2356.86,   -1.4,    0.9813
"32", 4.16, 1,    2415.62,   -1.4,    1.0058
"35", 4.16, 1,    2356.09,   -1.4,   0.98098
"36", 4.16, 1,    2355.38,   -1.4,   0.98068
"40", 4.16, 1,    2353.69,   -1.4,   0.97998
"37", 4.16, 1,    2354.87,   -1.4,   0.98047
"38", 4.16, 1,    2354.95,   -1.4,    0.9805
"39", 4.16, 1,    2354.68,   -1.4,   0.98039
"41", 4.16, 1,    2353.42,   -1.4,   0.97987
"42", 4.16, 1,    2351.36,   -1.4,   0.97901
"43", 4.16, 1,    2350.51,   -1.4,   0.97866
"44", 4.16, 1,    2349.66,   -1.5,    0.9783
"45", 4.16, 1,    2349.32,   -1.5,   0.97816
"47", 4.16, 1,    2347.66,   -1.5,   0.97747
"46", 4.16, 1,    2349.06,   -1.5,   0.97805
"48", 4.16, 1,    2347.15,   -1.5,   0.97726
"49", 4.16, 1,    2346.92,   -1.5,   0.97716
"50", 4.16, 1,    2346.72,   -1.5,   0.97708
"51", 4.16, 1,    2346.65,   -1.5,   0.97705
"151", 4.16, 1,    2346.65,   -1.5,   0.97705
"52", 4.16, 1,    2367.38,   -1.3,   0.98568
"53", 4.16, 1,    2364.49,   -1.5,   0.98448
"54", 4.16, 1,    2362.76,   -1.5,   0.98375
"55", 4.16, 1,    2362.62,   -1.5,    0.9837
"57", 4.16, 1,    2358.11,   -1.7,   0.98182
"56", 4.16, 1,    2362.54,   -1.5,   0.98367
"58", 4.16, 1,    2357.69,   -1.7,   0.98164
"60", 4.16, 1,    2348.64,   -2.2,   0.97787
"59", 4.16, 1,    2357.47,   -1.7,   0.98155
"61", 4.16, 1,    2348.64,   -2.2,   0.97787
"62", 4.16, 1,     2346.1,   -2.2,   0.97682
"63", 4.16, 1,    2344.51,   -2.2,   0.97616
"64", 4.16, 1,    2341.71,   -2.2,   0.97499
"65", 4.16, 1,    2339.15,   -2.2,   0.97392
"66", 4.16, 1,     2338.5,   -2.2,   0.97365
"67", 4.16, 1,     2287.4,   -2.4,   0.95238
"68", 4.16, 1,    2286.35,   -2.4,   0.95194
"72", 4.16, 1,    2287.51,   -2.5,   0.95242
"97", 4.16, 1,    2285.91,   -2.4,   0.95176
"69", 4.16, 1,    2285.15,   -2.4,   0.95144
"70", 4.16, 1,     2284.3,   -2.4,   0.95109
"71", 4.16, 1,    2283.82,   -2.4,   0.95089
"73", 4.16, 1,    2286.07,   -2.5,   0.95182
"76", 4.16, 1,    2287.92,   -2.5,   0.95259
"74", 4.16, 1,    2284.84,   -2.5,   0.95131
"75", 4.16, 1,    2284.14,   -2.5,   0.95102
"77", 4.16, 1,    2290.74,   -2.6,   0.95377
"86", 4.16, 1,    2287.27,   -2.6,   0.95233
"78", 4.16, 1,     2291.5,   -2.6,   0.95409
"79", 4.16, 1,    2291.38,   -2.6,   0.95404
"80", 4.16, 1,    2295.38,   -2.7,    0.9557
"81", 4.16, 1,     2296.9,   -2.7,   0.95633
"82", 4.16, 1,    2299.28,   -2.8,   0.95732
"84", 4.16, 1,    2295.14,   -2.7,    0.9556
"83", 4.16, 1,    2301.79,   -2.8,   0.95837
"85", 4.16, 1,    2294.31,   -2.7,   0.95526
"87", 4.16, 1,    2286.98,   -2.6,    0.9522
"88", 4.16, 1,       2287,   -2.6,   0.95221
"89", 4.16, 1,    2286.86,   -2.7,   0.95216
"90", 4.16, 1,    2286.89,   -2.7,   0.95217
"91", 4.16, 1,    2286.69,   -2.7,   0.95208
"92", 4.16, 1,    2286.73,   -2.7,    0.9521
"93", 4.16, 1,    2286.45,   -2.7,   0.95198
"94", 4.16, 1,    2285.97,   -2.7,   0.95178
"95", 4.16, 1,    2286.29,   -2.7,   0.95192
"96", 4.16, 1,    2286.12,   -2.7,   0.95184
"98", 4.16, 1,    2285.46,   -2.4,   0.95157
"99", 4.16, 1,    2284.87,   -2.4,   0.95132
"100", 4.16, 1,    2284.71,   -2.4,   0.95126
"450", 4.16, 1,    2284.71,   -2.4,   0.95126
"197", 4.16, 1,    2285.91,   -2.4,   0.95176
"101", 4.16, 1,    2284.83,   -2.4,   0.95131
"102", 4.16, 1,    2283.84,   -2.4,    0.9509
"105", 4.16, 1,    2284.01,   -2.4,   0.95097
"103", 4.16, 1,    2282.71,   -2.4,   0.95042
"104", 4.16, 1,    2281.48,   -2.4,   0.94991
"106", 4.16, 1,    2283.22,   -2.4,   0.95064
"108", 4.16, 1,    2283.39,   -2.4,   0.95071
"107", 4.16, 1,    2282.22,   -2.4,   0.95022
"109", 4.16, 1,    2280.63,   -2.5,   0.94956
"300", 4.16, 1,    2283.39,   -2.4,   0.95071
"110", 4.16, 1,    2279.32,   -2.5,   0.94901
"111", 4.16, 1,    2278.82,   -2.5,    0.9488
"112", 4.16, 1,    2278.88,   -2.5,   0.94883
"113", 4.16, 1,     2277.5,   -2.5,   0.94826
"114", 4.16, 1,    2277.22,   -2.5,   0.94814
"135", 4.16, 1,    2360.28,   -1.3,   0.98272
"152", 4.16, 1,     2373.4,   -1.1,   0.98818
"160R", 4.16, 1,    2289.92,   -2.2,   0.95343
"150R", 4.16, 1,       2415,    0.0,    1.0055
"160", 4.16, 1,    2348.64,   -2.2,   0.97787
"610", 4.16, 1,    2348.64,   -2.2,   0.97787
