Bus, BasekV, Node1, Magnitude1, Angle1, pu1
"150", 4.16, 1,       2400,    0.0,   0.99926
"149", 4.16, 1,       2415,    0.0,    1.0055
"1", 4.16, 1,    2405.36,   -0.3,    1.0015
"2", 4.16, 1,    2405.25,   -0.3,    1.0014
"3", 4.16, 1,    2404.58,   -0.3,    1.0012
"7", 4.16, 1,    2398.63,   -0.5,   0.99869
"4", 4.16, 1,    2404.33,   -0.3,    1.0011
"5", 4.16, 1,    2403.97,   -0.3,    1.0009
"6", 4.16, 1,    2403.66,   -0.3,    1.0008
"8", 4.16, 1,     2394.2,   -0.6,   0.99685
"12", 4.16, 1,    2394.06,   -0.6,   0.99679
"9", 4.16, 1,     2393.5,   -0.7,   0.99655
"13", 4.16, 1,    2387.94,   -0.9,   0.99424
"9R", 4.16, 1,     2318.7,   -0.7,   0.96541
"14", 4.16, 1,    2317.88,   -0.7,   0.96507
"34", 4.16, 1,    2387.47,   -0.9,   0.99404
"18", 4.16, 1,    2378.18,   -1.0,   0.99018
"11", 4.16, 1,    2317.55,   -0.7,   0.96493
"10", 4.16, 1,    2317.72,   -0.7,     0.965
"15", 4.16, 1,    2387.28,   -0.9,   0.99396
"16", 4.16, 1,    2386.81,   -0.9,   0.99377
"17", 4.16, 1,    2387.06,   -0.9,   0.99387
"19", 4.16, 1,    2377.55,   -1.0,   0.98991
"21", 4.16, 1,    2377.36,   -1.0,   0.98984
"20", 4.16, 1,    2377.14,   -1.0,   0.98974
"22", 4.16, 1,     2376.7,   -1.0,   0.98956
"23", 4.16, 1,    2376.78,   -1.0,   0.98959
"24", 4.16, 1,    2376.09,   -1.0,    0.9893
"25", 4.16, 1,    2376.24,   -1.0,   0.98937
"25R", 4.16, 1,    2435.65,   -1.0,    1.0141
"26", 4.16, 1,    2435.37,   -1.1,     1.014
"28", 4.16, 1,    2376.01,   -1.1,   0.98927
"27", 4.16, 1,    2435.26,   -1.1,    1.0139
"31", 4.16, 1,    2435.09,   -1.1,    1.0139
"33", 4.16, 1,    2434.65,   -1.1,    1.0137
"29", 4.16, 1,    2375.78,   -1.1,   0.98917
"30", 4.16, 1,    2375.64,   -1.1,   0.98912
"250", 4.16, 1,    2375.64,   -1.1,   0.98912
"32", 4.16, 1,    2434.91,   -1.1,    1.0138
"35", 4.16, 1,    2375.07,   -1.1,   0.98888
"36", 4.16, 1,    2374.54,   -1.1,   0.98866
"40", 4.16, 1,    2373.29,   -1.1,   0.98814
"37", 4.16, 1,    2374.16,   -1.1,    0.9885
"38", 4.16, 1,    2374.22,   -1.1,   0.98853
"39", 4.16, 1,    2374.02,   -1.1,   0.98844
"41", 4.16, 1,    2373.08,   -1.1,   0.98805
"42", 4.16, 1,    2371.56,   -1.1,   0.98742
"43", 4.16, 1,    2370.92,   -1.1,   0.98715
"44", 4.16, 1,    2370.29,   -1.1,   0.98689
"45", 4.16, 1,    2370.03,   -1.1,   0.98678
"47", 4.16, 1,     2368.8,   -1.1,   0.98627
"46", 4.16, 1,    2369.84,   -1.1,    0.9867
"48", 4.16, 1,    2368.42,   -1.2,   0.98611
"49", 4.16, 1,    2368.25,   -1.2,   0.98604
"50", 4.16, 1,     2368.1,   -1.2,   0.98598
"51", 4.16, 1,    2368.05,   -1.2,   0.98596
"151", 4.16, 1,    2368.05,   -1.2,   0.98596
"52", 4.16, 1,    2384.74,   -1.1,    0.9929
"53", 4.16, 1,    2383.22,   -1.1,   0.99227
"54", 4.16, 1,    2382.33,   -1.2,    0.9919
"55", 4.16, 1,    2382.22,   -1.2,   0.99186
"57", 4.16, 1,    2379.98,   -1.4,   0.99092
"56", 4.16, 1,    2382.17,   -1.2,   0.99184
"58", 4.16, 1,    2379.66,   -1.4,   0.99079
"60", 4.16, 1,     2375.3,   -1.7,   0.98897
"59", 4.16, 1,    2379.51,   -1.4,   0.99073
"61", 4.16, 1,     2375.3,   -1.7,   0.98897
"62", 4.16, 1,    2373.42,   -1.7,   0.98819
"63", 4.16, 1,    2372.24,   -1.7,    0.9877
"64", 4.16, 1,    2370.16,   -1.7,   0.98684
"65", 4.16, 1,    2368.26,   -1.7,   0.98605
"66", 4.16, 1,    2367.79,   -1.7,   0.98585
"67", 4.16, 1,    2315.17,   -1.9,   0.96394
"68", 4.16, 1,    2314.39,   -1.9,   0.96362
"72", 4.16, 1,    2316.13,   -2.0,   0.96434
"97", 4.16, 1,    2314.07,   -1.9,   0.96348
"69", 4.16, 1,     2313.5,   -1.9,   0.96325
"70", 4.16, 1,    2312.87,   -1.9,   0.96298
"71", 4.16, 1,    2312.51,   -1.9,   0.96283
"73", 4.16, 1,    2315.06,   -2.0,   0.96389
"76", 4.16, 1,    2317.06,   -2.0,   0.96473
"74", 4.16, 1,    2314.15,   -2.0,   0.96352
"75", 4.16, 1,    2313.63,   -2.0,    0.9633
"77", 4.16, 1,    2320.17,   -2.1,   0.96602
"86", 4.16, 1,    2317.04,   -2.1,   0.96472
"78", 4.16, 1,    2320.99,   -2.1,   0.96636
"79", 4.16, 1,     2320.9,   -2.1,   0.96633
"80", 4.16, 1,    2325.07,   -2.2,   0.96806
"81", 4.16, 1,    2326.64,   -2.2,   0.96872
"82", 4.16, 1,    2329.04,   -2.2,   0.96971
"84", 4.16, 1,    2325.34,   -2.2,   0.96817
"83", 4.16, 1,    2331.54,   -2.3,   0.97075
"85", 4.16, 1,    2324.73,   -2.2,   0.96792
"87", 4.16, 1,    2317.11,   -2.1,   0.96475
"88", 4.16, 1,     2317.2,   -2.1,   0.96479
"89", 4.16, 1,    2317.14,   -2.1,   0.96476
"90", 4.16, 1,    2317.27,   -2.1,   0.96482
"91", 4.16, 1,    2317.06,   -2.1,   0.96473
"92", 4.16, 1,    2317.22,   -2.1,    0.9648
"93", 4.16, 1,    2316.88,   -2.1,   0.96465
"94", 4.16, 1,    2316.53,   -2.1,   0.96451
"95", 4.16, 1,    2316.76,   -2.1,    0.9646
"96", 4.16, 1,    2316.63,   -2.1,   0.96455
"98", 4.16, 1,    2313.74,   -1.9,   0.96334
"99", 4.16, 1,     2313.3,   -1.9,   0.96316
"100", 4.16, 1,    2313.18,   -1.9,   0.96311
"450", 4.16, 1,    2313.18,   -1.9,   0.96311
"197", 4.16, 1,    2314.07,   -1.9,   0.96348
"101", 4.16, 1,    2313.26,   -1.9,   0.96315
"102", 4.16, 1,    2312.54,   -1.9,   0.96284
"105", 4.16, 1,    2312.66,   -1.9,   0.96289
"103", 4.16, 1,    2311.69,   -1.9,   0.96249
"104", 4.16, 1,    2310.79,   -1.9,   0.96212
"106", 4.16, 1,    2312.07,   -1.9,   0.96265
"108", 4.16, 1,     2312.2,   -1.9,    0.9627
"107", 4.16, 1,    2311.33,   -1.9,   0.96234
"109", 4.16, 1,    2310.16,   -1.9,   0.96185
"300", 4.16, 1,     2312.2,   -1.9,    0.9627
"110", 4.16, 1,    2309.19,   -1.9,   0.96145
"111", 4.16, 1,    2308.81,   -2.0,   0.96129
"112", 4.16, 1,    2308.86,   -2.0,   0.96131
"113", 4.16, 1,    2307.84,   -2.0,   0.96089
"114", 4.16, 1,    2307.63,   -2.0,    0.9608
"135", 4.16, 1,    2378.18,   -1.0,   0.99018
"152", 4.16, 1,    2387.94,   -0.9,   0.99424
"160R", 4.16, 1,    2315.93,   -1.7,   0.96426
"150R", 4.16, 1,       2415,    0.0,    1.0055
"160", 4.16, 1,     2375.3,   -1.7,   0.98897
"610", 4.16, 1,     2375.3,   -1.7,   0.98897
