Bus, BasekV, Node1, Magnitude1, Angle1, pu1
"150", 4.16, 1,       2400,    0.0,   0.99926
"149", 4.16, 1,       2415,    0.0,    1.0055
"1", 4.16, 1,    2403.42,   -0.3,    1.0007
"2", 4.16, 1,     2403.3,   -0.3,    1.0006
"3", 4.16, 1,    2402.54,   -0.3,    1.0003
"7", 4.16, 1,    2395.31,   -0.6,   0.99731
"4", 4.16, 1,    2402.26,   -0.3,    1.0002
"5", 4.16, 1,    2401.85,   -0.3,         1
"6", 4.16, 1,     2401.5,   -0.3,   0.99989
"8", 4.16, 1,    2389.97,   -0.7,   0.99508
"12", 4.16, 1,    2389.81,   -0.7,   0.99502
"9", 4.16, 1,    2389.17,   -0.7,   0.99475
"13", 4.16, 1,    2382.38,   -0.9,   0.99192
"9R", 4.16, 1,    2314.51,   -0.7,   0.96366
"14", 4.16, 1,    2313.58,   -0.7,   0.96328
"34", 4.16, 1,    2381.85,   -1.0,    0.9917
"18", 4.16, 1,    2371.34,   -1.1,   0.98733
"11", 4.16, 1,    2313.21,   -0.7,   0.96313
"10", 4.16, 1,     2313.4,   -0.7,    0.9632
"15", 4.16, 1,    2381.64,   -1.0,   0.99161
"16", 4.16, 1,     2381.1,   -1.0,   0.99139
"17", 4.16, 1,    2381.39,   -1.0,   0.99151
"19", 4.16, 1,    2370.63,   -1.1,   0.98703
"21", 4.16, 1,    2370.41,   -1.1,   0.98694
"20", 4.16, 1,    2370.16,   -1.1,   0.98684
"22", 4.16, 1,    2369.66,   -1.1,   0.98663
"23", 4.16, 1,    2369.75,   -1.2,   0.98667
"24", 4.16, 1,    2368.97,   -1.2,   0.98634
"25", 4.16, 1,    2369.14,   -1.2,   0.98641
"25R", 4.16, 1,    2428.37,   -1.2,    1.0111
"26", 4.16, 1,    2428.06,   -1.2,    1.0109
"28", 4.16, 1,    2368.88,   -1.2,    0.9863
"27", 4.16, 1,    2427.93,   -1.2,    1.0109
"31", 4.16, 1,    2427.74,   -1.2,    1.0108
"33", 4.16, 1,    2427.24,   -1.2,    1.0106
"29", 4.16, 1,    2368.61,   -1.2,   0.98619
"30", 4.16, 1,    2368.46,   -1.2,   0.98613
"250", 4.16, 1,    2368.46,   -1.2,   0.98613
"32", 4.16, 1,    2427.53,   -1.2,    1.0107
"35", 4.16, 1,    2367.81,   -1.2,   0.98586
"36", 4.16, 1,    2367.21,   -1.2,   0.98561
"40", 4.16, 1,     2365.8,   -1.2,   0.98502
"37", 4.16, 1,    2366.78,   -1.2,   0.98543
"38", 4.16, 1,    2366.86,   -1.2,   0.98546
"39", 4.16, 1,    2366.62,   -1.2,   0.98536
"41", 4.16, 1,    2365.56,   -1.2,   0.98492
"42", 4.16, 1,    2363.84,   -1.2,    0.9842
"43", 4.16, 1,    2363.12,   -1.2,    0.9839
"44", 4.16, 1,     2362.4,   -1.3,    0.9836
"45", 4.16, 1,    2362.11,   -1.3,   0.98349
"47", 4.16, 1,    2360.71,   -1.3,    0.9829
"46", 4.16, 1,     2361.9,   -1.3,    0.9834
"48", 4.16, 1,    2360.29,   -1.3,   0.98273
"49", 4.16, 1,    2360.09,   -1.3,   0.98264
"50", 4.16, 1,    2359.92,   -1.3,   0.98257
"51", 4.16, 1,    2359.87,   -1.3,   0.98255
"151", 4.16, 1,    2359.87,   -1.3,   0.98255
"52", 4.16, 1,    2378.11,   -1.2,   0.99014
"53", 4.16, 1,    2376.07,   -1.3,    0.9893
"54", 4.16, 1,    2374.85,   -1.3,   0.98879
"55", 4.16, 1,    2374.73,   -1.3,   0.98874
"57", 4.16, 1,    2371.62,   -1.5,   0.98745
"56", 4.16, 1,    2374.67,   -1.3,   0.98871
"58", 4.16, 1,    2371.27,   -1.5,    0.9873
"60", 4.16, 1,    2365.11,   -1.9,   0.98473
"59", 4.16, 1,    2371.09,   -1.5,   0.98722
"61", 4.16, 1,    2365.11,   -1.9,   0.98473
"62", 4.16, 1,    2362.98,   -1.9,   0.98385
"63", 4.16, 1,    2361.65,   -1.9,   0.98329
"64", 4.16, 1,    2359.29,   -1.9,   0.98231
"65", 4.16, 1,    2357.14,   -1.9,   0.98141
"66", 4.16, 1,     2356.6,   -1.9,   0.98119
"67", 4.16, 1,    2304.56,   -2.1,   0.95952
"68", 4.16, 1,    2303.68,   -2.1,   0.95916
"72", 4.16, 1,    2305.19,   -2.1,   0.95979
"97", 4.16, 1,    2303.31,   -2.1,     0.959
"69", 4.16, 1,    2302.67,   -2.1,   0.95874
"70", 4.16, 1,    2301.95,   -2.1,   0.95844
"71", 4.16, 1,    2301.55,   -2.1,   0.95827
"73", 4.16, 1,    2303.98,   -2.2,   0.95928
"76", 4.16, 1,    2305.93,   -2.2,   0.96009
"74", 4.16, 1,    2302.95,   -2.2,   0.95885
"75", 4.16, 1,    2302.37,   -2.2,   0.95861
"77", 4.16, 1,    2308.93,   -2.3,   0.96134
"86", 4.16, 1,    2305.66,   -2.3,   0.95998
"78", 4.16, 1,    2309.72,   -2.3,   0.96167
"79", 4.16, 1,    2309.62,   -2.3,   0.96163
"80", 4.16, 1,    2313.72,   -2.4,   0.96334
"81", 4.16, 1,    2315.28,   -2.4,   0.96398
"82", 4.16, 1,    2317.67,   -2.4,   0.96498
"84", 4.16, 1,     2313.8,   -2.4,   0.96337
"83", 4.16, 1,    2320.17,   -2.5,   0.96602
"85", 4.16, 1,     2313.1,   -2.4,   0.96308
"87", 4.16, 1,     2305.6,   -2.3,   0.95996
"88", 4.16, 1,    2305.66,   -2.3,   0.95998
"89", 4.16, 1,    2305.57,   -2.3,   0.95994
"90", 4.16, 1,    2305.67,   -2.3,   0.95998
"91", 4.16, 1,    2305.46,   -2.3,    0.9599
"92", 4.16, 1,    2305.57,   -2.3,   0.95994
"93", 4.16, 1,    2305.25,   -2.3,   0.95981
"94", 4.16, 1,    2304.85,   -2.3,   0.95964
"95", 4.16, 1,    2305.12,   -2.3,   0.95976
"96", 4.16, 1,    2304.97,   -2.3,   0.95969
"98", 4.16, 1,    2302.93,   -2.1,   0.95885
"99", 4.16, 1,    2302.44,   -2.1,   0.95864
"100", 4.16, 1,     2302.3,   -2.1,   0.95858
"450", 4.16, 1,     2302.3,   -2.1,   0.95858
"197", 4.16, 1,    2303.31,   -2.1,     0.959
"101", 4.16, 1,     2302.4,   -2.1,   0.95862
"102", 4.16, 1,    2301.57,   -2.1,   0.95828
"105", 4.16, 1,    2301.71,   -2.1,   0.95834
"103", 4.16, 1,    2300.62,   -2.1,   0.95788
"104", 4.16, 1,    2299.59,   -2.1,   0.95745
"106", 4.16, 1,    2301.05,   -2.1,   0.95806
"108", 4.16, 1,    2301.19,   -2.1,   0.95812
"107", 4.16, 1,    2300.21,   -2.1,   0.95771
"109", 4.16, 1,    2298.88,   -2.1,   0.95716
"300", 4.16, 1,    2301.19,   -2.1,   0.95812
"110", 4.16, 1,    2297.78,   -2.1,    0.9567
"111", 4.16, 1,    2297.35,   -2.1,   0.95652
"112", 4.16, 1,    2297.41,   -2.1,   0.95654
"113", 4.16, 1,    2296.25,   -2.2,   0.95606
"114", 4.16, 1,    2296.01,   -2.2,   0.95596
"135", 4.16, 1,    2371.34,   -1.1,   0.98733
"152", 4.16, 1,    2382.38,   -0.9,   0.99192
"160R", 4.16, 1,    2305.99,   -1.9,   0.96012
"150R", 4.16, 1,       2415,    0.0,    1.0055
"160", 4.16, 1,    2365.11,   -1.9,   0.98473
"610", 4.16, 1,    2365.11,   -1.9,   0.98473
