Bus, BasekV, Node1, Magnitude1, Angle1, pu1
"150", 4.16, 1,       2400,    0.0,   0.99926
"149", 4.16, 1,       2415,    0.0,    1.0055
"1", 4.16, 1,    2404.83,   -0.3,    1.0013
"2", 4.16, 1,    2404.71,   -0.3,    1.0012
"3", 4.16, 1,    2404.02,   -0.3,    1.0009
"7", 4.16, 1,    2397.72,   -0.5,   0.99831
"4", 4.16, 1,    2403.76,   -0.3,    1.0008
"5", 4.16, 1,    2403.39,   -0.3,    1.0007
"6", 4.16, 1,    2403.07,   -0.3,    1.0005
"8", 4.16, 1,    2393.04,   -0.7,   0.99636
"12", 4.16, 1,    2392.89,   -0.7,    0.9963
"9", 4.16, 1,    2392.31,   -0.7,   0.99606
"13", 4.16, 1,    2386.41,   -0.9,    0.9936
"9R", 4.16, 1,    2317.55,   -0.7,   0.96493
"14", 4.16, 1,     2316.7,   -0.7,   0.96458
"34", 4.16, 1,    2385.92,   -0.9,    0.9934
"18", 4.16, 1,     2376.3,   -1.0,   0.98939
"11", 4.16, 1,    2316.36,   -0.7,   0.96444
"10", 4.16, 1,    2316.53,   -0.7,   0.96451
"15", 4.16, 1,    2385.73,   -0.9,   0.99332
"16", 4.16, 1,    2385.24,   -0.9,   0.99311
"17", 4.16, 1,     2385.5,   -0.9,   0.99322
"19", 4.16, 1,    2375.65,   -1.0,   0.98912
"21", 4.16, 1,    2375.45,   -1.1,   0.98904
"20", 4.16, 1,    2375.23,   -1.1,   0.98895
"22", 4.16, 1,    2374.77,   -1.1,   0.98875
"23", 4.16, 1,    2374.85,   -1.1,   0.98879
"24", 4.16, 1,    2374.13,   -1.1,   0.98849
"25", 4.16, 1,    2374.29,   -1.1,   0.98856
"25R", 4.16, 1,    2433.65,   -1.1,    1.0133
"26", 4.16, 1,    2433.36,   -1.1,    1.0131
"28", 4.16, 1,    2374.05,   -1.1,   0.98846
"27", 4.16, 1,    2433.25,   -1.1,    1.0131
"31", 4.16, 1,    2433.07,   -1.1,     1.013
"33", 4.16, 1,    2432.61,   -1.1,    1.0128
"29", 4.16, 1,    2373.81,   -1.1,   0.98835
"30", 4.16, 1,    2373.67,   -1.1,    0.9883
"250", 4.16, 1,    2373.67,   -1.1,    0.9883
"32", 4.16, 1,    2432.88,   -1.1,     1.013
"35", 4.16, 1,    2373.08,   -1.1,   0.98805
"36", 4.16, 1,    2372.53,   -1.1,   0.98782
"40", 4.16, 1,    2371.23,   -1.1,   0.98728
"37", 4.16, 1,    2372.13,   -1.1,   0.98766
"38", 4.16, 1,     2372.2,   -1.1,   0.98769
"39", 4.16, 1,    2371.99,   -1.1,    0.9876
"41", 4.16, 1,    2371.02,   -1.1,   0.98719
"42", 4.16, 1,    2369.43,   -1.1,   0.98653
"43", 4.16, 1,    2368.78,   -1.1,   0.98626
"44", 4.16, 1,    2368.12,   -1.2,   0.98599
"45", 4.16, 1,    2367.86,   -1.2,   0.98588
"47", 4.16, 1,    2366.58,   -1.2,   0.98534
"46", 4.16, 1,    2367.66,   -1.2,    0.9858
"48", 4.16, 1,    2366.19,   -1.2,   0.98518
"49", 4.16, 1,    2366.01,   -1.2,   0.98511
"50", 4.16, 1,    2365.86,   -1.2,   0.98504
"51", 4.16, 1,     2365.8,   -1.2,   0.98502
"151", 4.16, 1,     2365.8,   -1.2,   0.98502
"52", 4.16, 1,    2382.91,   -1.1,   0.99215
"53", 4.16, 1,    2381.26,   -1.2,   0.99146
"54", 4.16, 1,    2380.28,   -1.2,   0.99105
"55", 4.16, 1,    2380.17,   -1.2,     0.991
"57", 4.16, 1,    2377.68,   -1.4,   0.98997
"56", 4.16, 1,    2380.11,   -1.2,   0.99098
"58", 4.16, 1,    2377.36,   -1.4,   0.98983
"60", 4.16, 1,     2372.5,   -1.8,   0.98781
"59", 4.16, 1,     2377.2,   -1.4,   0.98977
"61", 4.16, 1,     2372.5,   -1.8,   0.98781
"62", 4.16, 1,    2370.55,   -1.8,     0.987
"63", 4.16, 1,    2369.33,   -1.8,   0.98649
"64", 4.16, 1,    2367.18,   -1.8,   0.98559
"65", 4.16, 1,    2365.21,   -1.8,   0.98477
"66", 4.16, 1,    2364.71,   -1.8,   0.98457
"67", 4.16, 1,    2312.25,   -1.9,   0.96273
"68", 4.16, 1,    2311.45,   -1.9,   0.96239
"72", 4.16, 1,    2313.12,   -2.0,   0.96309
"97", 4.16, 1,    2311.11,   -1.9,   0.96225
"69", 4.16, 1,    2310.53,   -1.9,   0.96201
"70", 4.16, 1,    2309.87,   -1.9,   0.96173
"71", 4.16, 1,     2309.5,   -1.9,   0.96158
"73", 4.16, 1,    2312.01,   -2.0,   0.96263
"76", 4.16, 1,       2314,   -2.1,   0.96345
"74", 4.16, 1,    2311.08,   -2.0,   0.96224
"75", 4.16, 1,    2310.54,   -2.0,   0.96201
"77", 4.16, 1,    2317.08,   -2.1,   0.96474
"86", 4.16, 1,    2313.91,   -2.1,   0.96342
"78", 4.16, 1,     2317.9,   -2.1,   0.96508
"79", 4.16, 1,     2317.8,   -2.2,   0.96504
"80", 4.16, 1,    2321.95,   -2.2,   0.96676
"81", 4.16, 1,    2323.52,   -2.2,   0.96742
"82", 4.16, 1,    2325.91,   -2.3,   0.96841
"84", 4.16, 1,    2322.17,   -2.3,   0.96685
"83", 4.16, 1,    2328.41,   -2.3,   0.96945
"85", 4.16, 1,    2321.53,   -2.3,   0.96659
"87", 4.16, 1,    2313.95,   -2.2,   0.96343
"88", 4.16, 1,    2314.03,   -2.2,   0.96347
"89", 4.16, 1,    2313.96,   -2.2,   0.96344
"90", 4.16, 1,    2314.09,   -2.2,   0.96349
"91", 4.16, 1,    2313.87,   -2.2,    0.9634
"92", 4.16, 1,    2314.02,   -2.2,   0.96346
"93", 4.16, 1,    2313.69,   -2.2,   0.96332
"94", 4.16, 1,    2313.32,   -2.2,   0.96317
"95", 4.16, 1,    2313.56,   -2.2,   0.96327
"96", 4.16, 1,    2313.43,   -2.2,   0.96322
"98", 4.16, 1,    2310.77,   -1.9,   0.96211
"99", 4.16, 1,    2310.31,   -2.0,   0.96192
"100", 4.16, 1,    2310.19,   -2.0,   0.96187
"450", 4.16, 1,    2310.19,   -2.0,   0.96187
"197", 4.16, 1,    2311.11,   -1.9,   0.96225
"101", 4.16, 1,    2310.28,   -2.0,    0.9619
"102", 4.16, 1,    2309.52,   -2.0,   0.96159
"105", 4.16, 1,    2309.65,   -2.0,   0.96164
"103", 4.16, 1,    2308.65,   -2.0,   0.96123
"104", 4.16, 1,    2307.71,   -2.0,   0.96083
"106", 4.16, 1,    2309.05,   -2.0,   0.96139
"108", 4.16, 1,    2309.18,   -2.0,   0.96145
"107", 4.16, 1,    2308.27,   -2.0,   0.96107
"109", 4.16, 1,    2307.06,   -2.0,   0.96056
"300", 4.16, 1,    2309.18,   -2.0,   0.96145
"110", 4.16, 1,    2306.05,   -2.0,   0.96014
"111", 4.16, 1,    2305.67,   -2.0,   0.95998
"112", 4.16, 1,    2305.72,   -2.0,      0.96
"113", 4.16, 1,    2304.66,   -2.0,   0.95956
"114", 4.16, 1,    2304.44,   -2.0,   0.95947
"135", 4.16, 1,     2376.3,   -1.0,   0.98939
"152", 4.16, 1,    2386.41,   -0.9,    0.9936
"160R", 4.16, 1,     2313.2,   -1.8,   0.96312
"150R", 4.16, 1,       2415,    0.0,    1.0055
"160", 4.16, 1,     2372.5,   -1.8,   0.98781
"610", 4.16, 1,     2372.5,   -1.8,   0.98781
