Bus, BasekV, Node1, Magnitude1, Angle1, pu1
"150", 4.16, 1,       2400,    0.0,   0.99926
"149", 4.16, 1,       2415,    0.0,    1.0055
"1", 4.16, 1,     2404.7,   -0.3,    1.0012
"2", 4.16, 1,    2404.58,   -0.3,    1.0012
"3", 4.16, 1,    2403.88,   -0.3,    1.0009
"7", 4.16, 1,     2397.5,   -0.5,   0.99822
"4", 4.16, 1,    2403.62,   -0.3,    1.0008
"5", 4.16, 1,    2403.25,   -0.3,    1.0006
"6", 4.16, 1,    2402.92,   -0.3,    1.0005
"8", 4.16, 1,    2392.76,   -0.7,   0.99624
"12", 4.16, 1,    2392.61,   -0.7,   0.99618
"9", 4.16, 1,    2392.02,   -0.7,   0.99594
"13", 4.16, 1,    2386.04,   -0.9,   0.99345
"9R", 4.16, 1,    2317.27,   -0.7,   0.96481
"14", 4.16, 1,    2316.41,   -0.7,   0.96446
"34", 4.16, 1,    2385.55,   -0.9,   0.99324
"18", 4.16, 1,    2375.84,   -1.0,    0.9892
"11", 4.16, 1,    2316.07,   -0.7,   0.96432
"10", 4.16, 1,    2316.24,   -0.7,   0.96439
"15", 4.16, 1,    2385.35,   -0.9,   0.99316
"16", 4.16, 1,    2384.86,   -0.9,   0.99296
"17", 4.16, 1,    2385.12,   -0.9,   0.99306
"19", 4.16, 1,    2375.19,   -1.1,   0.98893
"21", 4.16, 1,    2374.99,   -1.1,   0.98885
"20", 4.16, 1,    2374.76,   -1.1,   0.98875
"22", 4.16, 1,     2374.3,   -1.1,   0.98856
"23", 4.16, 1,    2374.38,   -1.1,   0.98859
"24", 4.16, 1,    2373.65,   -1.1,   0.98829
"25", 4.16, 1,    2373.82,   -1.1,   0.98836
"25R", 4.16, 1,    2433.16,   -1.1,    1.0131
"26", 4.16, 1,    2432.87,   -1.1,    1.0129
"28", 4.16, 1,    2373.57,   -1.1,   0.98826
"27", 4.16, 1,    2432.76,   -1.1,    1.0129
"31", 4.16, 1,    2432.58,   -1.1,    1.0128
"33", 4.16, 1,    2432.11,   -1.1,    1.0126
"29", 4.16, 1,    2373.33,   -1.1,   0.98815
"30", 4.16, 1,    2373.19,   -1.1,    0.9881
"250", 4.16, 1,    2373.19,   -1.1,    0.9881
"32", 4.16, 1,    2432.39,   -1.1,    1.0127
"35", 4.16, 1,    2372.59,   -1.1,   0.98785
"36", 4.16, 1,    2372.03,   -1.1,   0.98762
"40", 4.16, 1,    2370.73,   -1.1,   0.98707
"37", 4.16, 1,    2371.64,   -1.1,   0.98745
"38", 4.16, 1,    2371.71,   -1.1,   0.98748
"39", 4.16, 1,    2371.49,   -1.1,   0.98739
"41", 4.16, 1,    2370.51,   -1.1,   0.98698
"42", 4.16, 1,    2368.92,   -1.2,   0.98632
"43", 4.16, 1,    2368.26,   -1.2,   0.98604
"44", 4.16, 1,    2367.59,   -1.2,   0.98577
"45", 4.16, 1,    2367.33,   -1.2,   0.98566
"47", 4.16, 1,    2366.04,   -1.2,   0.98512
"46", 4.16, 1,    2367.13,   -1.2,   0.98557
"48", 4.16, 1,    2365.64,   -1.2,   0.98496
"49", 4.16, 1,    2365.46,   -1.2,   0.98488
"50", 4.16, 1,    2365.31,   -1.2,   0.98482
"51", 4.16, 1,    2365.26,   -1.2,   0.98479
"151", 4.16, 1,    2365.26,   -1.2,   0.98479
"52", 4.16, 1,    2382.47,   -1.1,   0.99196
"53", 4.16, 1,    2380.78,   -1.2,   0.99126
"54", 4.16, 1,    2379.78,   -1.3,   0.99084
"55", 4.16, 1,    2379.66,   -1.3,   0.99079
"57", 4.16, 1,    2377.13,   -1.4,   0.98974
"56", 4.16, 1,    2379.61,   -1.3,   0.99077
"58", 4.16, 1,     2376.8,   -1.4,    0.9896
"60", 4.16, 1,    2371.82,   -1.8,   0.98753
"59", 4.16, 1,    2376.63,   -1.4,   0.98953
"61", 4.16, 1,    2371.82,   -1.8,   0.98753
"62", 4.16, 1,    2369.85,   -1.8,   0.98671
"63", 4.16, 1,    2368.62,   -1.8,    0.9862
"64", 4.16, 1,    2366.45,   -1.8,   0.98529
"65", 4.16, 1,    2364.46,   -1.8,   0.98446
"66", 4.16, 1,    2363.96,   -1.8,   0.98426
"67", 4.16, 1,    2311.54,   -1.9,   0.96243
"68", 4.16, 1,    2310.73,   -1.9,   0.96209
"72", 4.16, 1,    2312.39,   -2.0,   0.96278
"97", 4.16, 1,    2310.39,   -2.0,   0.96195
"69", 4.16, 1,     2309.8,   -1.9,   0.96171
"70", 4.16, 1,    2309.14,   -2.0,   0.96143
"71", 4.16, 1,    2308.77,   -2.0,   0.96128
"73", 4.16, 1,    2311.27,   -2.0,   0.96232
"76", 4.16, 1,    2313.26,   -2.1,   0.96315
"74", 4.16, 1,    2310.33,   -2.0,   0.96192
"75", 4.16, 1,    2309.79,   -2.0,    0.9617
"77", 4.16, 1,    2316.33,   -2.1,   0.96442
"86", 4.16, 1,    2313.15,   -2.1,    0.9631
"78", 4.16, 1,    2317.14,   -2.2,   0.96476
"79", 4.16, 1,    2317.05,   -2.2,   0.96472
"80", 4.16, 1,    2321.19,   -2.2,   0.96645
"81", 4.16, 1,    2322.76,   -2.3,    0.9671
"82", 4.16, 1,    2325.15,   -2.3,    0.9681
"84", 4.16, 1,     2321.4,   -2.3,   0.96653
"83", 4.16, 1,    2327.65,   -2.3,   0.96914
"85", 4.16, 1,    2320.76,   -2.3,   0.96627
"87", 4.16, 1,    2313.18,   -2.2,   0.96311
"88", 4.16, 1,    2313.26,   -2.2,   0.96315
"89", 4.16, 1,    2313.19,   -2.2,   0.96312
"90", 4.16, 1,    2313.31,   -2.2,   0.96317
"91", 4.16, 1,     2313.1,   -2.2,   0.96308
"92", 4.16, 1,    2313.24,   -2.2,   0.96314
"93", 4.16, 1,    2312.91,   -2.2,     0.963
"94", 4.16, 1,    2312.54,   -2.2,   0.96284
"95", 4.16, 1,    2312.78,   -2.2,   0.96295
"96", 4.16, 1,    2312.65,   -2.2,   0.96289
"98", 4.16, 1,    2310.05,   -2.0,   0.96181
"99", 4.16, 1,    2309.59,   -2.0,   0.96162
"100", 4.16, 1,    2309.46,   -2.0,   0.96156
"450", 4.16, 1,    2309.46,   -2.0,   0.96156
"197", 4.16, 1,    2310.39,   -2.0,   0.96195
"101", 4.16, 1,    2309.55,   -2.0,    0.9616
"102", 4.16, 1,    2308.79,   -2.0,   0.96128
"105", 4.16, 1,    2308.92,   -2.0,   0.96134
"103", 4.16, 1,    2307.91,   -2.0,   0.96092
"104", 4.16, 1,    2306.96,   -2.0,   0.96052
"106", 4.16, 1,    2308.31,   -2.0,   0.96108
"108", 4.16, 1,    2308.44,   -2.0,   0.96114
"107", 4.16, 1,    2307.53,   -2.0,   0.96076
"109", 4.16, 1,    2306.31,   -2.0,   0.96025
"300", 4.16, 1,    2308.44,   -2.0,   0.96114
"110", 4.16, 1,    2305.29,   -2.0,   0.95983
"111", 4.16, 1,     2304.9,   -2.0,   0.95966
"112", 4.16, 1,    2304.95,   -2.0,   0.95968
"113", 4.16, 1,    2303.88,   -2.0,   0.95924
"114", 4.16, 1,    2303.66,   -2.0,   0.95915
"135", 4.16, 1,    2375.84,   -1.0,    0.9892
"152", 4.16, 1,    2386.04,   -0.9,   0.99345
"160R", 4.16, 1,    2312.53,   -1.8,   0.96284
"150R", 4.16, 1,       2415,    0.0,    1.0055
"160", 4.16, 1,    2371.82,   -1.8,   0.98753
"610", 4.16, 1,    2371.82,   -1.8,   0.98753
